!Created with skrf (http://scikit-rf.org).
# Hz S RI R 50.0 
!freq ReS11 ImS11
130000000.0 -0.9900144995464153 0.12564047090451488
138587500.0 -0.9879953627046004 0.1323419613161458
147175000.0 -0.9884841649292102 0.14045785319263268
155762500.0 -0.9853686304371346 0.14890887105423184
164350000.0 -0.9847353144328215 0.15583025765674063
172937500.0 -0.9834682721798819 0.16486968047800532
181525000.0 -0.9832988925780111 0.17188909300377966
190112500.0 -0.9797469331854674 0.18094910536378073
198700000.0 -0.9784007025464343 0.18797620349942712
207287500.0 -0.9771668892715257 0.19697980997511927
215875000.0 -0.974917729393641 0.20436525207281617
224462500.0 -0.9726466153246359 0.21374007507426987
233050000.0 -0.9716756094731144 0.22112700100950872
241637500.0 -0.9697508726112437 0.22811864769962167
250225000.0 -0.9679423821432778 0.23571234301543686
258812500.0 -0.9663752032978978 0.24428102747736455
267400000.0 -0.9628700874827903 0.25218225710999853
275987500.0 -0.9615629255624663 0.2601064146487324
284575000.0 -0.9600207512185919 0.2673907569700285
293162500.0 -0.9574949459998915 0.27467934201144173
301750000.0 -0.9547522221182019 0.2838057693173153
310337500.0 -0.9527995719913929 0.29081853628691956
318925000.0 -0.9497971270467255 0.29907164094228395
327512500.0 -0.9465771726982691 0.30768215453189235
336100000.0 -0.9445126815081827 0.31438719007939125
344687500.0 -0.9424724158720097 0.32164628111597476
353275000.0 -0.9393036235120995 0.3295660185934638
361862500.0 -0.9369431997301955 0.33640670702596004
370450000.0 -0.9334712247390357 0.3442647528670723
379037500.0 -0.931240539744716 0.35270582451880217
387625000.0 -0.9280332023441473 0.35986813791376016
396212500.0 -0.924854334422846 0.3676371643186086
404800000.0 -0.9221529301116235 0.3751775918525463
413387500.0 -0.918264307740376 0.3823496066786955
421975000.0 -0.9153876092681972 0.39056342978461894
430562500.0 -0.9121085376081473 0.3966825887454432
439150000.0 -0.9092641811249846 0.40402736556418206
447737500.0 -0.9057786782067618 0.4119886472391875
456325000.0 -0.9019929621509453 0.41915915074680204
464912500.0 -0.8983862451762773 0.4274579785561537
473500000.0 -0.8950405560277787 0.4335491433718702
482087500.0 -0.8920328451113433 0.44103267648501004
490675000.0 -0.887700692760883 0.4481144616120819
499262500.0 -0.8845228126655559 0.4562140776486918
507850000.0 -0.8802618072667218 0.4624212126804641
516437500.0 -0.8764914838230454 0.4697768338956158
525025000.0 -0.8736759205888618 0.47728473768468477
533612500.0 -0.8693870670028262 0.48360928445647544
542200000.0 -0.8649058974103496 0.4913449864415054
550787500.0 -0.8609374448733651 0.49811243114335996
559375000.0 -0.8572165696035985 0.5049490271479603
567962500.0 -0.8527252099534227 0.511364229562523
576550000.0 -0.8483794835998668 0.5180601480638488
585137500.0 -0.8444114100276792 0.5254279413792265
593725000.0 -0.8399266870300743 0.5322197011239732
602312500.0 -0.8350414882907607 0.5390703183467335
610900000.0 -0.8306840011711788 0.5456577634470694
619487500.0 -0.8259875470943492 0.5526085345616045
628075000.0 -0.8215614289516446 0.5591659772546036
636662500.0 -0.8171731231362299 0.5663614479540109
645250000.0 -0.8129454457978548 0.5727836828735673
653837500.0 -0.8073310163488407 0.5794883342767597
662425000.0 -0.8028090050726946 0.5855106633262276
671012500.0 -0.7983053929710286 0.5921499664173284
679600000.0 -0.7931387201149899 0.5988988592798026
688187500.0 -0.788770772240307 0.6058373784046464
696775000.0 -0.7829817355690766 0.6116248632736074
705362500.0 -0.7792571624921529 0.6179126272995659
713950000.0 -0.7739984431579723 0.6234284184484398
722537500.0 -0.7684520066576829 0.6304275137853336
731125000.0 -0.7621862972891162 0.6363248670150307
739712500.0 -0.7594996980155765 0.6442198322932271
748300000.0 -0.7535188941315989 0.6485911244488468
756887500.0 -0.746906622406556 0.6549538780179375
765475000.0 -0.7424223571473174 0.662710401049392
774062500.0 -0.7348110006084096 0.6654224890548409
782650000.0 -0.732311709956421 0.6730823546981431
791237500.0 -0.7246946534645488 0.6782926974189065
799825000.0 -0.7203658333481823 0.6831867815046765
808412500.0 -0.7140062858549912 0.6907076499588858
817000000.0 -0.7088522953963982 0.6949581009146191
825587500.0 -0.7028332762757669 0.7014460274780142
834175000.0 -0.6982927695631075 0.7068464847500401
842762500.0 -0.690787593349548 0.7123846189514444
851350000.0 -0.6861489037520776 0.7188043545564982
859937500.0 -0.6806856310516386 0.7231450587909684
868525000.0 -0.6749658895348859 0.7285246663927242
877112500.0 -0.6685078592198117 0.7357923422991675
885700000.0 -0.6629098272305497 0.7391560139116646
894287500.0 -0.6570596547716834 0.7458232412439298
902875000.0 -0.6508808558651146 0.7511465769239539
911462500.0 -0.6440852479382261 0.755875447872566
920050000.0 -0.6381569987835649 0.7609330474898315
928637500.0 -0.6321217202212618 0.7659486046782913
937225000.0 -0.6254583426473548 0.771069278020348
945812500.0 -0.6182932001016727 0.776893356991344
954400000.0 -0.6128747861651587 0.7805213404019771
962987500.0 -0.607231360218034 0.7853198631729216
971575000.0 -0.6004654671776863 0.79079474973978
980162500.0 -0.5944677779496165 0.7955225421488086
988750000.0 -0.5871175088567455 0.7999043196333993
997337500.0 -0.5805148256550237 0.8050261677792651
1005925000.0 -0.5746265552526711 0.8096551890999298
1014512500.0 -0.5682353135553456 0.8148991536752508
1023100000.0 -0.5611031438984284 0.8187393421088318
1031687500.0 -0.5548085062321675 0.8238925701462706
1040275000.0 -0.5480762006545098 0.8272246046097282
1048862500.0 -0.5422584672815054 0.8312843491005325
1057450000.0 -0.5335810927216181 0.837344266552765
1066037500.0 -0.5263493458589007 0.8385004293289113
1074625000.0 -0.5204878667389419 0.8445925918538465
1083212500.0 -0.5137869478541273 0.848602197354471
1091800000.0 -0.5077926316331616 0.8525490515950425
1100387500.0 -0.5004713232838565 0.8574501952919927
1108975000.0 -0.4929414172042282 0.8613587947870754
1117562500.0 -0.4854503254120109 0.8653448227010079
1126150000.0 -0.4787185835727903 0.8693532034089845
1134737500.0 -0.4720145072539299 0.8724844212553419
1143325000.0 -0.4637883646887329 0.8777313456142031
1151912500.0 -0.458854669328305 0.8804021395106653
1160500000.0 -0.45024594018999975 0.8838050122871044
1169087500.0 -0.44333043450835186 0.8868387844932817
1177675000.0 -0.4361858260366599 0.8913383627787214
1186262500.0 -0.42957948408923424 0.8944033890635765
1194850000.0 -0.42251145108085747 0.8967322208909323
1203437500.0 -0.4152904961849651 0.9003366521954811
1212025000.0 -0.40861869908677373 0.9034089832058713
1220612500.0 -0.39917138947317377 0.9076165575203299
1229200000.0 -0.3945034121947446 0.911890232027949
1237787500.0 -0.3866468308512204 0.9134797423258038
1246375000.0 -0.37766716858077676 0.9169109134137281
1254962500.0 -0.3708763864009299 0.9203479355508948
1263550000.0 -0.3636320898247363 0.9224466736796505
1272137500.0 -0.3556299956478626 0.9257930401183964
1280725000.0 -0.34862807207757385 0.9284863124112568
1289312500.0 -0.341124876048055 0.9313938256744975
1297900000.0 -0.3334388779423739 0.9335194647669147
1306487500.0 -0.3258249846693355 0.9367722707844929
1315075000.0 -0.3179461039263499 0.9388297754749534
1323662500.0 -0.31096186027302125 0.9414274820200443
1332250000.0 -0.30355787661883243 0.9432259657536969
1340837500.0 -0.295178579931062 0.9459600982318443
1349425000.0 -0.2891036693833986 0.9477700266933011
1358012500.0 -0.27999670872227567 0.9504115590755359
1366600000.0 -0.272532310154149 0.9536303286503944
1375187500.0 -0.26469996542846524 0.9552579144480192
1383775000.0 -0.2582553391374234 0.9577915042359902
1392362500.0 -0.24978721331321643 0.9595412618017208
1400950000.0 -0.24241507110125818 0.9612139471880994
1409537500.0 -0.23584124238579457 0.9636646937242819
1418125000.0 -0.22676367096100397 0.9649932838139015
1426712500.0 -0.21925239589626333 0.9660786446281686
1435300000.0 -0.2108088655782906 0.9686646563773603
1443887500.0 -0.20377988690227347 0.9703982969475881
1452475000.0 -0.1958768486032666 0.9727665459605519
1461062500.0 -0.18757810851839038 0.9735728996744982
1469650000.0 -0.17998018294491255 0.9747427161249677
1478237500.0 -0.17296776649110512 0.9769239968812395
1486825000.0 -0.1634655215741618 0.9771746843702863
1495412500.0 -0.15644204613532534 0.9782638429020337
1504000000.0 -0.14839420982024704 0.9796570205418627
1512587500.0 -0.14173781192326326 0.9802704526212586
1521175000.0 -0.13347626212539873 0.9817297320746095
1529762500.0 -0.1258558806275253 0.982321905538348
1538350000.0 -0.11787731720251284 0.9840792895830709
1546937500.0 -0.108905269530631 0.9858722713621351
1555525000.0 -0.10102652792452518 0.9865349899735669
1564112500.0 -0.09379558524950908 0.986288183433307
1572700000.0 -0.08613783135618029 0.986863522917297
1581287500.0 -0.07737730525376105 0.9878769596315334
1589875000.0 -0.06997919591248511 0.988419860784936
1598462500.0 -0.062127227181541775 0.9889235021654524
1607050000.0 -0.05402030026070067 0.9894505280397313
1615637500.0 -0.046576361672009244 0.9892694562908732
1624225000.0 -0.03797243638135878 0.9895905178802842
1632812500.0 -0.030071157007285895 0.9902655422625628
1641400000.0 -0.022807996703001748 0.9907242820066101
1649987500.0 -0.015330536734761726 0.9903599919321439
1658575000.0 -0.00712142826232365 0.9907984188399342
1667162500.0 0.0011201289406970903 0.990622321627091
1675750000.0 0.00879249345884587 0.9905010503270447
1684337500.0 0.01687759236444041 0.9906904123256203
1692925000.0 0.02418399487282145 0.9907912796482742
1701512500.0 0.033160801561900884 0.9899740643499771
1710100000.0 0.04006637616446609 0.9893476009661739
1718687500.0 0.048380566984982776 0.9892648237930489
1727275000.0 0.056234609617772394 0.9894530931562301
1735862500.0 0.06397275280767456 0.9884266563618862
1744450000.0 0.07219291349847194 0.9882475821418628
1753037500.0 0.07985217491245002 0.9873546921788473
1761625000.0 0.08763102360339561 0.9855095533083417
1770212500.0 0.09587985808564556 0.9858628763506594
1778800000.0 0.1033688433544177 0.9843765839313222
1787387500.0 0.11054728481867035 0.9840378154516344
1795975000.0 0.1195031568758676 0.982386535053471
1804562500.0 0.12668787516424443 0.9816320374192357
1813150000.0 0.13494987296529593 0.9810086702650938
1821737500.0 0.14162802718732512 0.9797546041330031
1830325000.0 0.15089542420592922 0.9784677028968876
1838912500.0 0.15887666176894935 0.9778085685152021
1847500000.0 0.1657742789213486 0.9762307521246811
1856087500.0 0.17317702244973016 0.9747893153410515
1864675000.0 0.18104535685426348 0.9725666889774558
1873262500.0 0.1885890063470805 0.9727145059186395
1881850000.0 0.19733572016127507 0.9711590816034176
1890437500.0 0.20361109310733944 0.9683722577691819
1899025000.0 0.2123980347430682 0.9669667593179122
1907612500.0 0.2207396995287428 0.9650595418507115
1916200000.0 0.22778350701608444 0.9630781924906293
1924787500.0 0.23456396143024008 0.9611584941584608
1933375000.0 0.24258491301841176 0.9601294542995608
1941962500.0 0.24999005247850845 0.9580565011298021
1950550000.0 0.25791241727217684 0.956067297697058
1959137500.0 0.2661603767046831 0.9536185310334228
1967725000.0 0.27335526949260996 0.9525133799541199
1976312500.0 0.28144771162888504 0.94927164397276
1984900000.0 0.28871104921676666 0.9465982242379581
1993487500.0 0.29577033381521334 0.944170017776265
2002075000.0 0.3029319605558843 0.9422721387875537
2010662500.0 0.31062858884419736 0.9402266960477776
2019250000.0 0.3174892063361609 0.9367444573821928
2027837500.0 0.32510442778703486 0.9348332082937426
2036425000.0 0.33296448615425933 0.9320095544542534
2045012500.0 0.340853317602114 0.9300115137825897
2053600000.0 0.34705118081206504 0.9273833959832958
2062187500.0 0.35422452007802313 0.9232543537965495
2070775000.0 0.3620626882147986 0.9209773166589493
2079362500.0 0.36933704766528175 0.9180318230269544
2087950000.0 0.37633416776920026 0.9153569130975396
2096537500.0 0.38466957206005115 0.912519320834456
2105125000.0 0.3915054178498156 0.9095577261848659
2113712500.0 0.3976218044674087 0.905646363358751
2122300000.0 0.4055659162669518 0.9029822594513001
2130887500.0 0.4125671063359434 0.8992917518899091
2139475000.0 0.419064210246601 0.8952822210063729
2148062500.0 0.4278813127366211 0.8932823692207581
2156650000.0 0.43388947658028143 0.8899280261104936
2165237500.0 0.4400318375885295 0.8864129621565193
2173825000.0 0.4474498521881773 0.8817701643895212
2182412500.0 0.45513634697708155 0.8792649887881798
2191000000.0 0.46155568636763566 0.8755843353150415
2199587500.0 0.46799756442221613 0.8711938240532776
2208175000.0 0.4748715477638588 0.868014766061979
2216762500.0 0.4825316560762522 0.8641911687864645
2225350000.0 0.48807463622315184 0.8600601939367536
2233937500.0 0.49554873981167796 0.8561718622949428
2242525000.0 0.5020652729382699 0.8514776331170534
2251112500.0 0.5097917894532993 0.8473173404717169
2259700000.0 0.5159823797334985 0.8437534609563406
2268287500.0 0.5218678784841595 0.8389687897914428
2276875000.0 0.5295812055547351 0.8350610172568286
2285462500.0 0.5369204671002269 0.8309183597775804
2294050000.0 0.5421805896680768 0.8275572486139257
2302637500.0 0.548797756817638 0.823122136511262
2311225000.0 0.5559086408067523 0.8187333379328692
2319812500.0 0.5618324875082198 0.8136657393935904
2328400000.0 0.5681285055482617 0.8106018792559597
2336987500.0 0.574283739878493 0.8046439058213144
2345575000.0 0.5806562112586984 0.8007448829271832
2354162500.0 0.5873934007165305 0.7961195700128761
2362750000.0 0.593208975227702 0.7914838515311441
2371337500.0 0.5988304459711609 0.7866579914712364
2379925000.0 0.6066547816626652 0.7817661659620175
2388512500.0 0.6121920472894251 0.7779033693045158
2397100000.0 0.6178292099207393 0.7718578591344215
2405687500.0 0.6240930009622063 0.7678261560011794
2414275000.0 0.6301815148718227 0.7617662418599387
2422862500.0 0.6360792435676398 0.7578029047464417
2431450000.0 0.642152310430049 0.7525705300165061
2440037500.0 0.6478457161884464 0.7471278306879706
2448625000.0 0.652572606188372 0.7420444834952308
2457212500.0 0.6604266278447856 0.7371700496197995
2465800000.0 0.6655977701818173 0.7327071669388199
2474387500.0 0.6715140090981997 0.7260854300794203
2482975000.0 0.6775513310060634 0.7207905133952186
2491562500.0 0.682809853556288 0.7161231540836485
2500150000.0 0.6878712075941222 0.7108217722955377
2508737500.0 0.6936945940331811 0.7050973382706851
2517325000.0 0.6988836080241613 0.6988336338303969
2525912500.0 0.7045976044822434 0.6935493799772184
2534500000.0 0.7096515650560381 0.6879321829099803
2543087500.0 0.7156233997880581 0.6826665757241777
2551675000.0 0.7205404514754077 0.6772778207197725
2560262500.0 0.7250420765647587 0.6719089114102477
2568850000.0 0.730557329694496 0.6648969340270077
2577437500.0 0.7369020067694589 0.6608303980629835
2586025000.0 0.742099778231104 0.6537772529320725
2594612500.0 0.7478560480983419 0.6484619523995219
2603200000.0 0.7518497910541863 0.642179625134951
2611787500.0 0.7563534026081326 0.6367199548947311
2620375000.0 0.7617213988401632 0.6300000356566781
2628962500.0 0.7665963668402906 0.6243358242619788
2637550000.0 0.7714630835066085 0.6176686140941134
2646137500.0 0.7774069916890703 0.6121774679220164
2654725000.0 0.7812493532580169 0.6049231405707488
2663312500.0 0.7859877504682858 0.5993495977443589
2671900000.0 0.7907555370062942 0.5931311375954247
2680487500.0 0.7952164034741245 0.5875961731556217
2689075000.0 0.8007948916889178 0.5811185523452751
2697662500.0 0.8037947328845111 0.5748162549574036
2706250000.0 0.8090864535639986 0.5688534613616216
2714837500.0 0.8141975673409342 0.5612593068299657
2723425000.0 0.8175215592040721 0.5563437476258003
2732012500.0 0.8217496015228423 0.5490895080847106
2740600000.0 0.8265289115029769 0.5424603306804545
2749187500.0 0.8315893882088585 0.5365638231287367
2757775000.0 0.8352898066538914 0.5294940321505649
2766362500.0 0.8392475105114833 0.5231404575725717
2774950000.0 0.8427644569110617 0.516898627719886
2783537500.0 0.8479341130882664 0.5093841694522647
2792125000.0 0.8515968416782415 0.5028553567255868
2800712500.0 0.8544259303400967 0.49593732553994824
2809300000.0 0.858621336060179 0.4891849241216229
2817887500.0 0.8630304274683138 0.4839620660231249
2826475000.0 0.8666467017310517 0.47610347812464643
2835062500.0 0.869648250540889 0.4692115895940319
2843650000.0 0.8745381985829773 0.4636887838405223
2852237500.0 0.8779891760649194 0.45500554386901565
2860825000.0 0.8806770857436506 0.44820315573707253
2869412500.0 0.8839753463351037 0.44149790449080667
2878000000.0 0.8885084097431368 0.435099273805744
2886587500.0 0.8913899788515274 0.428033685464825
2895175000.0 0.894191142961428 0.42061682095845176
2903762500.0 0.8977444278213376 0.4133211232720438
2912350000.0 0.9011722241718547 0.4063773396632477
2920937500.0 0.904997690144479 0.3992406668286257
2929525000.0 0.9077437662221832 0.3932764488989584
2938112500.0 0.9096223656118432 0.3862494990226509
2946700000.0 0.9138472444140038 0.37807258398987753
2955287500.0 0.9164399746773065 0.3702793307299502
2963875000.0 0.9196851650116913 0.3630629272489009
2972462500.0 0.922677031892924 0.3555739952488713
2981050000.0 0.9251150581961326 0.34890675191298165
2989637500.0 0.9293228922682228 0.3411347923670321
2998225000.0 0.9297492757364735 0.3339818546144098
3006812500.0 0.9315822256432766 0.32904791280788803
3015400000.0 0.9350309755279974 0.3195076608791769
3023987500.0 0.936975611382364 0.3122338100559733
3032575000.0 0.9404383420847414 0.30521768127341653
3041162500.0 0.9423603914350115 0.29747256829083263
3049750000.0 0.9453184450115802 0.29070585263574134
3058337500.0 0.947194289149508 0.28338018554740346
3066925000.0 0.949743428909292 0.2730356454208989
3075512500.0 0.9515976946605771 0.26791523523456573
3084100000.0 0.9547323789209867 0.261118152410653
3092687500.0 0.956591677602502 0.25555449928514035
3101275000.0 0.9575898912846318 0.2468283467143977
3109862500.0 0.9599402127699946 0.23817134990113858
3118450000.0 0.9609556975370072 0.23156503686122706
3127037500.0 0.963056644750152 0.22409645097662623
3135625000.0 0.9657152848576233 0.21518895593564205
3144212500.0 0.9662884596071086 0.20709682467868604
3152800000.0 0.9681653635753545 0.2013307885428482
3161387500.0 0.969270117806899 0.1924776267384844
3169975000.0 0.971264549025708 0.18517223437751332
3178562500.0 0.973260766527895 0.17828951210028565
3187150000.0 0.9752211919653057 0.17125175699610887
3195737500.0 0.9760036943803616 0.16316238053061932
3204325000.0 0.9774886700515144 0.1555948933085768
3212912500.0 0.977617297289135 0.14742849060278992
3221500000.0 0.9789404484639503 0.13937187157578027
3230087500.0 0.9799373108257513 0.1324348897229264
3238675000.0 0.9815240831795498 0.12417465006802689
3247262500.0 0.9816422325172228 0.11654608811269275
3255850000.0 0.982994189768929 0.10866003894153684
3264437500.0 0.982244463092819 0.10074513610151803
3273025000.0 0.9852930275521933 0.09372135044301727
3281612500.0 0.9857641469559464 0.08554744942608794
3290200000.0 0.9863952005064988 0.07735283918328822
3298787500.0 0.9860017677552275 0.07089618527014999
3307375000.0 0.9881059191053962 0.06192478054682951
3315962500.0 0.9873895514240157 0.054315330120871516
3324550000.0 0.9875925412360023 0.04693290288055239
3333137500.0 0.9892737311607577 0.04016661771449274
3341725000.0 0.9893386668879034 0.03216719771563058
3350312500.0 0.9886988267268689 0.024168614561575222
3358900000.0 0.989376644086757 0.01605353984646342
3367487500.0 0.9887940231989554 0.008428848353217966
3376075000.0 0.9888999699041433 0.0013161880206581187
3384662500.0 0.989267219807563 -0.0063440374205234115
3393250000.0 0.9891441351486955 -0.014736187212787157
3401837500.0 0.988118191705829 -0.02185107720970102
3410425000.0 0.98773788335878 -0.03097887719062547
3419012500.0 0.9878568555585212 -0.038202151203024545
3427600000.0 0.9879271101957564 -0.046071231302999616
3436187500.0 0.9874587062184685 -0.05338874739290987
