!Created with skrf (http://scikit-rf.org).
# Hz S RI R 50.0 
!freq ReS11 ImS11
130000000.0 -0.9784891615117342 0.1845780018456834
138587500.0 -0.9762017350031518 0.19617330061508345
147175000.0 -0.9720265575295277 0.20715175084879467
155762500.0 -0.9702527588856493 0.21790300065363633
164350000.0 -0.9665768986809496 0.23127407880326192
172937500.0 -0.9637341326865629 0.2432343381680689
181525000.0 -0.9600924618632362 0.2534573214534065
190112500.0 -0.9575219316481235 0.2643277737439411
198700000.0 -0.95463797110256 0.27661168695257266
207287500.0 -0.9506602817093792 0.28723920004425746
215875000.0 -0.9474798941895121 0.2995394115945215
224462500.0 -0.9434157862524343 0.3095796824528457
233050000.0 -0.9391778179493633 0.32096886347598214
241637500.0 -0.9345700166100659 0.3317137323375194
250225000.0 -0.9303561147604315 0.3440089742951684
258812500.0 -0.9256466207893543 0.3549196804435101
267400000.0 -0.9232403761542952 0.3660735761902489
275987500.0 -0.9178678078159088 0.37545208841567185
284575000.0 -0.9133936686611014 0.38683691060211983
293162500.0 -0.9081834100787047 0.39814985545887094
301750000.0 -0.904023345059243 0.4090706152297515
310337500.0 -0.8984143433499505 0.41957130705836976
318925000.0 -0.8939011683697465 0.4298681098068332
327512500.0 -0.8884383043918003 0.4402983360167714
336100000.0 -0.8824921809559519 0.45089726410012554
344687500.0 -0.8774282543695648 0.46137566975838207
353275000.0 -0.8714853343380342 0.471170716511111
361862500.0 -0.8661669225636003 0.4826836889763442
370450000.0 -0.8601082300584671 0.49243700839587934
379037500.0 -0.8545532517127871 0.5016775116224275
387625000.0 -0.8480950070834632 0.5123756965134304
396212500.0 -0.8425877074367933 0.5226911115916736
404800000.0 -0.8363481439740079 0.53254177473505
413387500.0 -0.8295923965258166 0.5428283665332213
421975000.0 -0.8230912457001319 0.5519078921728363
430562500.0 -0.8164177073406711 0.5622329275889354
439150000.0 -0.8092393130981697 0.5724447143771713
447737500.0 -0.8022709988486076 0.5816673145940727
456325000.0 -0.7957762329117649 0.5911420599282161
464912500.0 -0.7885747640521094 0.5996855094536588
473500000.0 -0.7806892261126459 0.6100674615735497
482087500.0 -0.773272514917393 0.6184881695042772
490675000.0 -0.7659715645670278 0.62784091682103
499262500.0 -0.7587134131867106 0.6361657810294764
507850000.0 -0.7512432262991037 0.6457382238961924
516437500.0 -0.7437070644448972 0.6543735129920508
525025000.0 -0.7354074605284892 0.6628533235623753
533612500.0 -0.7275948933853489 0.6720123748516489
542200000.0 -0.7207378657303938 0.6805613839743311
550787500.0 -0.7114246575087698 0.6897275585069712
559375000.0 -0.7024886439852189 0.6976008132158753
567962500.0 -0.6942384886851956 0.7066591333898504
576550000.0 -0.6856154451052359 0.7146244087924583
585137500.0 -0.6780653520988804 0.7218704345596239
593725000.0 -0.6691622933555724 0.729681074032524
602312500.0 -0.6607515263082835 0.7380790423393305
610900000.0 -0.6511666034322449 0.7459475681924684
619487500.0 -0.6428097092727805 0.7538249148973918
628075000.0 -0.6336116248689959 0.7611659198556785
636662500.0 -0.6245066012384081 0.768149551617643
645250000.0 -0.6155974748810966 0.7756832546903476
653837500.0 -0.6073529966204722 0.7825949930706859
662425000.0 -0.596968008402942 0.7900905776594518
671012500.0 -0.5873794058452524 0.7973215204549989
679600000.0 -0.5779411899058741 0.8039351024283767
688187500.0 -0.5678465596191391 0.8106942972262571
696775000.0 -0.5593523496594016 0.8172140420929747
705362500.0 -0.5489405800059685 0.8240497147422822
713950000.0 -0.5387909985296161 0.8306635718928219
722537500.0 -0.5294186214425721 0.8369318107201494
731125000.0 -0.5190438047046385 0.84332626015003
739712500.0 -0.506303577640967 0.8481882564163724
748300000.0 -0.49919648338263756 0.8547898198913056
756887500.0 -0.48900981291376955 0.8609645827387521
765475000.0 -0.4775000560966429 0.8649934530412728
774062500.0 -0.4679989129969815 0.8715326994990045
782650000.0 -0.45747967362459163 0.8769154572720724
791237500.0 -0.447294980929234 0.8823002113156769
799825000.0 -0.4362391148311002 0.8887617104763281
808412500.0 -0.42677408992804705 0.8927502522487105
817000000.0 -0.4162974773430914 0.8980476759309266
825587500.0 -0.40468515059777965 0.9040081936883313
834175000.0 -0.395260051875004 0.9074611092204151
842762500.0 -0.38439120851215547 0.9121024504820568
851350000.0 -0.37199970309194114 0.916565360459724
859937500.0 -0.3615111916107128 0.9222974867845242
868525000.0 -0.3496983620982067 0.9255195603280735
877112500.0 -0.3403098326512692 0.9299130836521199
885700000.0 -0.32857655539421976 0.9340493113917435
894287500.0 -0.3182841600776795 0.9377792431079116
902875000.0 -0.3062361207696704 0.941944519312618
911462500.0 -0.29495634383318536 0.9452797014347087
920050000.0 -0.2843613718405703 0.9481849297346736
928637500.0 -0.27231625574232604 0.9515280296092224
937225000.0 -0.261435895339606 0.9555185295107126
945812500.0 -0.2504646205933165 0.9585316253513385
954400000.0 -0.23925131248286627 0.9607450491677983
962987500.0 -0.22664847315709513 0.9634694838092143
971575000.0 -0.2161874176053683 0.966159390350727
980162500.0 -0.2043924470904048 0.9685757087638183
988750000.0 -0.19273838355077255 0.9709050331049073
997337500.0 -0.18174380443974275 0.9726810709277992
1005925000.0 -0.16912144295105422 0.9760933281379527
1014512500.0 -0.1590138052650746 0.9773797369610231
1023100000.0 -0.14652803574286236 0.978878396149298
1031687500.0 -0.13478979386594808 0.9798275755954581
1040275000.0 -0.12315748004167446 0.9831181073657638
1048862500.0 -0.1122741339258884 0.9834358469090233
1057450000.0 -0.10064762646433867 0.9852569751055622
1066037500.0 -0.08856209048047657 0.9859620047489553
1074625000.0 -0.07682756626755367 0.9871640610896869
1083212500.0 -0.06496242254557859 0.9886112196570299
1091800000.0 -0.05395533106142942 0.9891758320710154
1100387500.0 -0.04263222128839365 0.9893103560283364
1108975000.0 -0.03107695385091389 0.989421031529776
1117562500.0 -0.01858493365747111 0.9897200840419439
1126150000.0 -0.006399530347788266 0.9901763412163139
1134737500.0 0.004332752451763213 0.9907753033127144
1143325000.0 0.01685828065459427 0.9897668295442442
1151912500.0 0.029698142138570187 0.9899559103424426
1160500000.0 0.039966332748270064 0.9897680768468503
1169087500.0 0.051666272884843906 0.9872677964480537
1177675000.0 0.06264625109190614 0.9869348486191237
1186262500.0 0.07430754070256078 0.9870486672947592
1194850000.0 0.0857143097822658 0.987131500259159
1203437500.0 0.09780925344417792 0.9851583192722094
1212025000.0 0.10995191199683209 0.9840759179305731
1220612500.0 0.12221679045779808 0.9848484507256469
1229200000.0 0.1325080147219936 0.980189814924502
1237787500.0 0.1453471482346088 0.9798913921213147
1246375000.0 0.15552412873143906 0.9782372993581022
1254962500.0 0.1668564150562517 0.9771292922284548
1263550000.0 0.17970753386546007 0.9743378611251751
1272137500.0 0.19044771191856627 0.9717647095043473
1280725000.0 0.2023692216007948 0.9697513948550461
1289312500.0 0.21448452131392604 0.9676928702618663
1297900000.0 0.22440351081818258 0.9645609842075719
1306487500.0 0.2365452362180991 0.9621265186815368
1315075000.0 0.24775556524926087 0.9591228204474349
1323662500.0 0.2589618164356437 0.9561626765856872
1332250000.0 0.27055379227920806 0.952714542660978
1340837500.0 0.28189033374648526 0.9500894148047812
1349425000.0 0.2934291582979379 0.9478699619726068
1358012500.0 0.3027556783117034 0.943060532558053
1366600000.0 0.31539105804494666 0.9403903049643992
1375187500.0 0.32683964405295557 0.935548843911231
1383775000.0 0.3384585108503375 0.9309291549143941
1392362500.0 0.34834724131777395 0.9274866512403703
1400950000.0 0.36081922206500117 0.923482581933722
1409537500.0 0.37021775017572034 0.9182092309979353
1418125000.0 0.380421852854983 0.9139093116020299
1426712500.0 0.3919241577755895 0.9105071384935891
1435300000.0 0.4024086807382231 0.9057744677635224
1443887500.0 0.41243643838184746 0.8999961352145281
1452475000.0 0.4234984820574166 0.8954265956287331
1461062500.0 0.4346065231084209 0.8912968031234167
1469650000.0 0.44488890324699626 0.8856237183839158
1478237500.0 0.4552634016201991 0.8813175107351519
1486825000.0 0.4649159965205005 0.8754816683698606
1495412500.0 0.47498292575651796 0.8715633360345432
1504000000.0 0.4862956417776373 0.8652068596990234
1512587500.0 0.496747466501936 0.8582576669307065
1521175000.0 0.506034771146853 0.8514834361064213
1529762500.0 0.5169432969705341 0.8468001046451352
1538350000.0 0.5258036090245285 0.8403390754070825
1546937500.0 0.5358881160625487 0.8337585711678509
1555525000.0 0.5455784842829353 0.8264656130319438
1564112500.0 0.555139500042854 0.8204688583824357
1572700000.0 0.5660446448870965 0.815205617197444
1581287500.0 0.5741787570689483 0.8060205532780521
1589875000.0 0.5850086463378507 0.8012160580686182
1598462500.0 0.594090775087091 0.7959539160209244
1607050000.0 0.604462890320183 0.7876690164020211
1615637500.0 0.611702030353398 0.779783698138078
1624225000.0 0.621749731300259 0.7731700741914228
1632812500.0 0.6312775876484726 0.7644399113631043
1641400000.0 0.6400631903241353 0.7576684415627273
1649987500.0 0.6486457062952155 0.749658456870695
1658575000.0 0.6580775163188396 0.7417872490379382
1667162500.0 0.6655395275303471 0.7342398980024886
1675750000.0 0.6748677014701595 0.7260950129519601
1684337500.0 0.6827695102182052 0.7184381868885541
1692925000.0 0.6916034693581253 0.7104752155110695
1701512500.0 0.7008554845932246 0.7025136488046929
1710100000.0 0.7086359868907508 0.6943654759781653
1718687500.0 0.7169106212159587 0.6851997826034156
1727275000.0 0.7242088031098453 0.6770886227511187
1735862500.0 0.7323812450188159 0.6692954628815292
1744450000.0 0.7400143014243432 0.6606194765452869
1753037500.0 0.7481569730066678 0.6511789577060839
1761625000.0 0.7559335083363984 0.6424283452299054
1770212500.0 0.762909663749596 0.6329533289602052
1778800000.0 0.7707408081490352 0.6250257533659657
1787387500.0 0.7786971281042058 0.6150030538045531
1795975000.0 0.786157906552641 0.6059385731279678
1804562500.0 0.792776128088032 0.5969897394691476
1813150000.0 0.799551276855786 0.5875703921187534
1821737500.0 0.80625991828067 0.5775930494781873
1830325000.0 0.812580644021077 0.5686045296650095
1838912500.0 0.8192542552729868 0.5582346209494821
1847500000.0 0.826110776691295 0.5483259221975019
1856087500.0 0.8318044094241193 0.5392066758881093
1864675000.0 0.8395158904611469 0.5296190862710012
1873262500.0 0.8451973304705372 0.5195619149440716
1881850000.0 0.8513310301516813 0.5100480503953824
1890437500.0 0.8575506101640866 0.49950202282420664
1899025000.0 0.8626971430442804 0.4895151623966375
1907612500.0 0.8685074444266982 0.48048294496126426
1916200000.0 0.8741431822737081 0.4688951349956848
1924787500.0 0.8802769057156264 0.4591895361482937
1933375000.0 0.8852532324512175 0.4484415514071261
1941962500.0 0.8904877244262673 0.43731246128664897
1950550000.0 0.8956739557989257 0.42738260884342993
1959137500.0 0.9008770683043313 0.4164440059487789
1967725000.0 0.9052544801099037 0.4053115545846021
1976312500.0 0.909582934067848 0.3952760288723569
1984900000.0 0.9143150601782193 0.38527632897317354
1993487500.0 0.9193626901337264 0.3737288953888694
2002075000.0 0.9247588009842325 0.3630206669177489
2010662500.0 0.9274942284252852 0.35288498038548477
2019250000.0 0.9323206731066389 0.341427055747344
2027837500.0 0.9364109509433897 0.3300407648117943
2036425000.0 0.9390589193468063 0.3194264564433823
2045012500.0 0.9447065373784332 0.3083046136783242
2053600000.0 0.9478209432082464 0.29651829640096306
2062187500.0 0.9509543511766658 0.2859269612377803
2070775000.0 0.9547334660105401 0.2737266041053196
2079362500.0 0.9577057194774213 0.2639789942197729
2087950000.0 0.96072195827884 0.2520307148648122
2096537500.0 0.9640059039317359 0.2410320288022098
2105125000.0 0.9650776228202482 0.22972162897578174
2113712500.0 0.9692320509797936 0.2171908300896489
2122300000.0 0.9721193186533853 0.20477951106008158
2130887500.0 0.9741340116160956 0.19482674382906964
2139475000.0 0.9766395367404173 0.182061163060339
2148062500.0 0.9780277638518354 0.171359283271787
2156650000.0 0.9804583060923403 0.1602778473384367
2165237500.0 0.9821293291459379 0.1479515795443783
2173825000.0 0.9839552911967624 0.13622692427353053
2182412500.0 0.9844579867389565 0.12523002771913125
2191000000.0 0.9880283780297483 0.11457649069700533
2199587500.0 0.9883877567950695 0.10219923407179873
2208175000.0 0.9892659780874044 0.09068751527897786
2216762500.0 0.990745582987079 0.07856702198406931
2225350000.0 0.991223792714254 0.0668015090492668
2233937500.0 0.9923407522949392 0.05460293672116975
2242525000.0 0.9925546398836533 0.042833768197551365
2251112500.0 0.993162982499312 0.0324630266108096
2259700000.0 0.9932618581291419 0.019305374312060284
2268287500.0 0.9933653386891592 0.007929364016005237
2276875000.0 0.993877691249406 -0.002434512644237031
2285462500.0 0.9932285264001343 -0.01472868385104623
2294050000.0 0.9924463330168589 -0.026306842366803106
2302637500.0 0.9923350561350399 -0.037792308061627276
2311225000.0 0.9920912118837615 -0.04918662087890329
2319812500.0 0.9917719446103804 -0.062308563867819425
2328400000.0 0.9902322270609749 -0.07417061317760565
2336987500.0 0.9896030946117332 -0.08521884527738662
2345575000.0 0.9884813089781059 -0.09641100961294824
2354162500.0 0.9872977946341133 -0.10822900498542751
2362750000.0 0.9860977676192632 -0.1199706789424435
2371337500.0 0.9840618279367883 -0.13165897896481737
2379925000.0 0.9825485531935507 -0.14299607844558962
2388512500.0 0.9813454518306957 -0.15471326429555549
2397100000.0 0.9799102374887588 -0.16569622161258798
2405687500.0 0.9777994051119155 -0.17776979358600248
2414275000.0 0.9745867380901836 -0.19033749606463876
2422862500.0 0.9733282366895472 -0.20070360792532502
2431450000.0 0.9710226887496468 -0.21302056745454379
2440037500.0 0.9676400854080801 -0.2241033797413486
2448625000.0 0.9653506764937324 -0.2368032248561864
2457212500.0 0.9625200767036021 -0.2471242920470226
2465800000.0 0.9589969751275043 -0.2584668695600213
2474387500.0 0.9564168272408701 -0.26997459539794416
2482975000.0 0.9533238884731551 -0.281198157819728
2491562500.0 0.949700444801197 -0.2925004871135294
2500150000.0 0.9462825305580392 -0.3042073872867815
2508737500.0 0.9429542058495053 -0.3138129150389376
2517325000.0 0.9390001355897475 -0.32504687662379655
2525912500.0 0.9346573263234763 -0.3371104155566344
2534500000.0 0.9312773132972924 -0.3484025422328457
2543087500.0 0.9254656192605039 -0.35862844135780114
2551675000.0 0.9224668252432924 -0.3694974123235351
2560262500.0 0.918284240703756 -0.3814612885074093
2568850000.0 0.9128166013150102 -0.3924605037951865
2577437500.0 0.908285783592438 -0.4026229377683806
2586025000.0 0.9031043856171734 -0.41303943181754843
2594612500.0 0.8976916000222912 -0.42347384645066205
2603200000.0 0.8934168185692597 -0.4333197296680458
2611787500.0 0.8889338855128852 -0.4445021284045028
2620375000.0 0.8829864125198889 -0.4549501006680662
2628962500.0 0.8782046835497529 -0.4644753228807496
2637550000.0 0.871035120901283 -0.477665900300665
2646137500.0 0.8661208236339134 -0.48663378722836187
2654725000.0 0.8599714945692082 -0.49696212725461825
2663312500.0 0.854009848658259 -0.5068772505072634
2671900000.0 0.847459975585966 -0.5172119579684175
2680487500.0 0.8421774475781915 -0.5265498165336127
2689075000.0 0.8353922262840342 -0.5370497960661467
2697662500.0 0.828104892650369 -0.5460609209647823
2706250000.0 0.8219839635196022 -0.5567955269004511
2714837500.0 0.8163162579802088 -0.565915346861595
2723425000.0 0.8091279669601011 -0.575098607142729
2732012500.0 0.8019177748116771 -0.5854291274518466
2740600000.0 0.7943556716405038 -0.5946648321658382
2749187500.0 0.7881929522459808 -0.6035952310396226
2757775000.0 0.7804537083101519 -0.6131042237122729
2766362500.0 0.773097643646323 -0.6222759627072166
2774950000.0 0.766541566076794 -0.6327289984178923
2783537500.0 0.7595250602769495 -0.6403035805392747
2792125000.0 0.7513516379815719 -0.6504343648101409
2800712500.0 0.7438658041246794 -0.6586662499561221
2809300000.0 0.735303090132474 -0.6673396367321206
2817887500.0 0.7271404563750409 -0.6757312111040299
2826475000.0 0.7190442710357262 -0.6848223233891688
2835062500.0 0.7119602396725166 -0.6920034684754671
2843650000.0 0.7038442303235454 -0.7014268697423877
2852237500.0 0.6948045859541244 -0.7101925106837828
2860825000.0 0.6860601288645197 -0.7176550880995817
2869412500.0 0.6767256277083944 -0.7253813994483921
2878000000.0 0.6678932816673057 -0.7332697664346814
2886587500.0 0.6590842017968586 -0.7407609540899165
2895175000.0 0.6506043375677746 -0.7482429601673358
2903762500.0 0.6421109592580119 -0.7563799883432983
2912350000.0 0.6323650384594085 -0.7639920353959284
2920937500.0 0.6243358332004669 -0.7718861518966992
2929525000.0 0.6146050843174365 -0.7789584483711336
2938112500.0 0.606078430102276 -0.7867090623269277
2946700000.0 0.5963696663953316 -0.7928224017709821
2955287500.0 0.587008126017994 -0.8008328760636689
2963875000.0 0.5771489417765434 -0.8069034415577747
2972462500.0 0.5670404295145955 -0.813767043199872
2981050000.0 0.557065018675404 -0.8207257158487336
2989637500.0 0.5457696651474796 -0.8274716909736044
2998225000.0 0.5369940724910282 -0.8334553862905515
3006812500.0 0.5293612310538061 -0.8408042658763616
3015400000.0 0.5182704514294637 -0.8450308207059153
3023987500.0 0.5079071427353075 -0.8524740609812888
3032575000.0 0.49749110488334247 -0.857496367057666
3041162500.0 0.48718900974140056 -0.8637385684001344
3049750000.0 0.47619132094515504 -0.8690201030804021
3058337500.0 0.4666765536441358 -0.8746902019172514
3066925000.0 0.45382041745133117 -0.8814901598744801
3075512500.0 0.44467822091377474 -0.8855801259972554
3084100000.0 0.4351101025553352 -0.8915522831090407
3092687500.0 0.4263724593750799 -0.8974643185776503
3101275000.0 0.41468326740172223 -0.9024964616589246
3109862500.0 0.4026046689079966 -0.9070084164466731
3118450000.0 0.39121453361065367 -0.9105906598185987
3127037500.0 0.3807893973986469 -0.9152351523618638
3135625000.0 0.37021577269286815 -0.9203923270411483
3144212500.0 0.3598868782603635 -0.9234207837130675
3152800000.0 0.349226440331337 -0.9278680081543653
3161387500.0 0.3373323236607337 -0.9314388128518145
3169975000.0 0.32696904953559175 -0.9359425672722121
3178562500.0 0.31543526211683515 -0.9394996693264231
3187150000.0 0.304449816910427 -0.9432484739980171
3195737500.0 0.29248771197826684 -0.9465466179388323
3204325000.0 0.28125044806380756 -0.9506101832198158
3212912500.0 0.27067389898980976 -0.9543895284616026
3221500000.0 0.25825311304846127 -0.9576710992863053
3230087500.0 0.24777684304786457 -0.959689167649557
3238675000.0 0.23628815682085338 -0.963418091017802
3247262500.0 0.22395444611517087 -0.9649876673815074
3255850000.0 0.21282453473382684 -0.967535511337454
3264437500.0 0.20182513379684508 -0.9702102494836176
3273025000.0 0.1900384938811645 -0.9718508993923706
3281612500.0 0.17785591702310813 -0.9741240031282583
3290200000.0 0.16755632775389573 -0.9764259565132378
3298787500.0 0.15490267352938364 -0.9782033384539887
3307375000.0 0.14325926688983898 -0.9804608128734348
3315962500.0 0.13212603508888238 -0.981671110929691
3324550000.0 0.12057029128689974 -0.9842695609250579
3333137500.0 0.10816802996780422 -0.9846105961206626
3341725000.0 0.0967302343186473 -0.9860656149508057
3350312500.0 0.08497443014675642 -0.9870652925464211
3358900000.0 0.07230874753719699 -0.9879923217290848
3367487500.0 0.061413484198895446 -0.988209021135838
3376075000.0 0.05001250201136691 -0.9888330437450473
3384662500.0 0.03689855855289439 -0.9896558683126008
3393250000.0 0.025974208284213793 -0.9892738454658919
3401837500.0 0.014167768933282626 -0.989422868627457
3410425000.0 0.003195607647233152 -0.9894125451484397
3419012500.0 -0.008681351671871146 -0.9897059299999148
3427600000.0 -0.02023656974371016 -0.9893103118776421
3436187500.0 -0.03194222203972663 -0.989204183081884
