!
! C:\Users\sebas\Desktop\sma-ufl.S2P
!
! Touchstone 1.1 file saved by VNA.EXE V1.65 (www.ke5fx.com/gpib/readme.htm)
! 20.02.2024 21:17:36
!
!    Source: HEWLETT PACKARD,8720A,0,1.01
!  Min freq: 1.300000E+008 Hz
!  Max freq: 7.000000E+009 Hz
!    Points: 201
!    Params: S11 S21 S12 S22
!
!!!!!
# GHZ S MA R 50
0.1300000000000000 0.032542 -111.503332 0.959024 -53.385355 0.980796 -52.978923 0.028402 -120.895134 
0.1643500000000000 0.037561 -127.477414 0.956366 -67.075088 0.978633 -66.692789 0.032558 -139.109638 
0.1987000000000000 0.043654 -142.120184 0.953105 -80.850740 0.976243 -80.383387 0.036161 -158.315877 
0.2330500000000000 0.046824 -154.955890 0.949513 -94.586550 0.973086 -94.161663 0.037632 -175.721344 
0.2674000000000000 0.047338 -168.954474 0.948685 -108.337030 0.970316 -107.948291 0.037667 163.620615 
0.3017500000000000 0.043851 178.507055 0.945524 -122.108101 0.968844 -121.661416 0.035990 147.053593 
0.3361000000000000 0.039523 167.754606 0.944666 -135.842908 0.967678 -135.401199 0.031386 125.850347 
0.3704500000000000 0.034559 158.362420 0.942277 -149.484967 0.966428 -149.110091 0.026121 104.163589 
0.4048000000000000 0.027081 151.331081 0.938712 -163.181579 0.964962 -162.789092 0.020119 75.702257 
0.4391500000000000 0.018488 151.917441 0.938651 -176.945406 0.963145 -176.515846 0.015363 38.104877 
0.4735000000000000 0.013637 174.154050 0.937586 169.313673 0.961621 169.724265 0.014348 -13.092666 
0.5078500000000000 0.015578 -159.644701 0.935505 155.597038 0.960861 156.038434 0.018892 -58.538202 
0.5422000000000000 0.023258 -148.385117 0.935426 141.851068 0.959398 142.320509 0.025877 -88.711820 
0.5765500000000000 0.030935 -151.511896 0.933093 128.130389 0.959310 128.596613 0.032703 -112.574628 
0.6109000000000000 0.037928 -158.620743 0.931058 114.349766 0.956071 114.840667 0.039647 -133.025205 
0.6452500000000000 0.045121 -169.628214 0.930517 100.690067 0.954407 101.128128 0.045030 -151.762200 
0.6796000000000000 0.049350 178.456332 0.929219 86.967137 0.953521 87.448394 0.048402 -168.974788 
0.7139500000000000 0.050824 166.189052 0.929672 73.374617 0.952795 73.724380 0.049494 174.553492 
0.7483000000000000 0.049547 153.482294 0.919178 59.515166 0.944305 59.913366 0.048195 158.550609 
0.7826500000000000 0.047008 141.009431 0.917789 45.897236 0.943731 46.307607 0.044579 143.847905 
0.8170000000000000 0.041828 128.274621 0.916173 32.155897 0.941539 32.612487 0.039779 129.712527 
0.8513500000000001 0.034926 114.308777 0.916837 18.393937 0.941152 18.928463 0.031570 113.394505 
0.8857000000000000 0.025853 100.647960 0.915890 4.628882 0.940093 5.203858 0.024212 101.081997 
0.9200500000000000 0.015497 86.436423 0.915352 -8.926249 0.939811 -8.543460 0.012803 90.855734 
0.9544000000000000 0.005002 65.171836 0.912693 -22.722141 0.939156 -22.224584 0.004153 98.264058 
0.9887500000000000 0.006178 -104.812775 0.911202 -36.434679 0.938275 -35.922422 0.008705 -141.968105 
1.0230999999999999 0.017127 -124.762547 0.911829 -50.156865 0.936606 -49.573661 0.017652 -149.701450 
1.0574500000000000 0.027020 -140.252433 0.909684 -63.970490 0.936724 -63.318077 0.027711 -161.037517 
1.0918000000000001 0.035126 -154.449311 0.906192 -77.695551 0.935691 -77.017568 0.034585 -173.870919 
1.1261500000000000 0.041326 -168.266875 0.906693 -91.288325 0.933758 -90.713469 0.041541 172.579029 
1.1605000000000001 0.045692 177.676978 0.905661 -104.966238 0.933507 -104.386048 0.044876 159.979240 
1.1948500000000000 0.047250 164.226789 0.906291 -118.727789 0.931953 -118.070499 0.047102 146.842103 
1.2292000000000001 0.046650 150.234777 0.903789 -132.301281 0.930728 -131.810148 0.045506 132.802100 
1.2635500000000000 0.042950 135.960813 0.903389 -145.919127 0.930436 -145.465539 0.043204 121.117322 
1.2979000000000001 0.036895 121.767394 0.903454 -159.668664 0.930938 -159.100574 0.036484 107.943350 
1.3322499999999999 0.028883 106.863774 0.902257 -173.345641 0.929042 -172.818023 0.029143 98.168551 
1.3666000000000000 0.019433 90.657961 0.901531 172.918287 0.928601 173.520071 0.019126 92.051731 
1.4009499999999999 0.008727 64.957010 0.900590 159.215350 0.927694 159.773095 0.009600 102.227535 
1.4353000000000000 0.004931 -67.132077 0.899631 145.587571 0.927850 146.155744 0.009771 168.469628 
1.4696499999999999 0.016124 -110.546527 0.900015 131.937829 0.927386 132.468754 0.019015 -174.526157 
1.5040000000000000 0.027902 -127.344600 0.895887 118.112785 0.925700 118.706937 0.030109 178.958239 
1.5383500000000001 0.038417 -143.414000 0.894858 104.536699 0.925468 105.039367 0.040522 169.852661 
1.5727000000000000 0.047072 -158.455105 0.894257 90.668723 0.924057 91.275468 0.048277 158.904791 
1.6070500000000001 0.053835 -172.397844 0.893267 77.049105 0.922550 77.680469 0.055522 146.371619 
1.6414000000000000 0.058338 173.666639 0.891022 63.205013 0.921965 64.037148 0.059052 134.284183 
1.6757500000000001 0.060444 159.278051 0.893047 49.656947 0.921027 50.369441 0.060456 122.051944 
1.7101000000000000 0.059184 145.339415 0.887151 35.900144 0.920498 36.737687 0.058355 110.177506 
1.7444500000000001 0.055098 130.633991 0.886009 22.307142 0.918590 22.997636 0.053737 99.215583 
1.7787999999999999 0.048102 116.396386 0.888252 8.639007 0.918986 9.364727 0.047205 89.138757 
1.8131500000000000 0.038984 101.394596 0.889574 -5.014694 0.919357 -4.317602 0.038431 81.097746 
1.8474999999999999 0.027385 84.590591 0.886390 -18.711919 0.919013 -17.940381 0.027700 76.273786 
1.8818500000000000 0.014802 62.744874 0.885693 -32.372013 0.918791 -31.690286 0.018061 87.306357 
1.9161999999999999 0.004823 -27.083120 0.888247 -45.996687 0.918067 -45.410761 0.013929 126.832629 
1.9505500000000000 0.016418 -108.747530 0.887543 -59.762002 0.919456 -59.142891 0.024158 149.753509 
1.9849000000000001 0.030732 -131.817528 0.886722 -73.537795 0.916104 -72.829633 0.036828 152.042718 
2.0192500000000000 0.044191 -148.449683 0.883970 -87.146488 0.915213 -86.635561 0.049662 144.144612 
2.0535999999999999 0.055884 -162.689369 0.881557 -100.854811 0.914507 -100.210449 0.061533 134.959817 
2.0879500000000002 0.065678 -177.030239 0.881276 -114.640998 0.913527 -113.917400 0.069652 123.629147 
2.1223000000000001 0.073394 168.490332 0.882185 -128.203539 0.910938 -127.598552 0.077463 112.827363 
2.1566500000000000 0.077309 154.877722 0.881540 -141.824061 0.910028 -141.084526 0.080567 100.370846 
2.1909999999999998 0.077496 140.902588 0.880430 -155.412392 0.909013 -154.864809 0.080545 88.700082 
2.2253500000000002 0.074602 127.215612 0.879003 -169.105157 0.908671 -168.484772 0.077053 76.369663 
2.2597000000000000 0.068370 113.867705 0.877051 177.163878 0.909382 177.867161 0.069426 65.348650 
2.2940499999999999 0.059422 100.332806 0.873207 163.451122 0.909222 164.230272 0.059240 54.929395 
2.3283999999999998 0.048330 86.343402 0.875506 149.848364 0.909225 150.570697 0.046668 47.328728 
2.3627500000000001 0.034313 72.912734 0.878602 136.152601 0.909486 136.910375 0.032185 41.761832 
2.3971000000000000 0.018522 61.262871 0.876872 122.494284 0.910225 123.191372 0.019581 53.739560 
2.4314499999999999 0.003193 88.219980 0.873920 108.693092 0.908696 109.437794 0.014748 101.321921 
2.4658000000000002 0.014973 -160.615233 0.876995 94.954714 0.908075 95.732244 0.027659 125.122468 
2.5001500000000001 0.031509 -167.324100 0.875153 81.273129 0.906449 82.007388 0.042901 125.448837 
2.5345000000000000 0.047334 -179.639828 0.873387 67.517501 0.906627 68.326084 0.057102 117.379890 
2.5688499999999999 0.060959 166.864701 0.873763 53.913777 0.904269 54.696546 0.069305 108.480822 
2.6032000000000002 0.072019 153.156722 0.871850 40.326333 0.903900 40.969740 0.078768 98.031604 
2.6375500000000001 0.079185 139.775636 0.872428 26.661853 0.901225 27.342506 0.085525 87.842586 
2.6718999999999999 0.083431 126.053565 0.871157 13.021698 0.901026 13.706779 0.088817 76.933076 
2.7062499999999998 0.084611 112.390956 0.871085 -0.626290 0.900728 0.112591 0.088389 66.390021 
2.7406000000000001 0.081791 98.288827 0.870524 -14.263255 0.900424 -13.540295 0.083697 55.940553 
2.7749500000000000 0.075097 83.850077 0.869966 -27.876581 0.900246 -27.226078 0.075727 46.812604 
2.8092999999999999 0.064867 69.302379 0.872932 -41.522086 0.900018 -40.806329 0.064961 39.230463 
2.8436499999999998 0.051764 54.468704 0.875230 -55.063136 0.900832 -54.548740 0.052482 35.100515 
2.8780000000000001 0.036696 37.575126 0.871843 -68.793730 0.900811 -68.164347 0.039548 37.112514 
2.9123500000000000 0.020240 16.011402 0.870508 -82.565300 0.901324 -81.914618 0.031017 51.797452 
2.9466999999999999 0.005797 -68.650653 0.869736 -96.325539 0.900067 -95.672126 0.031643 75.909315 
2.9810500000000002 0.019459 -158.651210 0.868679 -110.095230 0.899273 -109.354832 0.042831 88.841528 
3.0154000000000001 0.037145 177.869431 0.870342 -123.637690 0.899290 -123.070982 0.057196 89.470733 
3.0497500000000000 0.053772 161.402456 0.872069 -137.297406 0.895936 -136.802581 0.071301 84.796969 
3.0840999999999998 0.067985 147.019256 0.867721 -151.047956 0.895765 -150.400874 0.083747 76.974673 
3.1184500000000002 0.079757 131.642869 0.865865 -164.814666 0.895452 -164.117365 0.092357 68.184968 
3.1528000000000000 0.089105 116.888658 0.864788 -178.449002 0.892456 -177.828651 0.098378 59.130738 
3.1871499999999999 0.093407 103.107739 0.862299 168.015996 0.892673 168.719261 0.100868 49.484724 
3.2214999999999998 0.093507 88.693265 0.861317 154.287475 0.892352 155.018617 0.098723 40.298242 
3.2558500000000001 0.090490 74.520751 0.862653 140.778618 0.890532 141.423596 0.093973 31.430446 
3.2902000000000000 0.083162 60.382252 0.864095 127.111104 0.891956 127.820309 0.083962 23.504169 
3.3245499999999999 0.072673 44.948962 0.864621 113.408903 0.892296 114.134195 0.072896 18.182738 
3.3589000000000002 0.059076 29.930739 0.865387 99.790511 0.893588 100.400404 0.060102 15.313491 
3.3932500000000001 0.041605 14.525504 0.865341 86.105276 0.892625 86.732809 0.047512 18.570243 
3.4276000000000000 0.023300 -4.968523 0.863946 72.302361 0.892571 73.108989 0.039450 32.680469 
3.4619499999999999 0.004765 -46.813427 0.863880 58.615533 0.892564 59.236478 0.040629 50.081118 
3.4963000000000002 0.017467 164.676846 0.864462 45.005718 0.891258 45.527163 0.050842 61.946735 
3.5306500000000001 0.037685 148.024122 0.866333 31.309204 0.890151 31.882118 0.064954 63.847283 
3.5649999999999999 0.055538 131.363254 0.864362 17.557245 0.889293 18.064371 0.078812 60.727751 
3.5993499999999998 0.073086 115.449587 0.862348 3.808680 0.887192 4.395382 0.091327 55.296977 
3.6337000000000002 0.086735 100.462847 0.862124 -9.834096 0.885709 -9.157569 0.102037 47.763771 
3.6680500000000000 0.096505 85.029276 0.856980 -23.527856 0.884909 -22.845732 0.107726 40.611420 
3.7023999999999999 0.104010 69.967344 0.858129 -37.077736 0.882811 -36.406422 0.113673 32.941325 
3.7367499999999998 0.107029 55.081926 0.856272 -50.804412 0.883372 -50.008661 0.113084 25.366951 
3.7711000000000001 0.106364 39.315141 0.853659 -64.283209 0.883353 -63.680158 0.111418 18.314607 
3.8054500000000000 0.101296 23.193489 0.854624 -77.791640 0.882924 -77.274649 0.105199 12.106946 
3.8397999999999999 0.091358 6.109809 0.856402 -91.496747 0.883194 -90.890936 0.098256 7.600962 
3.8741500000000002 0.078441 -12.558122 0.859379 -105.129848 0.883486 -104.515295 0.090238 5.202545 
3.9085000000000001 0.063915 -32.506335 0.859301 -118.760512 0.884464 -118.308791 0.083420 4.032972 
3.9428500000000000 0.048529 -58.081508 0.860435 -132.389609 0.883538 -131.950731 0.077191 5.954021 
3.9771999999999998 0.036410 -94.844152 0.862085 -146.133296 0.884029 -145.642852 0.075188 9.208083 
4.0115499999999997 0.032343 -145.383060 0.858383 -160.004709 0.881966 -159.409148 0.077556 13.244715 
4.0458999999999996 0.040270 167.026134 0.858767 -173.716246 0.882669 -173.119464 0.083158 15.127640 
4.0802500000000004 0.054896 134.463673 0.854466 172.521919 0.880206 173.188155 0.090153 14.922985 
4.1146000000000003 0.069778 111.130163 0.852540 158.831584 0.880489 159.546922 0.097499 12.415255 
4.1489500000000001 0.083000 91.332587 0.852940 145.227315 0.878645 145.875007 0.103595 9.114777 
4.1833000000000000 0.095119 72.988664 0.854260 131.611274 0.877887 132.213134 0.109142 4.811869 
4.2176499999999999 0.103368 55.248415 0.852459 117.937469 0.876983 118.556518 0.112232 -0.114899 
4.2519999999999998 0.107296 37.709187 0.850576 104.358827 0.876877 104.957109 0.113769 -5.244345 
4.2863499999999997 0.106933 20.655088 0.849989 90.757042 0.877541 91.372986 0.112534 -10.480307 
4.3207000000000004 0.101614 3.797052 0.848979 77.088741 0.875365 77.742012 0.108893 -15.359507 
4.3550500000000003 0.093319 -14.175984 0.848052 63.374094 0.876212 64.173907 0.102730 -18.589694 
4.3894000000000002 0.082738 -32.903153 0.848111 49.772601 0.876583 50.330813 0.097909 -21.232242 
4.4237500000000001 0.068200 -54.389672 0.848898 36.203341 0.875745 36.800417 0.090774 -21.807666 
4.4581000000000000 0.053454 -82.108135 0.851631 22.381699 0.876650 23.012641 0.087390 -21.008601 
4.4924499999999998 0.040679 -117.236659 0.850601 8.587689 0.876301 9.363911 0.084119 -18.489180 
4.5267999999999997 0.035190 -167.309846 0.848639 -5.079334 0.875714 -4.421064 0.084852 -16.165826 
4.5611499999999996 0.044257 148.395083 0.846959 -18.726118 0.875286 -18.010431 0.089855 -13.438020 
4.5955000000000004 0.058287 116.744491 0.847978 -32.442092 0.874430 -31.854044 0.095270 -14.042923 
4.6298500000000002 0.075891 91.650478 0.845906 -46.235169 0.872883 -45.443354 0.103111 -14.533391 
4.6642000000000001 0.091407 71.487923 0.844601 -59.999879 0.871389 -59.096466 0.109629 -18.344796 
4.6985500000000000 0.104108 51.728396 0.842837 -73.523706 0.870431 -72.754309 0.116196 -21.696965 
4.7328999999999999 0.114656 33.588558 0.841717 -87.138321 0.870314 -86.363135 0.120719 -26.568290 
4.7672499999999998 0.119257 16.712230 0.841548 -100.704403 0.868945 -100.080949 0.125047 -32.004262 
4.8015999999999996 0.120777 -0.432515 0.839147 -114.264608 0.869831 -113.523254 0.123850 -37.530286 
4.8359500000000004 0.119423 -16.632974 0.840175 -127.900537 0.867494 -127.406862 0.123495 -42.920869 
4.8703000000000003 0.111937 -33.479401 0.842590 -141.440660 0.867790 -140.888938 0.116808 -48.397072 
4.9046500000000002 0.101108 -52.579293 0.844541 -155.240766 0.869839 -154.564138 0.112554 -52.797262 
4.9390000000000001 0.086823 -70.760207 0.844579 -168.777766 0.868965 -168.136006 0.102957 -57.049462 
4.9733499999999999 0.067616 -90.675596 0.844050 177.571366 0.869656 178.147916 0.094395 -59.244718 
5.0076999999999998 0.049982 -116.674564 0.847846 163.903049 0.871040 164.513710 0.084508 -59.044669 
5.0420499999999997 0.034066 -152.235486 0.848452 150.052414 0.869603 150.709278 0.077628 -56.539521 
5.0763999999999996 0.027927 145.113291 0.845214 136.296166 0.870399 136.981987 0.072530 -50.053407 
5.1107500000000003 0.039893 94.252685 0.843829 122.581960 0.869629 123.348225 0.075108 -44.134708 
5.1451000000000002 0.056304 60.927294 0.842971 108.818016 0.870005 109.554861 0.079838 -39.038616 
5.1794500000000001 0.073931 37.235301 0.842512 95.172633 0.868492 95.860841 0.089766 -36.499800 
5.2138000000000000 0.088587 17.846657 0.841316 81.508078 0.866129 82.189373 0.100566 -37.036813 
5.2481499999999999 0.102059 -1.334311 0.842441 67.894879 0.865288 68.594850 0.111742 -39.329729 
5.2824999999999998 0.112776 -19.318132 0.838716 54.226760 0.864380 54.712997 0.122427 -43.863778 
5.3168499999999996 0.117169 -37.386614 0.837315 40.568678 0.862852 41.168390 0.129684 -49.348068 
5.3512000000000004 0.117830 -55.602009 0.837980 27.027898 0.862244 27.577200 0.133758 -54.623785 
5.3855500000000003 0.113934 -73.545505 0.839641 13.421056 0.861798 14.004749 0.136553 -60.413543 
5.4199000000000002 0.106331 -93.224754 0.838692 -0.246010 0.860824 0.335154 0.135097 -65.774032 
5.4542500000000000 0.097420 -114.869158 0.837982 -13.907700 0.860096 -13.279865 0.131889 -71.049378 
5.4885999999999999 0.085285 -138.459677 0.837272 -27.607390 0.860894 -26.879332 0.125438 -75.113035 
5.5229499999999998 0.072880 -166.561653 0.836159 -41.354120 0.861416 -40.559020 0.118933 -78.328940 
5.5572999999999997 0.064427 160.617736 0.838043 -54.946450 0.861365 -54.208882 0.111060 -79.198761 
5.5916499999999996 0.062791 124.683046 0.836736 -68.640973 0.861266 -67.908302 0.106037 -79.459348 
5.6260000000000003 0.069080 89.933556 0.834960 -82.327170 0.862076 -81.607435 0.103259 -77.371550 
5.6603500000000002 0.080623 59.690877 0.833842 -96.151694 0.862699 -95.301592 0.103743 -76.106830 
5.6947000000000001 0.094017 34.258765 0.832532 -109.735480 0.860931 -109.037393 0.108617 -74.683990 
5.7290500000000000 0.106936 11.961707 0.833129 -123.374577 0.859530 -122.651867 0.114013 -75.555994 
5.7633999999999999 0.118300 -8.309865 0.832709 -137.043501 0.858848 -136.511750 0.122469 -77.234260 
5.7977499999999997 0.125364 -27.508523 0.829135 -150.806523 0.857973 -150.091824 0.128137 -81.301544 
5.8320999999999996 0.128172 -46.740234 0.826113 -164.377324 0.856192 -163.670848 0.134501 -86.074147 
5.8664500000000004 0.127786 -65.073626 0.828909 -177.932306 0.856267 -177.172674 0.134998 -91.768266 
5.9008000000000003 0.121280 -83.151712 0.829449 168.449865 0.853452 168.870875 0.135128 -97.621367 
5.9351500000000001 0.110959 -102.714688 0.829569 154.818845 0.856555 155.532397 0.129394 -103.197187 
5.9695000000000000 0.097579 -122.814090 0.831588 141.161226 0.855538 141.843230 0.123489 -108.224505 
6.0038499999999999 0.079191 -145.781738 0.831965 127.566417 0.854606 128.143437 0.111526 -112.067801 
6.0381999999999998 0.061504 -174.583253 0.829908 113.746639 0.858164 114.472454 0.101080 -113.302510 
6.0725499999999997 0.047167 148.080579 0.832803 100.128513 0.857522 100.795266 0.090574 -111.580492 
6.1069000000000004 0.044749 97.324331 0.829973 86.304343 0.858033 86.980574 0.083597 -106.042364 
6.1412500000000003 0.058304 54.915537 0.829815 72.549942 0.856665 73.305444 0.085900 -98.769185 
6.1756000000000002 0.078058 23.069170 0.828675 58.756880 0.856915 59.507967 0.092368 -93.281422 
6.2099500000000001 0.101184 -1.391230 0.827217 45.032883 0.855331 45.685191 0.107825 -91.423129 
6.2443000000000000 0.119788 -21.283012 0.823719 31.313240 0.853304 32.094001 0.122792 -93.169956 
6.2786499999999998 0.135734 -40.481822 0.821987 17.670763 0.850248 18.455756 0.138820 -97.871814 
6.3129999999999997 0.151082 -57.671057 0.821568 4.047102 0.849985 4.691375 0.152528 -103.812422 
6.3473499999999996 0.158264 -74.217762 0.818857 -9.619941 0.845123 -8.987145 0.162390 -112.027849 
6.3817000000000004 0.160458 -91.901891 0.817043 -23.123280 0.846971 -22.288279 0.166757 -119.593360 
6.4160500000000003 0.158672 -108.226729 0.815549 -36.518708 0.843026 -36.040642 0.168412 -128.854395 
6.4504000000000001 0.149340 -124.368781 0.817163 -49.982650 0.845247 -49.458613 0.162890 -137.277723 
6.4847500000000000 0.137396 -141.511106 0.817813 -63.641484 0.845071 -63.022251 0.153690 -146.385657 
6.5190999999999999 0.120929 -158.683231 0.820415 -77.178067 0.847461 -76.683871 0.138673 -154.583957 
6.5534499999999998 0.098036 -177.825763 0.823194 -90.766816 0.848060 -90.232984 0.118315 -162.206481 
6.5877999999999997 0.073520 159.295029 0.826135 -104.504407 0.849558 -103.892481 0.096367 -166.325716 
6.6221500000000004 0.048627 130.507684 0.825765 -118.212991 0.851517 -117.685475 0.072585 -166.295318 
6.6565000000000003 0.032326 78.005834 0.825167 -132.157948 0.851407 -131.372937 0.055922 -155.380725 
6.6908500000000002 0.038776 16.144765 0.827451 -145.892634 0.853333 -145.275558 0.050470 -132.650645 
6.7252000000000001 0.059366 -23.803611 0.826031 -159.674362 0.850389 -158.995850 0.063079 -116.964847 
6.7595499999999999 0.083368 -49.628474 0.824720 -173.524012 0.854631 -172.869909 0.083831 -110.678105 
6.7938999999999998 0.103322 -70.125333 0.819399 172.845603 0.843750 173.476729 0.105809 -115.254997 
6.8282499999999997 0.121032 -89.104262 0.817281 159.204571 0.850533 159.763970 0.125076 -120.900220 
6.8625999999999996 0.134367 -106.181343 0.816759 145.554656 0.840873 146.014648 0.141381 -130.199852 
