!
! C:\Users\sebas\Desktop\sma-ufl-kirky-male-short-at-sma.S1P
!
! Touchstone 1.1 file saved by VNA.EXE V1.65 (www.ke5fx.com/gpib/readme.htm)
! 20.02.2024 21:19:18
!
!    Source: HEWLETT PACKARD,8720A,0,1.01
!  Min freq: 1.300000E+008 Hz
!  Max freq: 7.000000E+009 Hz
!    Points: 201
!    Params: S22
!
!!!!!
# GHZ S MA R 50
0.1300000000000000 0.952336 -113.481145 
0.1643500000000000 0.943335 -142.077223 
0.1987000000000000 0.929713 -170.420187 
0.2330500000000000 0.918790 161.728743 
0.2674000000000000 0.912995 134.031685 
0.3017500000000000 0.907314 105.952012 
0.3361000000000000 0.904724 77.596133 
0.3704500000000000 0.904590 48.909356 
0.4048000000000000 0.903050 19.660858 
0.4391500000000000 0.904967 -9.791399 
0.4735000000000000 0.905257 -39.326784 
0.5078500000000000 0.908155 -68.840015 
0.5422000000000000 0.910371 -98.051057 
0.5765500000000000 0.905282 -126.622670 
0.6109000000000000 0.896836 -154.999362 
0.6452500000000000 0.891537 177.082359 
0.6796000000000000 0.886196 149.326573 
0.7139500000000000 0.879360 121.407417 
0.7483000000000000 0.867182 92.995619 
0.7826500000000000 0.866016 64.466169 
0.8170000000000000 0.867832 35.357798 
0.8513500000000001 0.869621 5.594550 
0.8857000000000000 0.871305 -24.418711 
0.9200500000000000 0.871244 -54.461623 
0.9544000000000000 0.873678 -84.178090 
0.9887500000000000 0.875638 -113.575636 
1.0230999999999999 0.872139 -142.143653 
1.0574500000000000 0.870823 -170.309911 
1.0918000000000001 0.864428 161.978912 
1.1261500000000000 0.860597 134.614970 
1.1605000000000001 0.854248 106.957055 
1.1948500000000000 0.850858 79.188211 
1.2292000000000001 0.847844 50.605829 
1.2635500000000000 0.845392 21.342817 
1.2979000000000001 0.847154 -8.368287 
1.3322499999999999 0.849355 -38.899333 
1.3666000000000000 0.851584 -69.211328 
1.4009499999999999 0.855862 -99.328646 
1.4353000000000000 0.852896 -128.815410 
1.4696499999999999 0.854682 -157.263992 
1.5040000000000000 0.855424 174.887183 
1.5383500000000001 0.852465 147.860904 
1.5727000000000000 0.848386 120.980719 
1.6070500000000001 0.843972 94.143036 
1.6414000000000000 0.837215 66.866676 
1.6757500000000001 0.832069 38.809462 
1.7101000000000000 0.828146 9.658783 
1.7444500000000001 0.825164 -20.388639 
1.7787999999999999 0.826087 -51.196395 
1.8131500000000000 0.828009 -82.307118 
1.8474999999999999 0.831325 -113.146667 
1.8818500000000000 0.835536 -143.217159 
1.9161999999999999 0.838236 -172.197353 
1.9505500000000000 0.837695 159.956260 
1.9849000000000001 0.837395 133.128967 
2.0192500000000000 0.834816 106.652300 
2.0535999999999999 0.829501 80.457627 
2.0879500000000002 0.823411 53.882696 
2.1223000000000001 0.819205 26.372232 
2.1566500000000000 0.814296 -2.210108 
2.1909999999999998 0.810987 -32.269120 
2.2253500000000002 0.804997 -63.618544 
2.2597000000000000 0.806752 -95.361220 
2.2940499999999999 0.811846 -127.070631 
2.3283999999999998 0.816543 -158.205749 
2.3627500000000001 0.821813 172.059762 
2.3971000000000000 0.824451 143.712069 
2.4314499999999999 0.825615 116.601040 
2.4658000000000002 0.825994 90.211688 
2.5001500000000001 0.819644 64.137135 
2.5345000000000000 0.815403 37.625594 
2.5688499999999999 0.807851 10.385382 
2.6032000000000002 0.800036 -18.045839 
2.6375500000000001 0.795643 -48.346019 
2.6718999999999999 0.789047 -79.965703 
2.7062499999999998 0.789787 -112.510192 
2.7406000000000001 0.795441 -144.941706 
2.7749500000000000 0.802318 -176.523992 
2.8092999999999999 0.806890 153.435921 
2.8436499999999998 0.813811 125.169270 
2.8780000000000001 0.817199 98.307422 
2.9123500000000000 0.816609 72.456162 
2.9466999999999999 0.813892 46.890120 
2.9810500000000002 0.807866 20.975045 
3.0154000000000001 0.798578 -5.664841 
3.0497500000000000 0.791236 -33.943200 
3.0840999999999998 0.782832 -64.042285 
3.1184500000000002 0.773699 -95.772658 
3.1528000000000000 0.770483 -128.858281 
3.1871499999999999 0.774065 -161.947929 
3.2214999999999998 0.784187 165.817200 
3.2558500000000001 0.792347 135.447843 
3.2902000000000000 0.801615 107.160139 
3.3245499999999999 0.810260 80.533064 
3.3589000000000002 0.812337 54.952259 
3.3932500000000001 0.806916 29.863676 
3.4276000000000000 0.800990 4.525614 
3.4619499999999999 0.792963 -21.850956 
3.4963000000000002 0.779115 -49.651625 
3.5306500000000001 0.767238 -79.526785 
3.5649999999999999 0.756980 -111.636701 
3.5993499999999998 0.751991 -144.891020 
3.6337000000000002 0.758477 -178.565945 
3.6680500000000000 0.766574 148.923585 
3.7023999999999999 0.781703 118.639200 
3.7367499999999998 0.796725 90.522333 
3.7711000000000001 0.803605 64.452837 
3.8054500000000000 0.806680 39.658480 
3.8397999999999999 0.805339 15.738420 
3.8741500000000002 0.799916 -8.240769 
3.9085000000000001 0.790875 -33.212389 
3.9428500000000000 0.778273 -59.373385 
3.9771999999999998 0.762809 -87.723220 
4.0115499999999997 0.743386 -118.995665 
4.0458999999999996 0.733576 -152.213260 
4.0802500000000004 0.734053 173.075299 
4.1146000000000003 0.741709 139.065786 
4.1489500000000001 0.756392 107.223569 
4.1833000000000000 0.772463 77.688966 
4.2176499999999999 0.784882 50.705579 
4.2519999999999998 0.795935 25.655265 
4.2863499999999997 0.800022 1.742191 
4.3207000000000004 0.795790 -21.845069 
4.3550500000000003 0.788020 -45.806486 
4.3894000000000002 0.774975 -71.063461 
4.4237500000000001 0.757952 -98.080190 
4.4581000000000000 0.737743 -127.852122 
4.4924499999999998 0.723361 -160.315935 
4.5267999999999997 0.716606 164.965944 
4.5611499999999996 0.718936 130.111678 
4.5955000000000004 0.734868 96.835497 
4.6298500000000002 0.754364 66.000327 
4.6642000000000001 0.774590 37.772427 
4.6985500000000000 0.785221 11.955406 
4.7328999999999999 0.790180 -11.976523 
4.7672499999999998 0.794786 -35.239476 
4.8015999999999996 0.787555 -58.671470 
4.8359500000000004 0.774666 -82.655494 
4.8703000000000003 0.757513 -108.202829 
4.9046500000000002 0.738458 -135.964438 
4.9390000000000001 0.719524 -166.647466 
4.9733499999999999 0.704381 160.290908 
5.0076999999999998 0.701679 125.797811 
5.0420499999999997 0.715175 91.662761 
5.0763999999999996 0.731834 59.183757 
5.1107500000000003 0.750294 29.581562 
5.1451000000000002 0.770541 2.796796 
5.1794500000000001 0.780977 -22.288678 
5.2138000000000000 0.783797 -46.118480 
5.2481499999999999 0.783470 -69.487580 
5.2824999999999998 0.773458 -93.623998 
5.3168499999999996 0.755782 -118.829441 
5.3512000000000004 0.732530 -146.352299 
5.3855500000000003 0.710617 -177.018897 
5.4199000000000002 0.688688 149.209541 
5.4542500000000000 0.681170 113.314540 
5.4885999999999999 0.689392 77.261834 
5.5229499999999998 0.713081 43.465337 
5.5572999999999997 0.737329 12.642502 
5.5916499999999996 0.760487 -14.960299 
5.6260000000000003 0.776629 -40.041085 
5.6603500000000002 0.784909 -63.662094 
5.6947000000000001 0.784056 -86.686446 
5.7290500000000000 0.774756 -109.628320 
5.7633999999999999 0.758903 -133.755204 
5.7977499999999997 0.735272 -159.489045 
5.8320999999999996 0.712744 171.966345 
5.8664500000000004 0.687199 139.901549 
5.9008000000000003 0.668104 105.324899 
5.9351500000000001 0.677054 69.799116 
5.9695000000000000 0.694457 34.240355 
6.0038499999999999 0.715903 1.885884 
6.0381999999999998 0.741926 -27.343957 
6.0725499999999997 0.761684 -53.995580 
6.1069000000000004 0.771864 -78.515027 
6.1412500000000003 0.774302 -101.812595 
6.1756000000000002 0.770825 -124.708065 
6.2099500000000001 0.758464 -148.407597 
6.2443000000000000 0.737099 -173.712987 
6.2786499999999998 0.708642 158.750263 
6.3129999999999997 0.681963 128.026327 
6.3473499999999996 0.660567 93.546614 
6.3817000000000004 0.653592 56.790744 
6.4160500000000003 0.666435 19.944325 
6.4504000000000001 0.693385 -14.651532 
6.4847500000000000 0.724792 -45.832492 
6.5190999999999999 0.747087 -74.108938 
6.5534499999999998 0.760251 -99.764433 
6.5877999999999997 0.765768 -123.962385 
6.6221500000000004 0.761238 -147.681017 
6.6565000000000003 0.749861 -171.570470 
6.6908500000000002 0.729915 163.450124 
6.7252000000000001 0.709145 136.443771 
6.7595499999999999 0.685278 106.620794 
6.7938999999999998 0.666418 73.978562 
6.8282499999999997 0.661242 39.150425 
6.8625999999999996 0.670840 3.750793 
6.8969500000000004 0.691422 -30.157047 
6.9313000000000002 0.714204 -61.438581 
6.9656500000000001 0.735143 -89.788311 
7.0000000000000000 0.749699 -115.914179 
