! This is a Touchstone .s1p format file
! It should be saved with .s1p extension.
! HEWLETT PACKARD,8720D,0,7.74  
! Date =  2 Feb 2024
! Time = 14:00:13
! S11 measured = FALSE
! S21 measured = FALSE
! S12 measured = FALSE
! S22 measured = TRUE
! Start frequency = 0.130000000 GHz
! Stop frequency  = 7.000000000 GHz
! IF bandwidth = 300 Hz
! Smoothing = OFF
! Smoothing aperture = 1.000000 %
! Averaging = OFF
! Averaging factor = 16
! Source power = On
! Source power = Auto mode
! Output power level = 5.000000 dBm
! Retrace power = Off
! Testset switching = Continuous
! Number of sweeps for test set switching (0=hold, 1=continuous,2-999 = number of sweeps) = 1
! Step sweep = On (check)
! List frequency sweep = Off (check)
! IFBW setting for a list-frequency table in swept list mode = Disabled (Check)
! Power setting for a list-frequency table in swept list mode = Disabled (Check)
! Measurement mode = Chop A and B
! Port extensions = OFF
! Port extension 1 = 0.000000 ps
! Port extension 2 = 74.240003 ps
! Points  = 1601
! Calibration kit = 3.5 mm E
! Calibration = S22 1-port
! Power = 5.000000 dBm
! Frequency magS22 angS22
! Magnitudes are in log form
! Angles are in degrees
# MHz S DB R 50
130 -13.35254 -18.34375
132.53125 -13.35938 -18.96582
136.87500 -13.35938 -19.52832
141.21875 -13.35059 -20.22656
145.56250 -13.34961 -20.79590
149.90625 -13.35791 -21.41992
154.25000 -13.34131 -22.04688
158.59375 -13.35547 -22.72949
162.93750 -13.33936 -23.30273
167.28125 -13.33740 -23.89062
171.62500 -13.33936 -24.55469
175.96875 -13.34131 -25.23340
180.31250 -13.33350 -25.79395
184.65625 -13.34082 -26.36719
189.00000 -13.32812 -27.02930
193.34375 -13.33594 -27.63477
197.68750 -13.32568 -28.26562
202.03125 -13.33496 -28.86133
206.37500 -13.31738 -29.49512
210.71875 -13.32129 -30.09570
215.06250 -13.31445 -30.73633
219.40625 -13.31396 -31.33594
223.75000 -13.31689 -31.97461
228.09375 -13.31543 -32.58203
232.43750 -13.31543 -33.20312
236.78125 -13.30664 -33.78711
241.12500 -13.30371 -34.44336
245.46875 -13.30322 -35.05469
249.81250 -13.29980 -35.67383
254.15625 -13.30029 -36.25977
258.50000 -13.28857 -36.89844
262.84375 -13.28760 -37.55273
267.18750 -13.29004 -38.11133
271.53125 -13.28467 -38.70898
275.87500 -13.27832 -39.33008
280.21875 -13.27148 -39.96875
284.56250 -13.27490 -40.61914
288.90625 -13.27588 -41.20312
293.25000 -13.27002 -41.79883
297.59375 -13.26660 -42.41211
301.93750 -13.26367 -43.00391
306.28125 -13.25977 -43.64648
310.62500 -13.25146 -44.25781
314.96875 -13.25439 -44.88281
319.31250 -13.24854 -45.49609
323.65625 -13.24902 -46.08398
328.00000 -13.24365 -46.71289
332.34375 -13.24170 -47.35938
336.68750 -13.23340 -47.94336
341.03125 -13.23242 -48.54883
345.37500 -13.23486 -49.16406
349.71875 -13.22461 -49.75000
354.06250 -13.21924 -50.38867
358.40625 -13.21777 -50.95898
362.75000 -13.21973 -51.58008
367.09375 -13.19482 -52.19336
371.43750 -13.20312 -52.78516
375.78125 -13.20605 -53.40234
380.12500 -13.18848 -54.06250
384.46875 -13.18896 -54.63281
388.81250 -13.19141 -55.24805
393.15625 -13.18896 -55.88672
397.50000 -13.18506 -56.48633
401.84375 -13.17139 -57.08398
406.18750 -13.17871 -57.62891
410.53125 -13.16748 -58.22656
414.87500 -13.15967 -58.90820
419.21875 -13.15918 -59.54492
423.56250 -13.15283 -60.10742
427.90625 -13.14404 -60.69727
432.25000 -13.14209 -61.30469
436.59375 -13.13184 -61.92969
440.93750 -13.13232 -62.52148
445.28125 -13.12061 -63.10938
449.62500 -13.12402 -63.76758
453.96875 -13.11816 -64.33594
458.31250 -13.11230 -65.00781
462.65625 -13.10449 -65.57422
467.00000 -13.10791 -66.19531
471.34375 -13.10107 -66.76172
475.68750 -13.09375 -67.41406
480.03125 -13.08643 -68.01172
484.37500 -13.08398 -68.57031
488.71875 -13.08252 -69.19922
493.06250 -13.07373 -69.82422
497.40625 -13.06494 -70.42578
501.75000 -13.06299 -71.03906
506.09375 -13.04980 -71.62500
510.43750 -13.05322 -72.20703
514.78125 -13.03613 -72.81641
519.12500 -13.04395 -73.41797
523.46875 -13.03174 -74.03125
527.81250 -13.02832 -74.63281
532.15625 -13.01855 -75.25000
536.50000 -13.02197 -75.88672
540.84375 -13.02100 -76.44922
545.18750 -13.00635 -77.05859
549.53125 -13.00000 -77.63672
553.87500 -13.01172 -78.26953
558.21875 -12.99365 -78.83984
562.56250 -12.98389 -79.46875
566.90625 -12.97412 -80.03125
571.25000 -12.97949 -80.64453
575.59375 -12.96777 -81.24219
579.93750 -12.96631 -81.85938
584.28125 -12.96631 -82.46094
588.62500 -12.95068 -83.06641
592.96875 -12.95117 -83.62500
597.31250 -12.93896 -84.26953
601.65625 -12.92969 -84.85156
606.00000 -12.93408 -85.37891
610.34375 -12.92676 -86.04297
614.68750 -12.92480 -86.64062
619.03125 -12.91553 -87.24609
623.37500 -12.91064 -87.84375
627.71875 -12.90625 -88.48828
632.06250 -12.89746 -89.05469
636.40625 -12.89062 -89.64062
640.75000 -12.88232 -90.24219
645.09375 -12.87939 -90.78125
649.43750 -12.87549 -91.37109
653.78125 -12.86670 -91.96484
658.12500 -12.86328 -92.58594
662.46875 -12.85254 -93.20312
666.81250 -12.84814 -93.80469
671.15625 -12.83691 -94.39062
675.50000 -12.83105 -94.98047
679.84375 -12.82080 -95.61328
684.18750 -12.81836 -96.14844
688.53125 -12.81738 -96.75391
692.87500 -12.80713 -97.35547
697.21875 -12.79883 -97.91797
701.56250 -12.79297 -98.53516
705.90625 -12.78809 -99.08984
710.25000 -12.78613 -99.70703
714.59375 -12.78027 -100.31641
718.93750 -12.77246 -100.97266
723.28125 -12.76465 -101.49609
727.62500 -12.75537 -102.08984
731.96875 -12.75732 -102.65625
736.31250 -12.74756 -103.26562
740.65625 -12.72998 -103.83203
745.00000 -12.72949 -104.48828
749.34375 -12.72656 -104.99609
753.68750 -12.71338 -105.62109
758.03125 -12.71338 -106.21484
762.37500 -12.70117 -106.74609
766.71875 -12.69824 -107.41016
771.06250 -12.69043 -107.96094
775.40625 -12.68896 -108.57031
779.75000 -12.67334 -109.12109
784.09375 -12.66309 -109.70312
788.43750 -12.66162 -110.29688
792.78125 -12.64893 -110.87109
797.12500 -12.65039 -111.49609
801.46875 -12.63818 -112.06250
805.81250 -12.62598 -112.64453
810.15625 -12.62793 -113.23047
814.50000 -12.62305 -113.80078
818.84375 -12.60986 -114.39453
823.18750 -12.61182 -114.98047
827.53125 -12.59863 -115.55469
831.87500 -12.59326 -116.15234
836.21875 -12.58496 -116.71094
840.56250 -12.57812 -117.32812
844.90625 -12.56885 -117.94922
849.25000 -12.56689 -118.53125
853.59375 -12.56299 -119.11328
857.93750 -12.55420 -119.64844
862.28125 -12.54248 -120.23047
866.62500 -12.53027 -120.79297
870.96875 -12.52246 -121.39062
875.31250 -12.52100 -121.98828
879.65625 -12.50928 -122.53906
884.00000 -12.51172 -123.12500
888.34375 -12.50439 -123.69531
892.68750 -12.49219 -124.23828
897.03125 -12.48730 -124.87109
901.37500 -12.47461 -125.48047
905.71875 -12.47266 -126.04688
910.06250 -12.45996 -126.63672
914.40625 -12.46045 -127.17578
918.75000 -12.45166 -127.80078
923.09375 -12.43408 -128.34375
927.43750 -12.43311 -128.87500
931.78125 -12.42432 -129.50000
936.12500 -12.42236 -130.11719
940.46875 -12.40869 -130.66406
944.81250 -12.40039 -131.23438
949.15625 -12.39600 -131.83594
953.50000 -12.38916 -132.42969
957.84375 -12.37744 -132.98438
962.18750 -12.37109 -133.54688
966.53125 -12.36670 -134.14062
970.87500 -12.35938 -134.74219
975.21875 -12.35498 -135.32031
979.56250 -12.34375 -135.88281
983.90625 -12.33203 -136.50000
988.25000 -12.32861 -137.03906
992.59375 -12.32031 -137.56250
996.93750 -12.31055 -138.18750
1001.28125 -12.30615 -138.75000
1005.62500 -12.29590 -139.29688
1009.96875 -12.29004 -139.88281
1014.31250 -12.28613 -140.46875
1018.65625 -12.27832 -141.03125
1023.00000 -12.26855 -141.60156
1027.34375 -12.26660 -142.19531
1031.68750 -12.25879 -142.78906
1036.03125 -12.24756 -143.33594
1040.37500 -12.24219 -143.92969
1044.71875 -12.23242 -144.49219
1049.06250 -12.22852 -145.05469
1053.40625 -12.22070 -145.64844
1057.75000 -12.21045 -146.20312
1062.09375 -12.20410 -146.77344
1066.43750 -12.19238 -147.35156
1070.78125 -12.19287 -147.90625
1075.12500 -12.18164 -148.52344
1079.46875 -12.18115 -149.06250
1083.81250 -12.16650 -149.61719
1088.15625 -12.16162 -150.20312
1092.50000 -12.15723 -150.76562
1096.84375 -12.14648 -151.33594
1101.18750 -12.14355 -151.90625
1105.53125 -12.13379 -152.46875
1109.87500 -12.13037 -153.06250
1114.21875 -12.12256 -153.61719
1118.56250 -12.10986 -154.17969
1122.90625 -12.10889 -154.82031
1127.25000 -12.10107 -155.32031
1131.59375 -12.08936 -155.92969
1135.93750 -12.08643 -156.46094
1140.28125 -12.07568 -157.01562
1144.62500 -12.06836 -157.60156
1148.96875 -12.06592 -158.15625
1153.31250 -12.05811 -158.74219
1157.65625 -12.05078 -159.28125
1162.00000 -12.04541 -159.84375
1166.34375 -12.03418 -160.42969
1170.68750 -12.02832 -161.00000
1175.03125 -12.02490 -161.55469
1179.37500 -12.01514 -162.13281
1183.71875 -12.01270 -162.68750
1188.06250 -12.00195 -163.28125
1192.40625 -11.98975 -163.81250
1196.75000 -11.98926 -164.41406
1201.09375 -11.98291 -164.94531
1205.43750 -11.97412 -165.53906
1209.78125 -11.96777 -166.04688
1214.12500 -11.95996 -166.57812
1218.46875 -11.95020 -167.24219
1222.81250 -11.94189 -167.74219
1227.15625 -11.93750 -168.32031
1231.50000 -11.93262 -168.90625
1235.84375 -11.92969 -169.44531
1240.18750 -11.92236 -170.01562
1244.53125 -11.90869 -170.55469
1248.87500 -11.90039 -171.13281
1253.21875 -11.89502 -171.69531
1257.56250 -11.89258 -172.22656
1261.90625 -11.88672 -172.83594
1266.25000 -11.87842 -173.37500
1270.59375 -11.87207 -173.90625
1274.93750 -11.86426 -174.48438
1279.28125 -11.86279 -175.05469
1283.62500 -11.84424 -175.60156
1287.96875 -11.84570 -176.15625
1292.31250 -11.83447 -176.75781
1296.65625 -11.82666 -177.29688
1301.00000 -11.81787 -177.85938
1305.34375 -11.81689 -178.39062
1309.68750 -11.80566 -178.96875
1314.03125 -11.80176 -179.51562
1318.37500 -11.79053 179.92188
1322.71875 -11.78516 179.38281
1327.06250 -11.77979 178.85938
1331.40625 -11.77686 178.24219
1335.75000 -11.77002 177.70312
1340.09375 -11.76465 177.13281
1344.43750 -11.75928 176.60156
1348.78125 -11.74756 176.01562
1353.12500 -11.73633 175.43750
1357.46875 -11.73438 174.90625
1361.81250 -11.72803 174.36719
1366.15625 -11.72461 173.81250
1370.50000 -11.71680 173.22656
1374.84375 -11.71143 172.71094
1379.18750 -11.70410 172.11719
1383.53125 -11.69482 171.57812
1387.87500 -11.69336 171.03906
1392.21875 -11.68701 170.45312
1396.56250 -11.67871 169.92969
1400.90625 -11.67090 169.35156
1405.25000 -11.66406 168.79688
1409.59375 -11.65576 168.26562
1413.93750 -11.65723 167.71875
1418.28125 -11.64648 167.14844
1422.62500 -11.63867 166.60156
1426.96875 -11.62988 166.00000
1431.31250 -11.63184 165.50000
1435.65625 -11.62158 164.92188
1440.00000 -11.61328 164.36719
1444.34375 -11.61328 163.81250
1448.68750 -11.60107 163.29688
1453.03125 -11.59863 162.74219
1457.37500 -11.59033 162.17188
1461.71875 -11.58252 161.64844
1466.06250 -11.57764 161.03906
1470.40625 -11.57324 160.52344
1474.75000 -11.56445 159.92969
1479.09375 -11.56348 159.39062
1483.43750 -11.55908 158.84375
1487.78125 -11.55322 158.30469
1492.12500 -11.54932 157.73438
1496.46875 -11.53418 157.18750
1500.81250 -11.53076 156.66406
1505.15625 -11.52637 156.09375
1509.50000 -11.51367 155.53906
1513.84375 -11.51318 155.00781
1518.18750 -11.51025 154.42969
1522.53125 -11.50537 153.88281
1526.87500 -11.49902 153.32812
1531.21875 -11.49658 152.82812
1535.56250 -11.48877 152.23438
1539.90625 -11.48145 151.67969
1544.25000 -11.48047 151.13281
1548.59375 -11.46875 150.60938
1552.93750 -11.46680 150.02344
1557.28125 -11.45752 149.49219
1561.62500 -11.45703 148.93750
1565.96875 -11.45117 148.40625
1570.31250 -11.44678 147.85938
1574.65625 -11.44043 147.30469
1579.00000 -11.43604 146.72656
1583.34375 -11.43408 146.22656
1587.68750 -11.42529 145.61719
1592.03125 -11.41992 145.09375
1596.37500 -11.41064 144.53906
1600.71875 -11.40918 143.97656
1605.06250 -11.40039 143.46094
1609.40625 -11.39941 142.86719
1613.75000 -11.39746 142.32812
1618.09375 -11.38721 141.75781
1622.43750 -11.38477 141.26562
1626.78125 -11.37842 140.71094
1631.12500 -11.37207 140.15625
1635.46875 -11.36572 139.60938
1639.81250 -11.36377 139.10156
1644.15625 -11.36084 138.51562
1648.50000 -11.35498 137.95312
1652.84375 -11.35352 137.41406
1657.18750 -11.34277 136.90625
1661.53125 -11.33838 136.35156
1665.87500 -11.33301 135.77344
1670.21875 -11.33203 135.26562
1674.56250 -11.32275 134.70312
1678.90625 -11.31738 134.15625
1683.25000 -11.31787 133.60938
1687.59375 -11.31396 133.00000
1691.93750 -11.31543 132.52344
1696.28125 -11.30225 132.00781
1700.62500 -11.30127 131.41406
1704.96875 -11.29150 130.89844
1709.31250 -11.29492 130.29688
1713.65625 -11.28711 129.79688
1718.00000 -11.28418 129.26562
1722.34375 -11.27783 128.70312
1726.68750 -11.27100 128.19531
1731.03125 -11.26660 127.61328
1735.37500 -11.26367 127.09375
1739.71875 -11.25732 126.55078
1744.06250 -11.25879 125.98047
1748.40625 -11.25293 125.46484
1752.75000 -11.24854 124.87891
1757.09375 -11.24854 124.38672
1761.43750 -11.23926 123.84766
1765.78125 -11.23486 123.28516
1770.12500 -11.23096 122.74219
1774.46875 -11.22900 122.18359
1778.81250 -11.22803 121.64844
1783.15625 -11.21826 121.09766
1787.50000 -11.22656 120.52734
1791.84375 -11.21582 120.03125
1796.18750 -11.21289 119.46094
1800.53125 -11.20654 118.92188
1804.87500 -11.20508 118.41797
1809.21875 -11.19971 117.84375
1813.56250 -11.19629 117.31250
1817.90625 -11.19336 116.75781
1822.25000 -11.18994 116.17969
1826.59375 -11.18506 115.69141
1830.93750 -11.18359 115.14844
1835.28125 -11.17822 114.61719
1839.62500 -11.17334 114.08594
1843.96875 -11.17188 113.50781
1848.31250 -11.16650 112.98828
1852.65625 -11.16357 112.43750
1857.00000 -11.16748 111.90234
1861.34375 -11.15869 111.35547
1865.68750 -11.15479 110.77344
1870.03125 -11.15186 110.27734
1874.37500 -11.15479 109.72656
1878.71875 -11.14111 109.19531
1883.06250 -11.13623 108.61719
1887.40625 -11.13818 108.12109
1891.75000 -11.13232 107.55469
1896.09375 -11.13037 106.99219
1900.43750 -11.12598 106.48047
1904.78125 -11.12646 105.91406
1909.12500 -11.11719 105.38281
1913.46875 -11.11768 104.83203
1917.81250 -11.11279 104.29688
1922.15625 -11.11475 103.78906
1926.50000 -11.11133 103.21875
1930.84375 -11.11426 102.67188
1935.18750 -11.10498 102.10938
1939.53125 -11.10498 101.62109
1943.87500 -11.10254 101.08203
1948.21875 -11.09961 100.53125
1952.56250 -11.10107 99.99609
1956.90625 -11.09717 99.45312
1961.25000 -11.08984 98.90625
1965.59375 -11.09131 98.37500
1969.93750 -11.08447 97.86719
1974.28125 -11.08398 97.23828
1978.62500 -11.08057 96.77344
1982.96875 -11.08057 96.18750
1987.31250 -11.07520 95.67969
1991.65625 -11.06982 95.14062
1996.00000 -11.07715 94.58203
2000.34375 -11.06641 94.03906
2004.68750 -11.06934 93.46094
2009.03125 -11.06982 92.92188
2013.37500 -11.06445 92.44141
2017.71875 -11.06299 91.90625
2022.06250 -11.06299 91.33984
2026.40625 -11.05811 90.77344
2030.75000 -11.06104 90.28125
2035.09375 -11.05420 89.77734
2039.43750 -11.05371 89.16016
2043.78125 -11.05322 88.66406
2048.12500 -11.05469 88.13281
2052.46875 -11.04932 87.53516
2056.81250 -11.05078 87.02344
2061.15625 -11.04932 86.47266
2065.50000 -11.04932 85.94922
2069.84375 -11.04639 85.39453
2074.18750 -11.04834 84.85938
2078.53125 -11.04395 84.30078
2082.87500 -11.04053 83.81641
2087.21875 -11.04004 83.22266
2091.56250 -11.03906 82.71875
2095.90625 -11.04004 82.15234
2100.25000 -11.03516 81.62109
2104.59375 -11.03760 81.10156
2108.93750 -11.03711 80.52344
2113.28125 -11.03857 80.03516
2117.62500 -11.03711 79.44531
2121.96875 -11.03711 78.92188
2126.31250 -11.03516 78.42188
2130.65625 -11.03613 77.87109
2135.00000 -11.02734 77.32031
2139.34375 -11.03711 76.79297
2143.68750 -11.03564 76.25000
2148.03125 -11.03223 75.69531
2152.37500 -11.03857 75.16406
2156.71875 -11.03711 74.59375
2161.06250 -11.03467 74.11719
2165.40625 -11.02734 73.58203
2169.75000 -11.02979 72.96094
2174.09375 -11.02930 72.45703
2178.43750 -11.03662 71.91406
2182.78125 -11.02686 71.41406
2187.12500 -11.03223 70.84375
2191.46875 -11.03174 70.27734
2195.81250 -11.03223 69.73047
2200.15625 -11.02979 69.25781
2204.50000 -11.03320 68.67578
2208.84375 -11.02832 68.16016
2213.18750 -11.02979 67.62500
2217.53125 -11.02539 67.03906
2221.87500 -11.03857 66.53516
2226.21875 -11.02734 65.98828
2230.56250 -11.03174 65.44531
2234.90625 -11.03027 64.94141
2239.25000 -11.03174 64.37500
2243.59375 -11.02881 63.83594
2247.93750 -11.03174 63.28516
2252.28125 -11.03516 62.74609
2256.62500 -11.03369 62.22070
2260.96875 -11.02783 61.69922
2265.31250 -11.03076 61.17383
2269.65625 -11.03516 60.58203
2274.00000 -11.03418 60.04688
2278.34375 -11.03760 59.52148
2282.68750 -11.03662 58.96484
2287.03125 -11.03955 58.43164
2291.37500 -11.03857 57.90430
2295.71875 -11.04297 57.38281
2300.06250 -11.04443 56.81641
2304.40625 -11.04492 56.29297
2308.75000 -11.04932 55.73047
2313.09375 -11.04346 55.22656
2317.43750 -11.05127 54.69531
2321.78125 -11.04688 54.13672
2326.12500 -11.05127 53.58398
2330.46875 -11.04883 53.13867
2334.81250 -11.05664 52.51562
2339.15625 -11.05273 52.01953
2343.50000 -11.05957 51.45898
2347.84375 -11.06055 50.97070
2352.18750 -11.06104 50.32812
2356.53125 -11.06348 49.80859
2360.87500 -11.06201 49.26953
2365.21875 -11.06396 48.72656
2369.56250 -11.07129 48.18555
2373.90625 -11.07422 47.67969
2378.25000 -11.06641 47.11328
2382.59375 -11.07373 46.57422
2386.93750 -11.07227 46.02539
2391.28125 -11.06934 45.48828
2395.62500 -11.07666 44.95703
2399.96875 -11.08154 44.36719
2404.31250 -11.07471 43.87109
2408.65625 -11.08105 43.31836
2413.00000 -11.08057 42.80273
2417.34375 -11.08594 42.21875
2421.68750 -11.08789 41.71875
2426.03125 -11.09521 41.17188
2430.37500 -11.09424 40.61133
2434.71875 -11.09717 40.03516
2439.06250 -11.09180 39.53711
2443.40625 -11.10059 39.00391
2447.75000 -11.10303 38.43750
2452.09375 -11.10010 37.90430
2456.43750 -11.10986 37.36719
2460.78125 -11.11328 36.77344
2465.12500 -11.10645 36.28906
2469.46875 -11.11328 35.75586
2473.81250 -11.11621 35.20312
2478.15625 -11.12598 34.63672
2482.50000 -11.12158 34.08594
2486.84375 -11.12842 33.54492
2491.18750 -11.13232 32.98633
2495.53125 -11.13086 32.44922
2499.87500 -11.14160 31.92188
2504.21875 -11.13770 31.38379
2508.56250 -11.14746 30.84375
2512.90625 -11.14648 30.31250
2517.25000 -11.15234 29.74316
2521.59375 -11.15283 29.23828
2525.93750 -11.16016 28.66113
2530.28125 -11.15723 28.14062
2534.62500 -11.16504 27.57129
2538.96875 -11.17041 27.05371
2543.31250 -11.17432 26.49414
2547.65625 -11.17822 25.94336
2552.00000 -11.18555 25.43848
2556.34375 -11.18555 24.92090
2560.68750 -11.18701 24.35059
2565.03125 -11.19434 23.76562
2569.37500 -11.19922 23.21875
2573.71875 -11.20068 22.71094
2578.06250 -11.20459 22.14258
2582.40625 -11.20947 21.59961
2586.75000 -11.21289 21.05859
2591.09375 -11.21973 20.49414
2595.43750 -11.21924 19.93652
2599.78125 -11.22266 19.45508
2604.12500 -11.23193 18.87402
2608.46875 -11.23096 18.39453
2612.81250 -11.24316 17.75586
2617.15625 -11.23975 17.23535
2621.50000 -11.25244 16.71289
2625.84375 -11.25000 16.11523
2630.18750 -11.26123 15.58936
2634.53125 -11.26318 15.06494
2638.87500 -11.26855 14.47852
2643.21875 -11.27246 13.90576
2647.56250 -11.27637 13.43604
2651.90625 -11.28174 12.85645
2656.25000 -11.28516 12.34570
2660.59375 -11.28564 11.80469
2664.93750 -11.30127 11.25391
2669.28125 -11.29150 10.66602
2673.62500 -11.30273 10.13330
2677.96875 -11.30908 9.59619
2682.31250 -11.30957 9.05371
2686.65625 -11.32422 8.49902
2691.00000 -11.32471 7.92114
2695.34375 -11.33008 7.40186
2699.68750 -11.34326 6.84033
2704.03125 -11.34668 6.33350
2708.37500 -11.34766 5.72388
2712.71875 -11.36035 5.22241
2717.06250 -11.36035 4.65112
2721.40625 -11.36719 4.13208
2725.75000 -11.37158 3.56226
2730.09375 -11.37988 3.01428
2734.43750 -11.38574 2.46777
2738.78125 -11.38965 1.94592
2743.12500 -11.39404 1.34991
2747.46875 -11.39502 0.83771
2751.81250 -11.40674 0.27328
2756.15625 -11.41650 -0.28976
2760.50000 -11.41748 -0.85556
2764.84375 -11.42480 -1.42688
2769.18750 -11.42822 -1.96521
2773.53125 -11.43555 -2.49536
2777.87500 -11.44385 -3.03369
2782.21875 -11.45020 -3.58154
2786.56250 -11.45947 -4.11182
2790.90625 -11.46436 -4.70776
2795.25000 -11.47021 -5.22681
