! This is a Touchstone .s1p format file
! It should be saved with .s1p extension.
! HEWLETT PACKARD,8720D,0,7.74  
! Date =  2 Feb 2024
! Time = 13:29:00
! S11 measured = FALSE
! S21 measured = FALSE
! S12 measured = FALSE
! S22 measured = TRUE
! Start frequency = 0.130000000 GHz
! Stop frequency  = 7.000000000 GHz
! IF bandwidth = 300 Hz
! Smoothing = OFF
! Smoothing aperture = 1.000000 %
! Averaging = OFF
! Averaging factor = 16
! Source power = On
! Source power = Auto mode
! Output power level = 5.000000 dBm
! Retrace power = Off
! Testset switching = Continuous
! Number of sweeps for test set switching (0=hold, 1=continuous,2-999 = number of sweeps) = 1
! Step sweep = On (check)
! List frequency sweep = Off (check)
! IFBW setting for a list-frequency table in swept list mode = Disabled (Check)
! Power setting for a list-frequency table in swept list mode = Disabled (Check)
! Measurement mode = Chop A and B
! Port extensions = OFF
! Port extension 1 = 0.000000 ps
! Port extension 2 = 0.000000 ps
! Points  = 1601
! Calibration kit = 3.5 mm E
! Power = 5.000000 dBm
! Frequency magS22 angS22
! Magnitudes are in log form
! Angles are in degrees
# MHz S DB R 50
130 -13.32275 -16.69434
128.18750 -13.33105 -17.29297
132.53125 -13.32617 -17.91406
136.87500 -13.31738 -18.50684
141.21875 -13.31885 -19.10449
145.56250 -13.31738 -19.68555
149.90625 -13.31445 -20.26172
154.25000 -13.31689 -20.89648
158.59375 -13.31201 -21.49219
162.93750 -13.31299 -22.02832
167.28125 -13.30273 -22.63379
171.62500 -13.30713 -23.23340
175.96875 -13.31445 -23.82324
180.31250 -13.31006 -24.37109
184.65625 -13.31152 -24.99805
189.00000 -13.31055 -25.59961
193.34375 -13.30371 -26.16406
197.68750 -13.30420 -26.76465
202.03125 -13.29346 -27.38672
206.37500 -13.29980 -27.96777
210.71875 -13.29980 -28.52051
215.06250 -13.29883 -29.11328
219.40625 -13.29785 -29.70215
223.75000 -13.29443 -30.31055
228.09375 -13.29346 -30.87305
232.43750 -13.29248 -31.48438
236.78125 -13.29395 -32.09961
241.12500 -13.28662 -32.64648
245.46875 -13.28369 -33.25586
249.81250 -13.28955 -33.86133
254.15625 -13.28662 -34.43750
258.50000 -13.28906 -35.03906
262.84375 -13.28516 -35.61133
267.18750 -13.28174 -36.16602
271.53125 -13.28076 -36.79297
275.87500 -13.27979 -37.36523
280.21875 -13.27734 -37.93750
284.56250 -13.28027 -38.54883
288.90625 -13.27393 -39.11523
293.25000 -13.27295 -39.67773
297.59375 -13.27100 -40.30273
301.93750 -13.27100 -40.84961
306.28125 -13.27100 -41.48438
310.62500 -13.27344 -42.08203
314.96875 -13.26611 -42.67188
319.31250 -13.26807 -43.23828
323.65625 -13.26318 -43.80469
328.00000 -13.26172 -44.41992
332.34375 -13.26416 -45.01953
336.68750 -13.25586 -45.58203
341.03125 -13.25879 -46.13867
345.37500 -13.25977 -46.77344
349.71875 -13.26123 -47.36914
354.06250 -13.25244 -47.95117
358.40625 -13.25342 -48.53125
362.75000 -13.25098 -49.10742
367.09375 -13.24658 -49.67969
371.43750 -13.24219 -50.26172
375.78125 -13.24707 -50.87500
380.12500 -13.24121 -51.44727
384.46875 -13.24023 -52.07617
388.81250 -13.23779 -52.56641
393.15625 -13.22852 -53.20508
397.50000 -13.23145 -53.79883
401.84375 -13.23975 -54.36914
406.18750 -13.22803 -54.90625
410.53125 -13.23145 -55.53711
414.87500 -13.22949 -56.12305
419.21875 -13.22852 -56.70312
423.56250 -13.22510 -57.26758
427.90625 -13.22119 -57.88672
432.25000 -13.21924 -58.49805
436.59375 -13.22412 -59.07227
440.93750 -13.21436 -59.61328
445.28125 -13.20410 -60.28906
449.62500 -13.20996 -60.82617
453.96875 -13.20898 -61.39258
458.31250 -13.20361 -62.00391
462.65625 -13.20508 -62.58008
467.00000 -13.19189 -63.13477
471.34375 -13.20264 -63.79102
475.68750 -13.19678 -64.39062
480.03125 -13.19531 -64.99609
484.37500 -13.19629 -65.54297
488.71875 -13.18066 -66.12891
493.06250 -13.18213 -66.73047
497.40625 -13.18311 -67.28125
501.75000 -13.18799 -67.82422
506.09375 -13.18799 -68.43750
510.43750 -13.17773 -69.01562
514.78125 -13.17090 -69.57812
519.12500 -13.17725 -70.19141
523.46875 -13.16699 -70.80469
527.81250 -13.16797 -71.33594
532.15625 -13.16016 -71.91406
536.50000 -13.16309 -72.54688
540.84375 -13.16504 -73.12109
545.18750 -13.16162 -73.68750
549.53125 -13.16064 -74.24609
553.87500 -13.15527 -74.89844
558.21875 -13.16553 -75.46484
562.56250 -13.14600 -76.05859
566.90625 -13.15723 -76.67578
571.25000 -13.15527 -77.17578
575.59375 -13.13965 -77.80859
579.93750 -13.13916 -78.35938
584.28125 -13.14941 -78.98438
588.62500 -13.14307 -79.52734
592.96875 -13.14404 -80.10547
597.31250 -13.13428 -80.71484
601.65625 -13.13623 -81.32031
606.00000 -13.13525 -81.86719
610.34375 -13.13281 -82.43750
614.68750 -13.13037 -83.06250
619.03125 -13.12842 -83.57812
623.37500 -13.12939 -84.22266
627.71875 -13.12109 -84.75000
632.06250 -13.12158 -85.41016
636.40625 -13.11768 -85.93750
640.75000 -13.11426 -86.52734
645.09375 -13.11523 -87.09766
649.43750 -13.10498 -87.68750
653.78125 -13.10791 -88.26172
658.12500 -13.10449 -88.83984
662.46875 -13.10693 -89.46484
666.81250 -13.10352 -89.99609
671.15625 -13.09424 -90.54688
675.50000 -13.09424 -91.16797
679.84375 -13.08643 -91.71484
684.18750 -13.09521 -92.32422
688.53125 -13.08105 -92.89844
692.87500 -13.07861 -93.51172
697.21875 -13.07275 -94.06641
701.56250 -13.07715 -94.65625
705.90625 -13.07568 -95.26953
710.25000 -13.06982 -95.78906
714.59375 -13.05469 -96.39453
718.93750 -13.06494 -96.96484
723.28125 -13.06006 -97.54297
727.62500 -13.06006 -98.11719
731.96875 -13.05908 -98.69922
736.31250 -13.05615 -99.30859
740.65625 -13.05176 -99.83594
745.00000 -13.04736 -100.46484
749.34375 -13.05566 -100.98828
753.68750 -13.04297 -101.60938
758.03125 -13.03613 -102.14062
762.37500 -13.03955 -102.73438
766.71875 -13.02393 -103.37500
771.06250 -13.03223 -103.85938
775.40625 -13.02832 -104.48828
779.75000 -13.02197 -105.07031
784.09375 -13.01514 -105.63672
788.43750 -13.01172 -106.23047
792.78125 -13.00830 -106.78516
797.12500 -13.01025 -107.36328
801.46875 -13.00879 -107.94922
805.81250 -13.00195 -108.51562
810.15625 -13.00537 -109.08203
814.50000 -12.99902 -109.68359
818.84375 -12.98682 -110.25391
823.18750 -12.98975 -110.83203
827.53125 -12.98828 -111.43359
831.87500 -12.98291 -112.02344
836.21875 -12.98145 -112.54297
840.56250 -12.97217 -113.14062
844.90625 -12.96680 -113.71484
849.25000 -12.96924 -114.26562
853.59375 -12.96289 -114.87500
857.93750 -12.96143 -115.44141
862.28125 -12.95898 -116.00391
866.62500 -12.95068 -116.60547
870.96875 -12.95117 -117.20312
875.31250 -12.94336 -117.74609
879.65625 -12.94287 -118.32422
884.00000 -12.94482 -118.94922
888.34375 -12.93311 -119.51562
892.68750 -12.93604 -120.10547
897.03125 -12.92383 -120.63281
901.37500 -12.92529 -121.22266
905.71875 -12.91895 -121.81250
910.06250 -12.91748 -122.39062
914.40625 -12.91357 -122.96484
918.75000 -12.91113 -123.51172
923.09375 -12.90625 -124.11719
927.43750 -12.90674 -124.68750
931.78125 -12.89746 -125.26562
936.12500 -12.89551 -125.85938
940.46875 -12.89453 -126.37891
944.81250 -12.88330 -126.97656
949.15625 -12.88770 -127.55469
953.50000 -12.88477 -128.15625
957.84375 -12.88037 -128.73438
962.18750 -12.86963 -129.27344
966.53125 -12.87549 -129.84375
970.87500 -12.86328 -130.45312
975.21875 -12.86426 -131.04688
979.56250 -12.85889 -131.60938
983.90625 -12.85547 -132.17188
988.25000 -12.84912 -132.74219
992.59375 -12.84814 -133.29688
996.93750 -12.83984 -133.85938
1001.28125 -12.84570 -134.44531
1005.62500 -12.83301 -134.98438
1009.96875 -12.83105 -135.64062
1014.31250 -12.83447 -136.16406
1018.65625 -12.82764 -136.76562
1023.00000 -12.82520 -137.32812
1027.34375 -12.81787 -137.93750
1031.68750 -12.81348 -138.47656
1036.03125 -12.80762 -139.07812
1040.37500 -12.80713 -139.65625
1044.71875 -12.80469 -140.23438
1049.06250 -12.79736 -140.77344
1053.40625 -12.79492 -141.35156
1057.75000 -12.79248 -141.91406
1062.09375 -12.78760 -142.53906
1066.43750 -12.78516 -143.08594
1070.78125 -12.78271 -143.60938
1075.12500 -12.77441 -144.21875
1079.46875 -12.77148 -144.82031
1083.81250 -12.77002 -145.34375
1088.15625 -12.76611 -145.96875
1092.50000 -12.75537 -146.49219
1096.84375 -12.75391 -147.07031
1101.18750 -12.76074 -147.64062
1105.53125 -12.75195 -148.22656
1109.87500 -12.74756 -148.78906
1114.21875 -12.74268 -149.37500
1118.56250 -12.74121 -149.96094
1122.90625 -12.73730 -150.48438
1127.25000 -12.72949 -151.09375
1131.59375 -12.72705 -151.66406
1135.93750 -12.72314 -152.20312
1140.28125 -12.72119 -152.78906
1144.62500 -12.71533 -153.37500
1148.96875 -12.71143 -153.92969
1153.31250 -12.70312 -154.53125
1157.65625 -12.70654 -155.05469
1162.00000 -12.69678 -155.64844
1166.34375 -12.69336 -156.25781
1170.68750 -12.68652 -156.81250
1175.03125 -12.68555 -157.39062
1179.37500 -12.68359 -157.96094
1183.71875 -12.68359 -158.50781
1188.06250 -12.67383 -159.05469
1192.40625 -12.67480 -159.63281
1196.75000 -12.66846 -160.20312
1201.09375 -12.66260 -160.72656
1205.43750 -12.65674 -161.35156
1209.78125 -12.65088 -161.91406
1214.12500 -12.65088 -162.48438
1218.46875 -12.64453 -163.01562
1222.81250 -12.63770 -163.62500
1227.15625 -12.63428 -164.18750
1231.50000 -12.63525 -164.79688
1235.84375 -12.62207 -165.32812
1240.18750 -12.62598 -165.89062
1244.53125 -12.61719 -166.46094
1248.87500 -12.60889 -167.03125
1253.21875 -12.60645 -167.57812
1257.56250 -12.60303 -168.17188
1261.90625 -12.59717 -168.70312
1266.25000 -12.59619 -169.35938
1270.59375 -12.59082 -169.91406
1274.93750 -12.58398 -170.48438
1279.28125 -12.58057 -171.03906
1283.62500 -12.58203 -171.58594
1287.96875 -12.56641 -172.17969
1292.31250 -12.56787 -172.71875
1296.65625 -12.56641 -173.30469
1301.00000 -12.55762 -173.86719
1305.34375 -12.55859 -174.43750
1309.68750 -12.55029 -174.99219
1314.03125 -12.53955 -175.57031
1318.37500 -12.53613 -176.16406
1322.71875 -12.53418 -176.70312
1327.06250 -12.52539 -177.28906
1331.40625 -12.52783 -177.79688
1335.75000 -12.52051 -178.42969
1340.09375 -12.51367 -178.99219
1344.43750 -12.51123 -179.53906
1348.78125 -12.50537 179.88281
1353.12500 -12.50146 179.28906
1357.46875 -12.49658 178.70312
1361.81250 -12.48438 178.18750
1366.15625 -12.48682 177.57812
1370.50000 -12.47705 177.06250
1374.84375 -12.47949 176.50000
1379.18750 -12.47266 175.91406
1383.53125 -12.46191 175.34375
1387.87500 -12.46680 174.75000
1392.21875 -12.45898 174.25000
1396.56250 -12.45557 173.61719
1400.90625 -12.44775 173.03906
1405.25000 -12.44092 172.51562
1409.59375 -12.44482 171.94531
1413.93750 -12.43018 171.35938
1418.28125 -12.43262 170.82812
1422.62500 -12.42676 170.24219
1426.96875 -12.42578 169.69531
1431.31250 -12.41895 169.10938
1435.65625 -12.41455 168.54688
1440.00000 -12.40967 167.99219
1444.34375 -12.40186 167.40625
1448.68750 -12.40137 166.82031
1453.03125 -12.39844 166.32031
1457.37500 -12.39453 165.73438
1461.71875 -12.39307 165.12500
1466.06250 -12.38477 164.56250
1470.40625 -12.37598 164.05469
1474.75000 -12.36523 163.40625
1479.09375 -12.37158 162.90625
1483.43750 -12.36621 162.32031
1487.78125 -12.35986 161.72656
1492.12500 -12.35742 161.18750
1496.46875 -12.34912 160.63281
1500.81250 -12.34717 160.03906
1505.15625 -12.34668 159.44531
1509.50000 -12.33594 158.94531
1513.84375 -12.33057 158.36719
1518.18750 -12.32422 157.82031
1522.53125 -12.31787 157.23438
1526.87500 -12.31543 156.67969
1531.21875 -12.30957 156.09375
1535.56250 -12.30225 155.52344
1539.90625 -12.30078 154.96875
1544.25000 -12.29834 154.44531
1548.59375 -12.28857 153.89062
1552.93750 -12.28418 153.28125
1557.28125 -12.28662 152.68750
1561.62500 -12.27783 152.18750
1565.96875 -12.27344 151.63281
1570.31250 -12.26270 151.07031
1574.65625 -12.25635 150.48438
1579.00000 -12.25781 149.91406
1583.34375 -12.25439 149.35938
1587.68750 -12.24561 148.77344
1592.03125 -12.24219 148.23438
1596.37500 -12.23389 147.64062
1600.71875 -12.23291 147.10938
1605.06250 -12.22168 146.56250
1609.40625 -12.21729 145.98438
1613.75000 -12.21045 145.43750
1618.09375 -12.20752 144.84375
1622.43750 -12.20850 144.34375
1626.78125 -12.19434 143.73438
1631.12500 -12.19580 143.14844
1635.46875 -12.19141 142.57812
1639.81250 -12.18018 142.09375
1644.15625 -12.17285 141.50000
1648.50000 -12.17285 140.97656
1652.84375 -12.16748 140.35156
1657.18750 -12.15771 139.81250
1661.53125 -12.15576 139.22656
1665.87500 -12.14990 138.70312
1670.21875 -12.14551 138.13281
1674.56250 -12.14014 137.57812
1678.90625 -12.13721 137.00781
1683.25000 -12.13525 136.43750
1687.59375 -12.12646 135.89062
1691.93750 -12.12256 135.33594
1696.28125 -12.11133 134.75781
1700.62500 -12.11035 134.18750
1704.96875 -12.10449 133.63281
1709.31250 -12.09570 133.06250
1713.65625 -12.08984 132.50000
1718.00000 -12.08887 131.94531
1722.34375 -12.08643 131.40625
1726.68750 -12.07910 130.83594
1731.03125 -12.06934 130.26562
1735.37500 -12.06445 129.72656
1739.71875 -12.05713 129.16406
1744.06250 -12.05908 128.62500
1748.40625 -12.05469 128.07031
1752.75000 -12.04980 127.47266
1757.09375 -12.04297 126.88672
1761.43750 -12.03613 126.40625
1765.78125 -12.02881 125.80078
1770.12500 -12.02832 125.25000
1774.46875 -12.02148 124.69141
1778.81250 -12.00879 124.17969
1783.15625 -12.00439 123.60938
1787.50000 -12.00977 123.00000
1791.84375 -12.00049 122.48047
1796.18750 -11.99561 121.86719
1800.53125 -11.98877 121.33984
1804.87500 -11.98438 120.78906
1809.21875 -11.96875 120.23828
1813.56250 -11.96924 119.66016
1817.90625 -11.96631 119.13281
1822.25000 -11.95557 118.53906
1826.59375 -11.94971 117.97266
1830.93750 -11.94238 117.44141
1835.28125 -11.94482 116.84766
1839.62500 -11.93213 116.30469
1843.96875 -11.93408 115.78125
1848.31250 -11.92188 115.19531
1852.65625 -11.91406 114.64844
1857.00000 -11.91797 114.10156
1861.34375 -11.91211 113.57031
1865.68750 -11.90723 112.97266
1870.03125 -11.89160 112.45312
1874.37500 -11.89893 111.83984
1878.71875 -11.89062 111.31250
1883.06250 -11.88965 110.74219
1887.40625 -11.88330 110.20312
1891.75000 -11.87207 109.64844
1896.09375 -11.87402 109.09766
1900.43750 -11.86523 108.47266
1904.78125 -11.86133 107.99219
1909.12500 -11.85400 107.43359
1913.46875 -11.84766 106.83984
1917.81250 -11.84521 106.32031
1922.15625 -11.84180 105.80078
1926.50000 -11.82715 105.18750
1930.84375 -11.82715 104.67578
1935.18750 -11.81787 104.11328
1939.53125 -11.81787 103.56641
1943.87500 -11.81201 102.97266
1948.21875 -11.80518 102.42578
1952.56250 -11.80127 101.84375
1956.90625 -11.79395 101.29688
1961.25000 -11.79053 100.80469
1965.59375 -11.77979 100.21484
1969.93750 -11.78320 99.66406
1974.28125 -11.77246 99.12109
1978.62500 -11.77246 98.53125
1982.96875 -11.76123 98.00781
1987.31250 -11.75391 97.45312
1991.65625 -11.74756 96.89062
1996.00000 -11.75146 96.34766
2000.34375 -11.74170 95.81250
2004.68750 -11.74023 95.22656
2009.03125 -11.73438 94.71094
2013.37500 -11.72803 94.14453
2017.71875 -11.71875 93.62500
2022.06250 -11.71289 93.02344
2026.40625 -11.70557 92.49609
2030.75000 -11.69434 91.95703
2035.09375 -11.69580 91.37109
2039.43750 -11.68555 90.86328
2043.78125 -11.68262 90.27344
2048.12500 -11.67920 89.72266
2052.46875 -11.67627 89.19922
2056.81250 -11.67529 88.60547
2061.15625 -11.67334 88.10547
2065.50000 -11.65234 87.53516
2069.84375 -11.64990 87.00391
2074.18750 -11.64551 86.49219
2078.53125 -11.64795 85.91797
2082.87500 -11.63623 85.30859
2087.21875 -11.63281 84.82031
2091.56250 -11.62842 84.27344
2095.90625 -11.62109 83.73828
2100.25000 -11.61719 83.20312
2104.59375 -11.60986 82.60938
2108.93750 -11.60059 82.05078
2113.28125 -11.59619 81.51953
2117.62500 -11.58545 81.00391
2121.96875 -11.58447 80.43750
2126.31250 -11.58154 79.88281
2130.65625 -11.57373 79.33203
2135.00000 -11.56836 78.76953
2139.34375 -11.56445 78.25391
2143.68750 -11.55762 77.73438
2148.03125 -11.55078 77.15625
2152.37500 -11.55273 76.60156
2156.71875 -11.54004 76.12109
2161.06250 -11.53369 75.51562
2165.40625 -11.52832 74.96484
2169.75000 -11.51953 74.45703
2174.09375 -11.51807 73.92188
2178.43750 -11.51318 73.29297
2182.78125 -11.50830 72.76562
2187.12500 -11.50195 72.26172
2191.46875 -11.49805 71.72656
2195.81250 -11.49756 71.12891
2200.15625 -11.49219 70.65625
2204.50000 -11.48047 70.04688
2208.84375 -11.47607 69.52344
2213.18750 -11.46680 68.96094
2217.53125 -11.46387 68.45703
2221.87500 -11.46240 67.88281
2226.21875 -11.45459 67.39453
2230.56250 -11.44922 66.76172
2234.90625 -11.44385 66.23438
2239.25000 -11.43896 65.71875
2243.59375 -11.43652 65.16797
2247.93750 -11.42627 64.61328
2252.28125 -11.41992 64.03906
2256.62500 -11.41895 63.60352
2260.96875 -11.41113 63.01172
2265.31250 -11.40820 62.45703
2269.65625 -11.39648 61.86914
2274.00000 -11.40039 61.41602
2278.34375 -11.38672 60.82617
2282.68750 -11.38330 60.27930
2287.03125 -11.38428 59.75586
2291.37500 -11.37549 59.22852
2295.71875 -11.37061 58.67383
2300.06250 -11.37158 58.17383
2304.40625 -11.35742 57.58984
2308.75000 -11.35986 57.00977
2313.09375 -11.34912 56.50781
2317.43750 -11.35059 55.92383
2321.78125 -11.33984 55.38477
2326.12500 -11.33398 54.87500
2330.46875 -11.33350 54.32617
2334.81250 -11.33154 53.76562
2339.15625 -11.32031 53.27148
2343.50000 -11.32129 52.71094
2347.84375 -11.31299 52.19727
2352.18750 -11.30225 51.61914
2356.53125 -11.30371 51.08594
2360.87500 -11.29883 50.56055
2365.21875 -11.29590 50.02539
2369.56250 -11.28857 49.47070
2373.90625 -11.28418 48.93945
2378.25000 -11.27881 48.42188
2382.59375 -11.27393 47.84375
2386.93750 -11.27246 47.32422
2391.28125 -11.26025 46.80859
2395.62500 -11.25684 46.27539
2399.96875 -11.25244 45.75781
2404.31250 -11.24951 45.19922
2408.65625 -11.24902 44.65430
2413.00000 -11.23877 44.11328
2417.34375 -11.24072 43.59375
2421.68750 -11.22852 43.07422
2426.03125 -11.22705 42.51172
2430.37500 -11.22217 41.96484
2434.71875 -11.21826 41.39258
2439.06250 -11.20801 40.90234
2443.40625 -11.21094 40.38281
2447.75000 -11.20361 39.84570
2452.09375 -11.19434 39.25977
2456.43750 -11.19287 38.76953
2460.78125 -11.19189 38.21680
2465.12500 -11.18408 37.72266
2469.46875 -11.17822 37.12500
2473.81250 -11.17285 36.65234
2478.15625 -11.17578 36.11328
2482.50000 -11.16504 35.57422
2486.84375 -11.16357 35.04492
2491.18750 -11.15625 34.49414
2495.53125 -11.15625 33.97656
2499.87500 -11.14990 33.46094
2504.21875 -11.14258 32.91211
2508.56250 -11.14062 32.39844
2512.90625 -11.13379 31.84180
2517.25000 -11.13330 31.28418
2521.59375 -11.12598 30.77344
2525.93750 -11.12305 30.25879
2530.28125 -11.11475 29.72559
2534.62500 -11.10986 29.19336
2538.96875 -11.10645 28.65625
2543.31250 -11.10303 28.11035
2547.65625 -11.10352 27.57520
2552.00000 -11.09326 27.04395
2556.34375 -11.09277 26.51660
2560.68750 -11.08350 25.96387
2565.03125 -11.08301 25.46582
2569.37500 -11.07764 24.92773
2573.71875 -11.07715 24.41016
2578.06250 -11.06934 23.86426
2582.40625 -11.06934 23.32715
2586.75000 -11.06152 22.81836
2591.09375 -11.05664 22.30176
2595.43750 -11.05469 21.72266
2599.78125 -11.05420 21.25293
2604.12500 -11.04883 20.69336
2608.46875 -11.03711 20.16895
2612.81250 -11.03809 19.66211
2617.15625 -11.03955 19.12988
2621.50000 -11.02734 18.61426
2625.84375 -11.02295 18.08691
2630.18750 -11.02002 17.54590
2634.53125 -11.01758 16.98828
2638.87500 -11.01611 16.49805
2643.21875 -11.01416 15.94775
2647.56250 -11.01123 15.43164
2651.90625 -11.00684 14.92188
2656.25000 -10.99365 14.40576
2660.59375 -10.99756 13.86865
2664.93750 -10.99170 13.27002
2669.28125 -10.99072 12.83203
2673.62500 -10.98877 12.27148
2677.96875 -10.97461 11.70312
2682.31250 -10.97998 11.25244
2686.65625 -10.97412 10.69775
2691.00000 -10.97900 10.18701
2695.34375 -10.96631 9.65137
2699.68750 -10.96826 9.14307
2704.03125 -10.95947 8.58398
2708.37500 -10.95557 8.06250
2712.71875 -10.95215 7.52002
2717.06250 -10.95264 6.98584
2721.40625 -10.94775 6.46948
2725.75000 -10.93750 5.95044
2730.09375 -10.94287 5.44092
2734.43750 -10.93750 4.93970
2738.78125 -10.93555 4.41650
2743.12500 -10.93115 3.86719
2747.46875 -10.93213 3.33435
2751.81250 -10.92676 2.84949
2756.15625 -10.92236 2.28369
2760.50000 -10.91895 1.74817
2764.84375 -10.92041 1.24146
2769.18750 -10.91260 0.72235
2773.53125 -10.91211 0.25543
2777.87500 -10.91553 -0.28564
2782.21875 -10.90918 -0.76767
2786.56250 -10.90088 -1.36780
2790.90625 -10.90186 -1.85809
2795.25000 -10.90088 -2.40747
