# Hz S RI R 50.000000
! Metas.Vna.Tools, 2.8.8664.20301
! Metas.Vna.Data, 2.8.8664.20285
! Created: UTC 2024.02.15 19:26:47
! FREQ                re:S1,1             im:S1,1             re:S1,2             im:S1,2             re:S1,3             im:S1,3             re:S1,4             im:S1,4          
!                     re:S2,1             im:S2,1             re:S2,2             im:S2,2             re:S2,3             im:S2,3             re:S2,4             im:S2,4          
!                     re:S3,1             im:S3,1             re:S3,2             im:S3,2             re:S3,3             im:S3,3             re:S3,4             im:S3,4          
!                     re:S4,1             im:S4,1             re:S4,2             im:S4,2             re:S4,3             im:S4,3             re:S4,4             im:S4,4          
  1.3000000000e+008  -2.5411643831e-005   3.7437993331e-004   0.0000000000e+000   0.0000000000e+000   4.7280942905e-002  -6.5610284042e-002   0.0000000000e+000   0.0000000000e+000
                      0.0000000000e+000   0.0000000000e+000  -5.5497243262e-004   1.6807494025e-004   0.0000000000e+000   0.0000000000e+000   8.9257233210e-002   3.3378546969e-002
                      1.0000000000e+000   0.0000000000e+000   0.0000000000e+000   0.0000000000e+000   6.6331846803e-003   5.3342188109e-003   0.0000000000e+000   0.0000000000e+000
                      0.0000000000e+000   0.0000000000e+000   3.9864695076e-001   9.2535212291e-001   0.0000000000e+000   0.0000000000e+000  -8.5966683834e-003  -1.2632828807e-002
  1.3858750000e+008   8.9418653348e-005   3.7291106047e-004   0.0000000000e+000   0.0000000000e+000   3.8104399770e-002  -7.7160344857e-002   0.0000000000e+000   0.0000000000e+000
                      0.0000000000e+000   0.0000000000e+000  -5.2557418754e-004   2.6062696774e-004   0.0000000000e+000   0.0000000000e+000   9.7771402080e-002   2.7110769796e-002
                      1.0000000000e+000   0.0000000000e+000   0.0000000000e+000   0.0000000000e+000   1.1232976606e-002   2.8797534098e-003   0.0000000000e+000   0.0000000000e+000
                      0.0000000000e+000   0.0000000000e+000   3.2642296641e-001   9.5230470716e-001   0.0000000000e+000   0.0000000000e+000  -9.8877103056e-003  -8.4243369138e-003
  1.4717500000e+008   9.5247989325e-005   3.1855048570e-004   0.0000000000e+000   0.0000000000e+000   2.6287537858e-002  -8.7369051994e-002   0.0000000000e+000   0.0000000000e+000
                      0.0000000000e+000   0.0000000000e+000  -5.8731067729e-004   1.7458546612e-004   0.0000000000e+000   0.0000000000e+000   1.0583993430e-001   1.9273883939e-002
                      1.0000000000e+000   0.0000000000e+000   0.0000000000e+000   0.0000000000e+000   1.6067567596e-002  -1.4815407173e-003   0.0000000000e+000   0.0000000000e+000
                      0.0000000000e+000   0.0000000000e+000   2.5316334186e-001   9.7471513815e-001   0.0000000000e+000   0.0000000000e+000  -1.3395365772e-002  -4.8153146666e-003
  1.5576250000e+008   1.0701121174e-004   3.1216223849e-004   0.0000000000e+000   0.0000000000e+000   1.2252196915e-002  -9.5576068959e-002   0.0000000000e+000   0.0000000000e+000
                      0.0000000000e+000   0.0000000000e+000  -6.5857671231e-004   2.6825213040e-004   0.0000000000e+000   0.0000000000e+000   1.1315854544e-001   1.0571953479e-002
                      1.0000000000e+000   0.0000000000e+000   0.0000000000e+000   0.0000000000e+000   1.9275164387e-002  -9.1888211436e-003   0.0000000000e+000   0.0000000000e+000
                      0.0000000000e+000   0.0000000000e+000   1.7752315760e-001   9.9149393524e-001   0.0000000000e+000   0.0000000000e+000  -1.6113194012e-002   9.1468106837e-004
  1.6435000000e+008   1.2051390991e-004   3.4765538238e-004   0.0000000000e+000   0.0000000000e+000  -3.8203615902e-003  -1.0143814539e-001   0.0000000000e+000   0.0000000000e+000
                      0.0000000000e+000   0.0000000000e+000  -6.2706252274e-004   3.1184107085e-004   0.0000000000e+000   0.0000000000e+000   1.1970210631e-001   5.6661581580e-004
                      1.0000000000e+000   0.0000000000e+000   0.0000000000e+000   0.0000000000e+000   1.6898751466e-002  -1.8332859336e-002   0.0000000000e+000   0.0000000000e+000
                      0.0000000000e+000   0.0000000000e+000   1.0033068941e-001   1.0014831910e+000   0.0000000000e+000   0.0000000000e+000  -1.4693928767e-002   7.9882337773e-003
  1.7293750000e+008   5.6170913266e-005   2.4569554411e-004   0.0000000000e+000   0.0000000000e+000  -2.1476190218e-002  -1.0446235119e-001   0.0000000000e+000   0.0000000000e+000
                      0.0000000000e+000   0.0000000000e+000  -6.9341913392e-004   3.5615506294e-004   0.0000000000e+000   0.0000000000e+000   1.2552814107e-001  -1.0482290380e-002
                      1.0000000000e+000   0.0000000000e+000   0.0000000000e+000   0.0000000000e+000   7.5911210057e-003  -2.6909444066e-002   0.0000000000e+000   0.0000000000e+000
                      0.0000000000e+000   0.0000000000e+000   2.3744547720e-002   1.0067233272e+000   0.0000000000e+000   0.0000000000e+000  -1.0527074845e-002   1.4227211147e-002
  1.8152500000e+008   2.0584329793e-005   2.1043945348e-004   0.0000000000e+000   0.0000000000e+000  -3.9688937960e-002  -1.0429820923e-001   0.0000000000e+000   0.0000000000e+000
                      0.0000000000e+000   0.0000000000e+000  -7.4138134472e-004   3.8430806940e-004   0.0000000000e+000   0.0000000000e+000   1.2981439630e-001  -2.1912838090e-002
                      1.0000000000e+000   0.0000000000e+000   0.0000000000e+000   0.0000000000e+000  -4.4365070927e-003  -3.0194880348e-002   0.0000000000e+000   0.0000000000e+000
                      0.0000000000e+000   0.0000000000e+000  -5.3191263897e-002   1.0060594339e+000   0.0000000000e+000   0.0000000000e+000  -3.2072306548e-003   1.7050409327e-002
  1.9011250000e+008  -4.2618382808e-007   2.0422217501e-004   0.0000000000e+000   0.0000000000e+000  -5.9329540168e-002  -1.0070276682e-001   0.0000000000e+000   0.0000000000e+000
                      0.0000000000e+000   0.0000000000e+000  -7.4723447365e-004   4.0463465338e-004   0.0000000000e+000   0.0000000000e+000   1.3327663572e-001  -3.5360642349e-002
                      1.0000000000e+000   0.0000000000e+000   0.0000000000e+000   0.0000000000e+000  -1.6738220571e-002  -2.5683260386e-002   0.0000000000e+000   0.0000000000e+000
                      0.0000000000e+000   0.0000000000e+000  -1.2982698532e-001   9.9879491413e-001   0.0000000000e+000   0.0000000000e+000   6.1251768134e-003   1.8897690745e-002
  1.9870000000e+008  -1.1970284627e-004   1.5634331128e-004   0.0000000000e+000   0.0000000000e+000  -7.8300953480e-002  -9.3467443982e-002   0.0000000000e+000   0.0000000000e+000
                      0.0000000000e+000   0.0000000000e+000  -7.7350602909e-004   4.3836769835e-004   0.0000000000e+000   0.0000000000e+000   1.3528856625e-001  -4.8752231896e-002
                      1.0000000000e+000   0.0000000000e+000   0.0000000000e+000   0.0000000000e+000  -2.6575137679e-002  -1.6052282135e-002   0.0000000000e+000   0.0000000000e+000
                      0.0000000000e+000   0.0000000000e+000  -2.0672121145e-001   9.8670022974e-001   0.0000000000e+000   0.0000000000e+000   1.4273722791e-002   1.5066215359e-002
  2.0728750000e+008  -1.3365738549e-004   1.9266988166e-004   0.0000000000e+000   0.0000000000e+000  -9.6237463313e-002  -8.2759592767e-002   0.0000000000e+000   0.0000000000e+000
                      0.0000000000e+000   0.0000000000e+000  -8.0097879985e-004   4.9932403899e-004   0.0000000000e+000   0.0000000000e+000   1.3559270980e-001  -6.2728057101e-002
                      1.0000000000e+000   0.0000000000e+000   0.0000000000e+000   0.0000000000e+000  -2.9195309103e-002  -2.0666050726e-003   0.0000000000e+000   0.0000000000e+000
                      0.0000000000e+000   0.0000000000e+000  -2.8128318845e-001   9.6771058320e-001   0.0000000000e+000   0.0000000000e+000   1.8249122198e-002   9.7686676710e-003
  2.1587500000e+008  -2.3063350452e-004   1.7940518054e-004   0.0000000000e+000   0.0000000000e+000  -1.1292613748e-001  -6.8455937372e-002   0.0000000000e+000   0.0000000000e+000
                      0.0000000000e+000   0.0000000000e+000  -8.9218543138e-004   4.7332465813e-004   0.0000000000e+000   0.0000000000e+000   1.3504242288e-001  -7.7741770468e-002
                      1.0000000000e+000   0.0000000000e+000   0.0000000000e+000   0.0000000000e+000  -2.5497149638e-002   1.0854821170e-002   0.0000000000e+000   0.0000000000e+000
                      0.0000000000e+000   0.0000000000e+000  -3.5471458326e-001   9.4303800647e-001   0.0000000000e+000   0.0000000000e+000   2.3238701129e-002   1.5643776307e-003
  2.2446250000e+008  -2.6925031280e-004   2.3225369922e-004   0.0000000000e+000   0.0000000000e+000  -1.2718561430e-001  -5.0857384421e-002   0.0000000000e+000   0.0000000000e+000
                      0.0000000000e+000   0.0000000000e+000  -8.4490875844e-004   5.2441089125e-004   0.0000000000e+000   0.0000000000e+000   1.3266923703e-001  -9.2565692607e-002
                      1.0000000000e+000   0.0000000000e+000   0.0000000000e+000   0.0000000000e+000  -1.4575005582e-002   2.0473281808e-002   0.0000000000e+000   0.0000000000e+000
                      0.0000000000e+000   0.0000000000e+000  -4.2523138413e-001   9.1299694544e-001   0.0000000000e+000   0.0000000000e+000   2.2336026165e-002  -6.7505209426e-003
  2.3305000000e+008  -4.0038602652e-004   3.0929008286e-004   0.0000000000e+000   0.0000000000e+000  -1.3858803102e-001  -3.0537395495e-002   0.0000000000e+000   0.0000000000e+000
                      0.0000000000e+000   0.0000000000e+000  -8.5742915676e-004   5.2262642467e-004   0.0000000000e+000   0.0000000000e+000   1.2851661600e-001  -1.0752930162e-001
                      1.0000000000e+000   0.0000000000e+000   0.0000000000e+000   0.0000000000e+000  -1.9147709006e-003   2.3049605408e-002   0.0000000000e+000   0.0000000000e+000
                      0.0000000000e+000   0.0000000000e+000  -4.9425395302e-001   8.7842882053e-001   0.0000000000e+000   0.0000000000e+000   1.7136097657e-002  -1.2742867570e-002
  2.4163750000e+008  -4.3978648750e-004   3.8220772028e-004   0.0000000000e+000   0.0000000000e+000  -1.4687475294e-001  -7.6136221068e-003   0.0000000000e+000   0.0000000000e+000
                      0.0000000000e+000   0.0000000000e+000  -9.7728340060e-004   5.7542182494e-004   0.0000000000e+000   0.0000000000e+000   1.2304175577e-001  -1.2268090538e-001
                      1.0000000000e+000   0.0000000000e+000   0.0000000000e+000   0.0000000000e+000   9.8877708263e-003   1.8188195934e-002   0.0000000000e+000   0.0000000000e+000
                      0.0000000000e+000   0.0000000000e+000  -5.5876932405e-001   8.3716618099e-001   0.0000000000e+000   0.0000000000e+000   1.1395327800e-002  -1.7309841450e-002
  2.5022500000e+008  -4.7155396351e-004   4.2303019789e-004   0.0000000000e+000   0.0000000000e+000  -1.5072289316e-001   1.7738316614e-002   0.0000000000e+000   0.0000000000e+000
                      0.0000000000e+000   0.0000000000e+000  -9.2759018899e-004   6.3752955628e-004   0.0000000000e+000   0.0000000000e+000   1.1455955985e-001  -1.3837703350e-001
                      1.0000000000e+000   0.0000000000e+000   0.0000000000e+000   0.0000000000e+000   1.6645164968e-002   9.5359682977e-003   0.0000000000e+000   0.0000000000e+000
                      0.0000000000e+000   0.0000000000e+000  -6.2379741363e-001   7.9274109887e-001   0.0000000000e+000   0.0000000000e+000   2.8503277614e-003  -1.8446191791e-002
  2.5881250000e+008  -5.8115235966e-004   4.8708423925e-004   0.0000000000e+000   0.0000000000e+000  -1.5036442686e-001   4.3561261514e-002   0.0000000000e+000   0.0000000000e+000
                      0.0000000000e+000   0.0000000000e+000  -9.2302102980e-004   6.4439112888e-004   0.0000000000e+000   0.0000000000e+000   1.0518052595e-001  -1.5244278657e-001
                      1.0000000000e+000   0.0000000000e+000   0.0000000000e+000   0.0000000000e+000   1.7861985535e-002  -4.0709386417e-004   0.0000000000e+000   0.0000000000e+000
                      0.0000000000e+000   0.0000000000e+000  -6.8233781879e-001   7.4208129840e-001   0.0000000000e+000   0.0000000000e+000  -2.2000293949e-003  -1.5814971927e-002
  2.6740000000e+008  -5.6261983003e-004   6.6534484371e-004   0.0000000000e+000   0.0000000000e+000  -1.4555469578e-001   6.9541433525e-002   0.0000000000e+000   0.0000000000e+000
                      0.0000000000e+000   0.0000000000e+000  -9.7917238615e-004   6.5445093752e-004   0.0000000000e+000   0.0000000000e+000   9.4426693708e-002  -1.6592648418e-001
                      1.0000000000e+000   0.0000000000e+000   0.0000000000e+000   0.0000000000e+000   1.3882406980e-002  -6.8630354682e-003   0.0000000000e+000   0.0000000000e+000
                      0.0000000000e+000   0.0000000000e+000  -7.3692780582e-001   6.8762822284e-001   0.0000000000e+000   0.0000000000e+000  -5.8550640593e-003  -1.1341281801e-002
  2.7598750000e+008  -6.6603008401e-004   7.2432808152e-004   0.0000000000e+000   0.0000000000e+000  -1.3626337138e-001   9.5139586057e-002   0.0000000000e+000   0.0000000000e+000
                      0.0000000000e+000   0.0000000000e+000  -1.0360957380e-003   6.7655372884e-004   0.0000000000e+000   0.0000000000e+000   8.2128462029e-002  -1.7895652358e-001
                      1.0000000000e+000   0.0000000000e+000   0.0000000000e+000   0.0000000000e+000   8.7506865950e-003  -1.1128374849e-002   0.0000000000e+000   0.0000000000e+000
                      0.0000000000e+000   0.0000000000e+000  -7.8713274778e-001   6.2901276924e-001   0.0000000000e+000   0.0000000000e+000  -7.1472373176e-003  -6.1077478006e-003
  2.8457500000e+008  -6.2038919870e-004   9.2770380311e-004   0.0000000000e+000   0.0000000000e+000  -1.2230312016e-001   1.1964434708e-001   0.0000000000e+000   0.0000000000e+000
                      0.0000000000e+000   0.0000000000e+000  -1.0441288995e-003   6.9712187255e-004   0.0000000000e+000   0.0000000000e+000   6.7921732626e-002  -1.9110665260e-001
                      1.0000000000e+000   0.0000000000e+000   0.0000000000e+000   0.0000000000e+000   3.1307992042e-003  -9.1420512779e-003   0.0000000000e+000   0.0000000000e+000
                      0.0000000000e+000   0.0000000000e+000  -8.3221603626e-001   5.6686397597e-001   0.0000000000e+000   0.0000000000e+000  -4.7994898187e-003  -2.2529945549e-004
  2.9316250000e+008  -6.1263371899e-004   1.0659127279e-003   0.0000000000e+000   0.0000000000e+000  -1.0403434085e-001   1.4181860968e-001   0.0000000000e+000   0.0000000000e+000
                      0.0000000000e+000   0.0000000000e+000  -1.0668047649e-003   6.8977367682e-004   0.0000000000e+000   0.0000000000e+000   5.2510987979e-002  -2.0131349131e-001
                      1.0000000000e+000   0.0000000000e+000   0.0000000000e+000   0.0000000000e+000   2.0104512588e-003  -6.0562931692e-003   0.0000000000e+000   0.0000000000e+000
                      0.0000000000e+000   0.0000000000e+000  -8.7548923434e-001   5.0231779329e-001   0.0000000000e+000   0.0000000000e+000  -6.3143544433e-004   2.8144474598e-003
  3.0175000000e+008  -5.4674927218e-004   1.1115464105e-003   0.0000000000e+000   0.0000000000e+000  -8.1744910056e-002   1.6116961182e-001   0.0000000000e+000   0.0000000000e+000
                      0.0000000000e+000   0.0000000000e+000  -1.1355927226e-003   7.1007672347e-004   0.0000000000e+000   0.0000000000e+000   3.5736618509e-002  -2.1092443020e-001
                      1.0000000000e+000   0.0000000000e+000   0.0000000000e+000   0.0000000000e+000   4.9313240352e-003  -4.7436428364e-003   0.0000000000e+000   0.0000000000e+000
                      0.0000000000e+000   0.0000000000e+000  -9.0941047355e-001   4.3330304892e-001   0.0000000000e+000   0.0000000000e+000   4.0293494620e-003   1.5944404778e-003
  3.1033750000e+008  -5.3486699714e-004   1.2886292091e-003   0.0000000000e+000   0.0000000000e+000  -5.5695072299e-002   1.7681433520e-001   0.0000000000e+000   0.0000000000e+000
                      0.0000000000e+000   0.0000000000e+000  -1.1348977102e-003   7.5451190556e-004   0.0000000000e+000   0.0000000000e+000   1.7869111108e-002  -2.1836378181e-001
                      1.0000000000e+000   0.0000000000e+000   0.0000000000e+000   0.0000000000e+000   7.5928390003e-003  -6.6002324551e-003   0.0000000000e+000   0.0000000000e+000
                      0.0000000000e+000   0.0000000000e+000  -9.4076418636e-001   3.6257086002e-001   0.0000000000e+000   0.0000000000e+000   6.3908367264e-003  -4.8841101988e-004
  3.1892500000e+008  -4.1676301765e-004   1.4236856892e-003   0.0000000000e+000   0.0000000000e+000  -2.6823302863e-002   1.8820227766e-001   0.0000000000e+000   0.0000000000e+000
                      0.0000000000e+000   0.0000000000e+000  -1.1379856013e-003   7.6899914905e-004   0.0000000000e+000   0.0000000000e+000  -1.2092863560e-003  -2.2509592456e-001
                      1.0000000000e+000   0.0000000000e+000   0.0000000000e+000   0.0000000000e+000   1.0010379648e-002  -1.1345421680e-002   0.0000000000e+000   0.0000000000e+000
                      0.0000000000e+000   0.0000000000e+000  -9.6487899580e-001   2.8968995458e-001   0.0000000000e+000   0.0000000000e+000   6.9295160811e-003  -6.3374506892e-003
  3.2751250000e+008  -2.9551371708e-004   1.5185082250e-003   0.0000000000e+000   0.0000000000e+000   4.4238051747e-003   1.9492333084e-001   0.0000000000e+000   0.0000000000e+000
                      0.0000000000e+000   0.0000000000e+000  -1.2052024462e-003   8.2105197036e-004   0.0000000000e+000   0.0000000000e+000  -2.1468545196e-002  -2.2934756642e-001
                      1.0000000000e+000   0.0000000000e+000   0.0000000000e+000   0.0000000000e+000   8.4065788174e-003  -1.9541689475e-002   0.0000000000e+000   0.0000000000e+000
                      0.0000000000e+000   0.0000000000e+000  -9.8600312720e-001   2.1480771054e-001   0.0000000000e+000   0.0000000000e+000   4.5724960787e-003  -1.1266236774e-002
  3.3610000000e+008  -2.1744846191e-004   1.5982525110e-003   0.0000000000e+000   0.0000000000e+000   3.6936831133e-002   1.9617701098e-001   0.0000000000e+000   0.0000000000e+000
                      0.0000000000e+000   0.0000000000e+000  -1.2451779671e-003   7.8026431992e-004   0.0000000000e+000   0.0000000000e+000  -4.2351396857e-002  -2.3188458586e-001
                      1.0000000000e+000   0.0000000000e+000   0.0000000000e+000   0.0000000000e+000   1.4655326603e-003  -2.5870964032e-002   0.0000000000e+000   0.0000000000e+000
                      0.0000000000e+000   0.0000000000e+000  -1.0003822293e+000   1.3922780182e-001   0.0000000000e+000   0.0000000000e+000  -1.0492492639e-003  -1.4674160378e-002
  3.4468750000e+008  -2.9961940907e-005   1.6640665835e-003   0.0000000000e+000   0.0000000000e+000   7.0106091182e-002   1.9167134570e-001   0.0000000000e+000   0.0000000000e+000
                      0.0000000000e+000   0.0000000000e+000  -1.2138195338e-003   8.5824304716e-004   0.0000000000e+000   0.0000000000e+000  -6.3960647386e-002  -2.3266239573e-001
                      1.0000000000e+000   0.0000000000e+000   0.0000000000e+000   0.0000000000e+000  -1.0021912476e-002  -2.7594208539e-002   0.0000000000e+000   0.0000000000e+000
                      0.0000000000e+000   0.0000000000e+000  -1.0075678522e+000   6.1900061938e-002   0.0000000000e+000   0.0000000000e+000  -8.0245398446e-003  -1.3845800999e-002
  3.5327500000e+008   8.4803882938e-005   1.7461750096e-003   0.0000000000e+000   0.0000000000e+000   1.0248251564e-001   1.8163257486e-001   0.0000000000e+000   0.0000000000e+000
                      0.0000000000e+000   0.0000000000e+000  -1.2781781955e-003   8.4712639661e-004   0.0000000000e+000   0.0000000000e+000  -8.5451068814e-002  -2.3167477481e-001
