# Hz S RI R 50.000000
! Metas.Vna.Tools, 2.8.8664.20301
! Metas.Vna.Data, 2.8.8664.20285
! Created: UTC 2024.02.15 19:26:58
! FREQ                re:S1,1             im:S1,1             re:S1,2             im:S1,2             re:S1,3             im:S1,3             re:S1,4             im:S1,4          
!                     re:S2,1             im:S2,1             re:S2,2             im:S2,2             re:S2,3             im:S2,3             re:S2,4             im:S2,4          
!                     re:S3,1             im:S3,1             re:S3,2             im:S3,2             re:S3,3             im:S3,3             re:S3,4             im:S3,4          
!                     re:S4,1             im:S4,1             re:S4,2             im:S4,2             re:S4,3             im:S4,3             re:S4,4             im:S4,4          
  1.3000000000e+008  -3.8111816943e-004   2.2488284095e-004   0.0000000000e+000   0.0000000000e+000   1.4690586287e-002   8.0426663391e-002   0.0000000000e+000   0.0000000000e+000
                      0.0000000000e+000   0.0000000000e+000   7.7719763289e-005   6.2504001399e-004   0.0000000000e+000   0.0000000000e+000   8.8871609622e-002   3.2962804618e-002
                      1.0000000000e+000   0.0000000000e+000   0.0000000000e+000   0.0000000000e+000  -1.0046182016e-002  -3.3736201550e-003   0.0000000000e+000   0.0000000000e+000
                      0.0000000000e+000   0.0000000000e+000   3.9472545049e-001  -9.2295440754e-001   0.0000000000e+000   0.0000000000e+000   4.8684419574e-005   1.1055693007e-002
  1.3858750000e+008  -3.6106827822e-004   2.2094399752e-004   0.0000000000e+000   0.0000000000e+000   1.6658691043e-002   8.5397674593e-002   0.0000000000e+000   0.0000000000e+000
                      0.0000000000e+000   0.0000000000e+000   3.6050218107e-007   6.3151827498e-004   0.0000000000e+000   0.0000000000e+000   9.7207577783e-002   2.6706504057e-002
                      1.0000000000e+000   0.0000000000e+000   0.0000000000e+000   0.0000000000e+000  -1.3011854147e-002  -4.6511531839e-004   0.0000000000e+000   0.0000000000e+000
                      0.0000000000e+000   0.0000000000e+000   3.2206855981e-001  -9.4977885378e-001   0.0000000000e+000   0.0000000000e+000   8.2303068608e-003   1.2014030818e-002
  1.4717500000e+008  -3.9733537606e-004   2.3157544280e-004   0.0000000000e+000   0.0000000000e+000   1.8840436065e-002   9.0457896633e-002   0.0000000000e+000   0.0000000000e+000
                      0.0000000000e+000   0.0000000000e+000   4.2742399353e-005   5.6124983487e-004   0.0000000000e+000   0.0000000000e+000   1.0530097351e-001   1.8928510547e-002
                      1.0000000000e+000   0.0000000000e+000   0.0000000000e+000   0.0000000000e+000  -1.5356452395e-002   3.7444058366e-003   0.0000000000e+000   0.0000000000e+000
                      0.0000000000e+000   0.0000000000e+000   2.4682917661e-001  -9.7025326063e-001   0.0000000000e+000   0.0000000000e+000   1.5005041120e-002   9.6257767549e-003
  1.5576250000e+008  -4.1820322954e-004   2.7077134103e-004   0.0000000000e+000   0.0000000000e+000   2.0900804932e-002   9.5274235674e-002   0.0000000000e+000   0.0000000000e+000
                      0.0000000000e+000   0.0000000000e+000   6.9691867142e-005   5.1660182072e-004   0.0000000000e+000   0.0000000000e+000   1.1250298072e-001   1.0332061389e-002
                      1.0000000000e+000   0.0000000000e+000   0.0000000000e+000   0.0000000000e+000  -1.5268560184e-002   1.1409486671e-002   0.0000000000e+000   0.0000000000e+000
                      0.0000000000e+000   0.0000000000e+000   1.7193971706e-001  -9.8635045540e-001   0.0000000000e+000   0.0000000000e+000   1.9375835273e-002   1.7635041405e-003
  1.6435000000e+008  -4.3584547164e-004   2.8382515063e-004   0.0000000000e+000   0.0000000000e+000   2.3179786929e-002   1.0009731158e-001   0.0000000000e+000   0.0000000000e+000
                      0.0000000000e+000   0.0000000000e+000   1.2812494241e-004   5.1700954907e-004   0.0000000000e+000   0.0000000000e+000   1.1914039171e-001   4.9062209995e-004
                      1.0000000000e+000   0.0000000000e+000   0.0000000000e+000   0.0000000000e+000  -1.2875002541e-002   1.7972567576e-002   0.0000000000e+000   0.0000000000e+000
                      0.0000000000e+000   0.0000000000e+000   9.6096729955e-002  -9.9793996653e-001   0.0000000000e+000   0.0000000000e+000   1.9616403795e-002  -8.9626604419e-003
  1.7293750000e+008  -4.1367569565e-004   3.2543175978e-004   0.0000000000e+000   0.0000000000e+000   2.5575525184e-002   1.0493741626e-001   0.0000000000e+000   0.0000000000e+000
                      0.0000000000e+000   0.0000000000e+000   2.7660992940e-005   4.4787859306e-004   0.0000000000e+000   0.0000000000e+000   1.2484674624e-001  -1.0546060427e-002
                      1.0000000000e+000   0.0000000000e+000   0.0000000000e+000   0.0000000000e+000  -6.0715238171e-003   2.4081853268e-002   0.0000000000e+000   0.0000000000e+000
                      0.0000000000e+000   0.0000000000e+000   1.8862548715e-002  -1.0027321109e+000   0.0000000000e+000   0.0000000000e+000   1.2848592631e-002  -1.8808790881e-002
  1.8152500000e+008  -4.2873370357e-004   3.6527067813e-004   0.0000000000e+000   0.0000000000e+000   2.7766792188e-002   1.0962886514e-001   0.0000000000e+000   0.0000000000e+000
                      0.0000000000e+000   0.0000000000e+000   1.9387922876e-005   4.0114470488e-004   0.0000000000e+000   0.0000000000e+000   1.2936974040e-001  -2.1967921473e-002
                      1.0000000000e+000   0.0000000000e+000   0.0000000000e+000   0.0000000000e+000   2.6554404939e-003   2.6287707500e-002   0.0000000000e+000   0.0000000000e+000
                      0.0000000000e+000   0.0000000000e+000  -5.7517798597e-002  -9.9970808574e-001   0.0000000000e+000   0.0000000000e+000   2.1467037078e-003  -2.2919453594e-002
  1.9011250000e+008  -4.4977321388e-004   3.5200435847e-004   0.0000000000e+000   0.0000000000e+000   3.0755313763e-002   1.1451204122e-001   0.0000000000e+000   0.0000000000e+000
                      0.0000000000e+000   0.0000000000e+000  -4.5885722271e-005   3.7669235295e-004   0.0000000000e+000   0.0000000000e+000   1.3285821120e-001  -3.5285770702e-002
                      1.0000000000e+000   0.0000000000e+000   0.0000000000e+000   0.0000000000e+000   1.1867970297e-002   2.6317115205e-002   0.0000000000e+000   0.0000000000e+000
                      0.0000000000e+000   0.0000000000e+000  -1.3423387032e-001  -9.9098441644e-001   0.0000000000e+000   0.0000000000e+000  -9.3817234613e-003  -2.0995884069e-002
  1.9870000000e+008  -5.0961978970e-004   4.1896490239e-004   0.0000000000e+000   0.0000000000e+000   3.3424292456e-002   1.1914792737e-001   0.0000000000e+000   0.0000000000e+000
                      0.0000000000e+000   0.0000000000e+000  -9.0158494242e-005   3.0107447377e-004   0.0000000000e+000   0.0000000000e+000   1.3464010556e-001  -4.8639417627e-002
                      1.0000000000e+000   0.0000000000e+000   0.0000000000e+000   0.0000000000e+000   2.0646524269e-002   2.1473850889e-002   0.0000000000e+000   0.0000000000e+000
                      0.0000000000e+000   0.0000000000e+000  -2.0992820865e-001  -9.7911467058e-001   0.0000000000e+000   0.0000000000e+000  -1.8935158798e-002  -1.3593455937e-002
  2.0728750000e+008  -4.7282044778e-004   4.2636693535e-004   0.0000000000e+000   0.0000000000e+000   3.6015122103e-002   1.2365633951e-001   0.0000000000e+000   0.0000000000e+000
                      0.0000000000e+000   0.0000000000e+000  -1.5129366694e-004   2.6827804291e-004   0.0000000000e+000   0.0000000000e+000   1.3528402407e-001  -6.2484341389e-002
                      1.0000000000e+000   0.0000000000e+000   0.0000000000e+000   0.0000000000e+000   2.7433169372e-002   1.5008872052e-002   0.0000000000e+000   0.0000000000e+000
                      0.0000000000e+000   0.0000000000e+000  -2.8485246914e-001  -9.5915838153e-001   0.0000000000e+000   0.0000000000e+000  -2.0983431098e-002  -1.5979476454e-003
  2.1587500000e+008  -4.8812977572e-004   4.3682658843e-004   0.0000000000e+000   0.0000000000e+000   3.9050853301e-002   1.2825681169e-001   0.0000000000e+000   0.0000000000e+000
                      0.0000000000e+000   0.0000000000e+000  -2.4229975611e-004   2.5137077693e-004   0.0000000000e+000   0.0000000000e+000   1.3423300294e-001  -7.7385841424e-002
                      1.0000000000e+000   0.0000000000e+000   0.0000000000e+000   0.0000000000e+000   3.1179848103e-002   4.9076863053e-003   0.0000000000e+000   0.0000000000e+000
                      0.0000000000e+000   0.0000000000e+000  -3.5786499483e-001  -9.3543204692e-001   0.0000000000e+000   0.0000000000e+000  -1.7454459625e-002   9.7267736255e-003
  2.2446250000e+008  -4.7753827041e-004   4.3629400313e-004   0.0000000000e+000   0.0000000000e+000   4.1985068780e-002   1.3267093897e-001   0.0000000000e+000   0.0000000000e+000
                      0.0000000000e+000   0.0000000000e+000  -3.4864299198e-004   2.1316189165e-004   0.0000000000e+000   0.0000000000e+000   1.3192817060e-001  -9.2146236858e-002
                      1.0000000000e+000   0.0000000000e+000   0.0000000000e+000   0.0000000000e+000   3.0282766620e-002  -4.6978779733e-003   0.0000000000e+000   0.0000000000e+000
                      0.0000000000e+000   0.0000000000e+000  -4.2830382282e-001  -9.0552350148e-001   0.0000000000e+000   0.0000000000e+000  -8.1279953260e-003   1.6618099740e-002
  2.3305000000e+008  -5.1035460516e-004   5.1018474133e-004   0.0000000000e+000   0.0000000000e+000   4.4929354485e-002   1.3704706076e-001   0.0000000000e+000   0.0000000000e+000
                      0.0000000000e+000   0.0000000000e+000  -4.7432375264e-004   2.3359013710e-004   0.0000000000e+000   0.0000000000e+000   1.2781968744e-001  -1.0696776516e-001
                      1.0000000000e+000   0.0000000000e+000   0.0000000000e+000   0.0000000000e+000   2.5592662229e-002  -1.2994972383e-002   0.0000000000e+000   0.0000000000e+000
                      0.0000000000e+000   0.0000000000e+000  -4.9618465213e-001  -8.6889072178e-001   0.0000000000e+000   0.0000000000e+000   3.2671654865e-003   1.8012446993e-002
  2.4163750000e+008  -5.1094441727e-004   5.6502347385e-004   0.0000000000e+000   0.0000000000e+000   4.8154672696e-002   1.4138630055e-001   0.0000000000e+000   0.0000000000e+000
                      0.0000000000e+000   0.0000000000e+000  -5.5118089850e-004   2.9984860500e-004   0.0000000000e+000   0.0000000000e+000   1.2213216495e-001  -1.2201846470e-001
                      1.0000000000e+000   0.0000000000e+000   0.0000000000e+000   0.0000000000e+000   1.7877193475e-002  -1.8712183119e-002   0.0000000000e+000   0.0000000000e+000
                      0.0000000000e+000   0.0000000000e+000  -5.6099360406e-001  -8.2876183537e-001   0.0000000000e+000   0.0000000000e+000   1.2976806348e-002   1.2798774103e-002
  2.5022500000e+008  -5.4490864101e-004   5.6541538169e-004   0.0000000000e+000   0.0000000000e+000   5.1592561448e-002   1.4537190649e-001   0.0000000000e+000   0.0000000000e+000
                      0.0000000000e+000   0.0000000000e+000  -6.8712888831e-004   3.2347301632e-004   0.0000000000e+000   0.0000000000e+000   1.1400491803e-001  -1.3779272629e-001
                      1.0000000000e+000   0.0000000000e+000   0.0000000000e+000   0.0000000000e+000   1.0220725662e-002  -2.0480292891e-002   0.0000000000e+000   0.0000000000e+000
                      0.0000000000e+000   0.0000000000e+000  -6.2435609391e-001  -7.8142603266e-001   0.0000000000e+000   0.0000000000e+000   1.7124013530e-002   3.3000847734e-003
  2.5881250000e+008  -5.2277815891e-004   6.1174713081e-004   0.0000000000e+000   0.0000000000e+000   5.4842976513e-002   1.4946599314e-001   0.0000000000e+000   0.0000000000e+000
                      0.0000000000e+000   0.0000000000e+000  -8.4529253161e-004   3.9298755213e-004   0.0000000000e+000   0.0000000000e+000   1.0470354814e-001  -1.5189938116e-001
                      1.0000000000e+000   0.0000000000e+000   0.0000000000e+000   0.0000000000e+000   3.6273267808e-003  -1.8959717320e-002   0.0000000000e+000   0.0000000000e+000
                      0.0000000000e+000   0.0000000000e+000  -6.8186445998e-001  -7.3084949532e-001   0.0000000000e+000   0.0000000000e+000   1.6597064678e-002  -4.5051167140e-003
  2.6740000000e+008  -5.3792061426e-004   6.3732820325e-004   0.0000000000e+000   0.0000000000e+000   5.8103709313e-002   1.5338087255e-001   0.0000000000e+000   0.0000000000e+000
                      0.0000000000e+000   0.0000000000e+000  -8.9998286139e-004   4.7753191147e-004   0.0000000000e+000   0.0000000000e+000   9.4173474409e-002  -1.6527905682e-001
                      1.0000000000e+000   0.0000000000e+000   0.0000000000e+000   0.0000000000e+000  -6.6375881327e-004  -1.5060464188e-002   0.0000000000e+000   0.0000000000e+000
                      0.0000000000e+000   0.0000000000e+000  -7.3611469394e-001  -6.7615544920e-001   0.0000000000e+000   0.0000000000e+000   1.0824929148e-002  -1.0773422136e-002
  2.7598750000e+008  -5.9456080563e-004   6.0788041147e-004   0.0000000000e+000   0.0000000000e+000   6.1484159363e-002   1.5747503146e-001   0.0000000000e+000   0.0000000000e+000
                      0.0000000000e+000   0.0000000000e+000  -9.5223573692e-004   5.7210156543e-004   0.0000000000e+000   0.0000000000e+000   8.1492185404e-002  -1.7786542232e-001
                      1.0000000000e+000   0.0000000000e+000   0.0000000000e+000   0.0000000000e+000  -2.9880573936e-003  -1.0642310155e-002   0.0000000000e+000   0.0000000000e+000
                      0.0000000000e+000   0.0000000000e+000  -7.8644647486e-001  -6.1814221694e-001   0.0000000000e+000   0.0000000000e+000   3.6404855775e-003  -1.2276669195e-002
  2.8457500000e+008  -5.7876396804e-004   7.1098784525e-004   0.0000000000e+000   0.0000000000e+000   6.5199135847e-002   1.6150664442e-001   0.0000000000e+000   0.0000000000e+000
                      0.0000000000e+000   0.0000000000e+000  -1.1232412195e-003   7.3452995363e-004   0.0000000000e+000   0.0000000000e+000   6.7409821907e-002  -1.8997863678e-001
                      1.0000000000e+000   0.0000000000e+000   0.0000000000e+000   0.0000000000e+000  -2.8386642106e-003  -6.0076740313e-003   0.0000000000e+000   0.0000000000e+000
                      0.0000000000e+000   0.0000000000e+000  -8.3083133715e-001  -5.5718660760e-001   0.0000000000e+000   0.0000000000e+000  -2.6206276067e-003  -9.9343550497e-003
  2.9316250000e+008  -5.9509076094e-004   6.9451359112e-004   0.0000000000e+000   0.0000000000e+000   6.8760858371e-002   1.6535507026e-001   0.0000000000e+000   0.0000000000e+000
                      0.0000000000e+000   0.0000000000e+000  -9.8332819451e-004   9.1755173056e-004   0.0000000000e+000   0.0000000000e+000   5.2181667670e-002  -2.0059462067e-001
                      1.0000000000e+000   0.0000000000e+000   0.0000000000e+000   0.0000000000e+000   1.1289838299e-003  -4.1789295216e-003   0.0000000000e+000   0.0000000000e+000
                      0.0000000000e+000   0.0000000000e+000  -8.7149049721e-001  -4.9054453169e-001   0.0000000000e+000   0.0000000000e+000  -2.8819911865e-003  -3.8687590326e-003
  3.0175000000e+008  -6.2316559839e-004   7.4709197336e-004   0.0000000000e+000   0.0000000000e+000   7.2483014010e-002   1.6918364611e-001   0.0000000000e+000   0.0000000000e+000
                      0.0000000000e+000   0.0000000000e+000  -1.1295963601e-003   1.0153170496e-003   0.0000000000e+000   0.0000000000e+000   3.5465705215e-002  -2.0980685605e-001
                      1.0000000000e+000   0.0000000000e+000   0.0000000000e+000   0.0000000000e+000   5.2888527971e-003  -4.7439204691e-003   0.0000000000e+000   0.0000000000e+000
                      0.0000000000e+000   0.0000000000e+000  -9.0548353488e-001  -4.2265311752e-001   0.0000000000e+000   0.0000000000e+000   1.0997449875e-003  -1.1160138361e-003
  3.1033750000e+008  -5.5274780513e-004   7.5773315143e-004   0.0000000000e+000   0.0000000000e+000   7.6065299285e-002   1.7284137345e-001   0.0000000000e+000   0.0000000000e+000
                      0.0000000000e+000   0.0000000000e+000  -1.1041264682e-003   1.1408081332e-003   0.0000000000e+000   0.0000000000e+000   1.7474617443e-002  -2.1723856925e-001
                      1.0000000000e+000   0.0000000000e+000   0.0000000000e+000   0.0000000000e+000   7.4729057230e-003  -7.6706728017e-003   0.0000000000e+000   0.0000000000e+000
                      0.0000000000e+000   0.0000000000e+000  -9.3707596315e-001  -3.5314412258e-001   0.0000000000e+000   0.0000000000e+000   6.6389797562e-003  -4.9936260421e-004
  3.1892500000e+008  -6.0372310083e-004   7.9202083732e-004   0.0000000000e+000   0.0000000000e+000   7.9934422799e-002   1.7642807593e-001   0.0000000000e+000   0.0000000000e+000
                      0.0000000000e+000   0.0000000000e+000  -1.0935791406e-003   1.3015678556e-003   0.0000000000e+000   0.0000000000e+000  -1.3220351416e-003  -2.2390742783e-001
                      1.0000000000e+000   0.0000000000e+000   0.0000000000e+000   0.0000000000e+000   7.8766996785e-003  -1.3439613498e-002   0.0000000000e+000   0.0000000000e+000
                      0.0000000000e+000   0.0000000000e+000  -9.6102602974e-001  -2.7978086445e-001   0.0000000000e+000   0.0000000000e+000   9.6905579753e-003  -6.0954776043e-003
  3.2751250000e+008  -6.4581451504e-004   8.4407700795e-004   0.0000000000e+000   0.0000000000e+000   8.3897612629e-002   1.8005785649e-001   0.0000000000e+000   0.0000000000e+000
                      0.0000000000e+000   0.0000000000e+000  -9.8291825960e-004   1.4277418992e-003   0.0000000000e+000   0.0000000000e+000  -2.1266948705e-002  -2.2834706195e-001
                      1.0000000000e+000   0.0000000000e+000   0.0000000000e+000   0.0000000000e+000   4.5084291671e-003  -1.9559054504e-002   0.0000000000e+000   0.0000000000e+000
                      0.0000000000e+000   0.0000000000e+000  -9.7835071173e-001  -2.0487968648e-001   0.0000000000e+000   0.0000000000e+000   9.0512006372e-003  -1.3901182539e-002
  3.3610000000e+008  -6.4623010659e-004   8.7067230302e-004   0.0000000000e+000   0.0000000000e+000   8.7927756945e-002   1.8355333302e-001   0.0000000000e+000   0.0000000000e+000
                      0.0000000000e+000   0.0000000000e+000  -8.4783831476e-004   1.4873295748e-003   0.0000000000e+000   0.0000000000e+000  -4.2277585565e-002  -2.3091263188e-001
                      1.0000000000e+000   0.0000000000e+000   0.0000000000e+000   0.0000000000e+000  -2.3350095125e-003  -2.4104123747e-002   0.0000000000e+000   0.0000000000e+000
                      0.0000000000e+000   0.0000000000e+000  -9.9090092622e-001  -1.2915197545e-001   0.0000000000e+000   0.0000000000e+000   3.2260639947e-003  -1.9102393145e-002
  3.4468750000e+008  -6.7149354171e-004   9.3357439340e-004   0.0000000000e+000   0.0000000000e+000   9.2056066523e-002   1.8696698563e-001   0.0000000000e+000   0.0000000000e+000
                      0.0000000000e+000   0.0000000000e+000  -7.7355366558e-004   1.6454124409e-003   0.0000000000e+000   0.0000000000e+000  -6.3824331109e-002  -2.3153269708e-001
                      1.0000000000e+000   0.0000000000e+000   0.0000000000e+000   0.0000000000e+000  -1.0648236455e-002  -2.4981294693e-002   0.0000000000e+000   0.0000000000e+000
                      0.0000000000e+000   0.0000000000e+000  -9.9663106723e-001  -5.3228910463e-002   0.0000000000e+000   0.0000000000e+000  -7.3244869655e-003  -2.1470576305e-002
  3.5327500000e+008  -6.6854658185e-004   9.2557883960e-004   0.0000000000e+000   0.0000000000e+000   9.5790535904e-002   1.9007864089e-001   0.0000000000e+000   0.0000000000e+000
                      0.0000000000e+000   0.0000000000e+000  -6.6600912794e-004   1.7035907462e-003   0.0000000000e+000   0.0000000000e+000  -8.5252883237e-002  -2.3012403013e-001
