# Hz S RI R 50.000000
! Metas.Vna.Tools, 2.8.8664.20301
! Metas.Vna.Data, 2.8.8664.20285
! Created: UTC 2024.02.11 10:08:07
! FREQ                re:S1,1             im:S1,1             re:S2,1             im:S2,1             re:S1,2             im:S1,2             re:S2,2             im:S2,2          
  1.3000000000e+008  -7.1358412291e-003   5.8726569860e-005   8.5794210993e-004   5.2271251309e-004   8.8937410953e-005   2.5412627852e-004   2.9424146080e-003  -1.0888144277e-003
  1.3858750000e+008  -7.3165455865e-003   2.8208893805e-004   9.5249562809e-004  -6.0759296425e-005   3.9830866020e-004   4.2565566497e-004   2.7710424116e-003  -1.0137235591e-003
  1.4717500000e+008  -7.0979391882e-003   2.5606809657e-004   5.1337557746e-004   7.1589239566e-004   1.6449629361e-004   7.5072009248e-007   2.8174243734e-003  -1.0198036309e-003
  1.5576250000e+008  -7.3684261588e-003   1.4895324620e-004   2.2419285423e-004   2.8853635703e-004   6.9270705198e-005   7.8029899045e-004   2.6376109664e-003  -1.1447317649e-003
  1.6435000000e+008  -7.0679851944e-003   3.1095840313e-004   7.7653243295e-004   3.5458635586e-004   6.2612470538e-005   6.5638292760e-004   2.7895382797e-003  -1.2752679240e-003
  1.7293750000e+008  -7.2912790741e-003   3.0342610277e-004   3.9431374066e-004   1.1346881389e-004   2.7221834727e-004  -1.0476650868e-004   2.5644192912e-003  -1.2214831004e-003
  1.8152500000e+008  -7.2090943182e-003   2.9648140210e-004   6.3214893734e-004   5.8332720726e-004   6.7439278615e-004   7.2089132121e-004   2.6735440166e-003  -1.2730040258e-003
  1.9011250000e+008  -7.2579695383e-003   2.6302488097e-004   4.6933590750e-004   7.5633669027e-004   1.4123086102e-004   4.7160215332e-004   2.4926506232e-003  -1.2966382559e-003
  1.9870000000e+008  -7.2060035336e-003   3.3454422362e-004   5.5541962173e-004   4.3273600042e-004   7.8260144137e-005   5.3376345602e-004   2.5604874020e-003  -1.2719321490e-003
  2.0728750000e+008  -7.1901458509e-003   3.1447236365e-004   6.4255512447e-004   4.7225106900e-004  -1.4843573008e-004   3.6998799354e-004   2.5376733595e-003  -1.2728261254e-003
  2.1587500000e+008  -7.1774919105e-003   3.5131829109e-004   4.5116217298e-004   1.9259450375e-004  -2.2781433987e-004   2.0311798137e-004   2.4036822666e-003  -1.3773856824e-003
  2.2446250000e+008  -7.1791850151e-003   2.5524988660e-004   1.8154457187e-004   6.4591089226e-004   1.5439273353e-004   3.9410791729e-004   2.3208428166e-003  -1.3237257912e-003
  2.3305000000e+008  -7.1807643358e-003   2.0248586778e-004   5.1820683293e-004   7.6279867333e-004  -2.0603355967e-004   5.2851230213e-004   2.3411367313e-003  -1.3447538254e-003
  2.4163750000e+008  -7.2245719910e-003   2.9519289088e-004   1.5954246868e-004   4.8741511448e-004  -6.9490216819e-005   2.4396140933e-004   2.2776289769e-003  -1.3061645030e-003
  2.5022500000e+008  -7.2100893892e-003   2.1448922674e-004   2.4896735468e-004   6.8992034133e-004  -1.4739462928e-004   2.4917952903e-004   2.3525198526e-003  -1.3557949208e-003
  2.5881250000e+008  -7.2649455848e-003   4.0329229576e-004   1.1396197060e-005   4.2730839001e-004  -5.9712794206e-005   5.3931109579e-004   2.2373982056e-003  -1.4031007352e-003
  2.6740000000e+008  -7.0999279182e-003   4.3673943873e-004  -7.1125891180e-005   1.6169268453e-004  -6.2587312326e-006   4.9366165462e-004   2.2002281789e-003  -1.3816874726e-003
  2.7598750000e+008  -7.1485285759e-003   4.6333648842e-004   6.9431140594e-005   4.9277147160e-004  -5.7397120866e-005   8.6597338953e-005   2.2467583122e-003  -1.3496355597e-003
  2.8457500000e+008  -7.1677599189e-003   3.9895608901e-004  -2.3521425923e-004   4.8961038034e-004  -1.7239472325e-004   9.6226326443e-005   2.0447078366e-003  -1.5387681592e-003
  2.9316250000e+008  -7.1174621797e-003   3.4707857067e-004  -2.1149860888e-004   2.9949792117e-004  -2.2840559555e-004   1.4715119534e-004   2.1608819738e-003  -1.3507137443e-003
  3.0175000000e+008  -7.0613414391e-003   4.5448554026e-004   6.4498545263e-005   6.9343742912e-004  -2.3032496343e-004   1.1070056662e-004   2.1503737769e-003  -1.4807552279e-003
  3.1033750000e+008  -7.0921785803e-003   4.7083222970e-004  -3.9837137521e-004   4.7467186679e-004  -2.6320259515e-004   3.3930094543e-004   2.0468457077e-003  -1.4967290352e-003
  3.1892500000e+008  -7.2270048076e-003   5.0401889134e-004  -3.1646054835e-005   6.3744886351e-004  -2.7982153934e-004   2.2515117355e-004   2.0166957461e-003  -1.4997297100e-003
  3.2751250000e+008  -7.1848727523e-003   4.3865271065e-004  -3.0313709097e-004   3.5080293540e-004  -2.1607228104e-004  -1.1329618353e-004   2.0281070037e-003  -1.4613739567e-003
  3.3610000000e+008  -7.0942391243e-003   4.0463080274e-004  -2.7079427327e-004   2.1067420877e-004  -1.7366419462e-004  -1.3983565404e-004   2.0084422050e-003  -1.4363446540e-003
  3.4468750000e+008  -7.1741564433e-003   4.5136171153e-004  -2.3022546627e-004   2.0358918686e-004  -1.8781230652e-004   2.5891131942e-004   1.8833136001e-003  -1.4845289277e-003
  3.5327500000e+008  -7.1979450671e-003   4.2239710794e-004  -3.0712776664e-004   4.1869509948e-004  -2.3963389996e-004   1.3146343025e-004   1.8826285149e-003  -1.4159517567e-003
  3.6186250000e+008  -7.1437900831e-003   5.2540041966e-004  -3.8337023612e-004   2.4201088335e-004  -1.4410610890e-004  -2.4742898216e-004   1.8449777046e-003  -1.5450051138e-003
  3.7045000000e+008  -7.1767836282e-003   4.9490070877e-004  -2.6008656545e-004   1.9204305879e-004  -3.3490820582e-004   4.2133720279e-005   1.7988780567e-003  -1.4737816428e-003
  3.7903750000e+008  -7.1860063197e-003   4.6246411775e-004  -3.4737428885e-004   2.9392691668e-004  -3.2207411786e-004   1.0620048845e-004   1.8150238762e-003  -1.4698511333e-003
  3.8762500000e+008  -7.0981666614e-003   5.4022642006e-004  -3.3014279459e-004   2.4758541230e-005  -2.1783048639e-004  -1.7406186668e-004   1.8481416092e-003  -1.4933727539e-003
  3.9621250000e+008  -7.1992174962e-003   4.5321173536e-004  -3.6877717564e-004   5.1101682194e-005  -3.0466202451e-004  -1.1176065230e-004   1.7190885177e-003  -1.4904145461e-003
  4.0480000000e+008  -7.1407307493e-003   4.7371855956e-004  -4.4783052622e-004   4.8783161506e-005  -1.6025431972e-004  -6.5982432638e-005   1.7838183335e-003  -1.4802172943e-003
  4.1338750000e+008  -7.1446357381e-003   5.2888554549e-004  -2.3170955287e-004   6.3053893237e-005  -2.1152319390e-004  -5.1993673695e-005   1.7588073516e-003  -1.5087697139e-003
  4.2197500000e+008  -7.1240073447e-003   5.5635079581e-004  -3.2665396437e-004   7.0180030762e-005  -2.3251853390e-004  -1.1253492683e-004   1.6825818123e-003  -1.4646908581e-003
  4.3056250000e+008  -7.1378003341e-003   5.7778141136e-004  -4.0233169923e-004  -1.2698300951e-004  -2.1714850914e-004  -6.4841970531e-005   1.7206228941e-003  -1.5268267114e-003
  4.3915000000e+008  -7.1258858636e-003   6.2737951181e-004  -2.3517765460e-004   4.3112626927e-005   1.2587478228e-004   3.7499391250e-006   1.6536011597e-003  -1.4635259588e-003
  4.4773750000e+008  -7.1136578153e-003   5.4973364792e-004  -3.4125757985e-004  -1.5791681294e-004  -2.3146348846e-004  -1.3025218362e-004   1.6581330460e-003  -1.4892675207e-003
  4.5632500000e+008  -7.1492813067e-003   5.3958586136e-004  -2.7916936539e-004  -1.2875433422e-004   1.8926878079e-006  -9.6424011979e-005   1.6262268997e-003  -1.5028463813e-003
  4.6491250000e+008  -7.1047447956e-003   6.4581168885e-004  -3.2123568769e-004  -7.8564211878e-005  -1.9928411080e-004  -7.0914087405e-005   1.6228685364e-003  -1.5041598998e-003
  4.7350000000e+008  -7.0960312558e-003   5.8601582605e-004  -2.7729071994e-004  -2.3013836743e-004  -1.1100688243e-004  -1.5186731061e-004   1.5436226329e-003  -1.5118924147e-003
  4.8208750000e+008  -7.0835658648e-003   6.1247314745e-004  -2.5017145791e-004  -2.6064784853e-004  -9.8953835835e-006   4.4670502584e-005   1.5781809333e-003  -1.5253828060e-003
  4.9067500000e+008  -7.0959963710e-003   6.2717398037e-004  -1.6048185712e-004  -1.2335571149e-004   4.3623638609e-005  -2.0986663754e-004   1.5450079134e-003  -1.4746420543e-003
  4.9926250000e+008  -7.0800520820e-003   6.0557835871e-004  -2.0712984506e-004  -1.7814299610e-004   1.4083656976e-004  -1.9190530031e-004   1.4885174379e-003  -1.4971370699e-003
  5.0785000000e+008  -7.0549217595e-003   6.6730084733e-004  -1.5078599964e-004  -1.2778919629e-004   1.2569929745e-004  -1.8004280343e-004   1.5066804277e-003  -1.4979000408e-003
  5.1643750000e+008  -7.0719555555e-003   6.6810450747e-004  -1.1081761121e-004  -3.5052614497e-004  -1.4027719378e-004  -1.5704607946e-005   1.5050516236e-003  -1.5137542698e-003
  5.2502500000e+008  -7.1426833219e-003   6.6115688235e-004  -1.4343952430e-005  -1.9180703884e-004   1.7973017511e-005  -9.8217614774e-005   1.5049476995e-003  -1.4556725586e-003
  5.3361250000e+008  -7.0036848775e-003   6.3181220617e-004  -1.2566512579e-005  -6.8654493655e-005  -3.5525002203e-005  -3.2482317679e-004   1.4443275815e-003  -1.5378955234e-003
  5.4220000000e+008  -7.0530677681e-003   7.0339708553e-004   1.1033761569e-004  -2.2428012968e-004   1.0563615400e-004  -9.8433527011e-005   1.4038131410e-003  -1.5180958974e-003
  5.5078750000e+008  -7.0488490323e-003   7.0600816251e-004  -1.0531030621e-004  -4.1381193632e-004   8.1634548687e-005  -1.4491941639e-004   1.4416149401e-003  -1.5427523042e-003
  5.5937500000e+008  -7.0695918177e-003   6.6776836818e-004  -8.9535682955e-005  -3.3837944772e-004   1.9177523738e-005   1.0822581056e-004   1.3376679730e-003  -1.5015393648e-003
  5.6796250000e+008  -7.0561856574e-003   7.4884093313e-004  -1.4574577596e-004  -2.0494403727e-004   7.6778288963e-005  -8.5306746263e-005   1.4173821059e-003  -1.4491540772e-003
  5.7655000000e+008  -7.0457324304e-003   6.9795536681e-004   4.2210769444e-006  -3.6897667048e-004  -1.6244464169e-005  -2.6010571960e-004   1.3838892768e-003  -1.5408838664e-003
  5.8513750000e+008  -7.0750018291e-003   7.6951120322e-004   1.9139414304e-005  -3.0223536992e-004  -1.4438318411e-005  -1.8225729759e-004   1.3318011783e-003  -1.4445957587e-003
  5.9372500000e+008  -7.0599442195e-003   7.5928813314e-004   5.0774305725e-006  -1.0038627988e-004  -7.3299996409e-005  -1.9661783233e-004   1.3280041845e-003  -1.4636619274e-003
  6.0231250000e+008  -7.0826429394e-003   7.6842859730e-004  -5.0712284312e-005  -1.0821267386e-004   1.1063028803e-004  -7.3736428578e-005   1.3341974246e-003  -1.5154715111e-003
  6.1090000000e+008  -7.0799451624e-003   7.3260494301e-004   1.8072483203e-005  -2.2647235799e-004   2.0025591167e-004  -1.3613306043e-004   1.3182955284e-003  -1.4933450835e-003
  6.1948750000e+008  -6.9901118692e-003   7.4701414675e-004   1.8953048728e-004  -2.1441877904e-004   1.9859155866e-004  -5.5573218505e-005   1.2933178931e-003  -1.4425401780e-003
  6.2807500000e+008  -7.0303130049e-003   7.9716483053e-004   1.2838276898e-004  -1.8739034941e-004   6.8791545480e-005  -1.2373508552e-004   1.2950548615e-003  -1.5089055398e-003
  6.3666250000e+008  -7.0362806269e-003   7.6324587946e-004   1.3927480012e-004  -2.4435636834e-004   1.3230127343e-004   1.4218093318e-005   1.2720844679e-003  -1.4612818689e-003
  6.4525000000e+008  -7.0293860299e-003   8.2869698806e-004   1.9557340677e-004  -2.1933577862e-004   1.4437117985e-004  -1.1068991780e-004   1.2560332717e-003  -1.4716243531e-003
  6.5383750000e+008  -7.0037248833e-003   7.6654230964e-004   2.3078755348e-004  -2.5668594506e-004   1.4374036957e-004  -5.5521879612e-006   1.2107199812e-003  -1.5344993849e-003
  6.6242500000e+008  -7.0143536673e-003   8.1874409218e-004   2.5710234019e-004  -1.6906941735e-004   1.8149687698e-004  -6.4642334253e-005   1.2166291813e-003  -1.5005444241e-003
  6.7101250000e+008  -7.0081062111e-003   8.3004071704e-004   1.4896445920e-004  -6.6421076887e-005   4.4589736110e-005  -5.6659365866e-005   1.2419050300e-003  -1.4704933066e-003
  6.7960000000e+008  -7.0601225645e-003   8.5288396367e-004   2.5866074027e-004  -1.9384231977e-004   9.4346576279e-005  -5.6636705359e-005   1.1854409676e-003  -1.5210995912e-003
  6.8818750000e+008  -7.0164208381e-003   8.3588097603e-004   2.2153417717e-004  -1.2750587772e-004   1.6652569169e-004  -5.9994421948e-005   1.2085068579e-003  -1.4637016463e-003
  6.9677500000e+008  -6.9845365074e-003   8.3649606919e-004   1.8418179768e-004  -1.5041501248e-004   1.4532978743e-004  -5.1355750033e-005   1.2117396752e-003  -1.4784236497e-003
  7.0536250000e+008  -7.0835237365e-003   8.7624601742e-004   2.2910352838e-004  -6.4014933619e-005   1.0273038196e-004  -7.9074641407e-006   1.2161657866e-003  -1.4807007000e-003
  7.1395000000e+008  -7.0376805263e-003   9.0145997061e-004   2.1116541022e-004   2.8450560731e-005   7.7695130008e-005  -3.2282761100e-005   1.1257673553e-003  -1.5112047467e-003
  7.2253750000e+008  -6.9970233918e-003   8.7931316145e-004   1.8373166704e-004  -8.3774130237e-005   6.9463994772e-005   4.9272526325e-005   1.1199971520e-003  -1.4454316128e-003
  7.3112500000e+008  -6.9649437298e-003   9.3509612366e-004   2.5051427123e-004  -3.9334572537e-005   6.1303766448e-005   4.1094481342e-005   1.1156422624e-003  -1.4148993573e-003
  7.3971250000e+008  -6.9909942965e-003   9.3253932771e-004   1.6149756705e-004   3.8964150421e-005   1.3396551600e-005   4.0839663767e-006   1.1069029390e-003  -1.4989430341e-003
  7.4830000000e+008  -6.9872392434e-003   9.0977775721e-004   2.5479774629e-004   8.3859500074e-005   5.9552956153e-006   1.2196347507e-004   1.1178991927e-003  -1.4526811604e-003
  7.5688750000e+008  -6.9976313049e-003   9.2546267807e-004   2.7211061915e-004   6.2359819136e-005   2.1367805881e-004   1.2004796909e-004   1.0574593288e-003  -1.4857377444e-003
  7.6547500000e+008  -6.9865517054e-003   9.5078384841e-004   2.6063445467e-004   6.5656606189e-006   2.9798814789e-005   1.7092762900e-005   1.0271477990e-003  -1.4096210076e-003
  7.7406250000e+008  -6.9665679499e-003   9.7069865800e-004   2.4913797852e-004   1.3058638245e-004   7.9182627870e-005   7.8331915222e-005   1.0499263947e-003  -1.4568267652e-003
  7.8265000000e+008  -6.9735863139e-003   9.4723425327e-004   2.0200370810e-004   2.1825544889e-004   1.9033641040e-005   1.5901709316e-004   1.0660671467e-003  -1.4799313499e-003
  7.9123750000e+008  -6.9685889412e-003   9.6418276421e-004   1.4359703933e-004   4.4984848039e-005   3.3230308050e-005   1.1369554788e-004   9.8320068430e-004  -1.4520379073e-003
  7.9982500000e+008  -6.9693206145e-003   1.0245960861e-003   1.1521449736e-004   1.0418780237e-004  -1.6776460408e-005   1.2798860662e-004   1.0354529214e-003  -1.5059982625e-003
  8.0841250000e+008  -6.9359795600e-003   1.0381912950e-003   8.5073597472e-005   1.9188724766e-004   6.4758083535e-005   6.8438980255e-005   9.8141260887e-004  -1.4977265103e-003
  8.1700000000e+008  -7.0207116862e-003   9.9031790727e-004   1.0861554310e-004   5.9330677748e-005  -6.4703625711e-006   1.0269577485e-004   1.0052015478e-003  -1.4501335915e-003
  8.2558750000e+008  -6.9480634272e-003   1.0288441676e-003   7.4294519593e-005   2.3191640854e-004   2.2271958051e-005   7.7262364287e-005   9.6213085144e-004  -1.4712359157e-003
  8.3417500000e+008  -6.9389045425e-003   1.0420841954e-003   6.8398289692e-005   1.4738790959e-004  -5.9687445373e-006   1.4742059933e-004   9.6827827810e-004  -1.5084945818e-003
  8.4276250000e+008  -6.9670726107e-003   1.0720575310e-003   1.8895237781e-004   2.1011196672e-004  -4.9627017577e-005   1.7846845624e-004   9.4123752442e-004  -1.4233762980e-003
  8.5135000000e+008  -6.9871108258e-003   1.0476044602e-003   7.5304423003e-005   1.0033408649e-004  -7.9343058492e-006   2.5076357689e-005   9.1587849572e-004  -1.4548356864e-003
  8.5993750000e+008  -6.9623505893e-003   1.0484538143e-003   3.0990706891e-005   2.6640506848e-004  -2.3773167181e-005   6.1374514815e-005   9.3302300367e-004  -1.4376534262e-003
  8.6852500000e+008  -6.9558219765e-003   1.0850712165e-003  -2.8282032686e-005   1.6613286428e-004   6.2682208393e-005   8.7656063769e-006   9.1879889286e-004  -1.4753823621e-003
  8.7711250000e+008  -6.9267693893e-003   1.0849435438e-003  -7.6615338284e-006   2.4493736498e-004   2.7002876652e-005  -1.6073962154e-005   9.1871316645e-004  -1.4275626827e-003
  8.8570000000e+008  -6.9471261027e-003   1.0951782443e-003   6.5974703474e-005   1.8981254748e-004  -8.1039176458e-005   2.8787186669e-005   9.3116954530e-004  -1.4528237680e-003
  8.9428750000e+008  -6.9368842624e-003   1.1362008073e-003   2.4631931608e-006   1.8130803363e-004  -8.8299666563e-005   1.1946702194e-004   9.0840919037e-004  -1.4508273288e-003
  9.0287500000e+008  -6.9762701984e-003   1.0791309310e-003   6.4451164201e-005   1.0611541585e-004  -3.0407092632e-005   4.0801888729e-006   8.4460880767e-004  -1.4241512519e-003
  9.1146250000e+008  -6.9784300686e-003   1.1228688492e-003   1.0900079254e-004   2.0194385157e-004   1.6508846020e-005   8.3051443814e-005   8.9747195757e-004  -1.4375848904e-003
  9.2005000000e+008  -6.9220270384e-003   1.1431670941e-003  -8.4132553502e-005   1.1603005386e-004  -9.7754968678e-005   3.3153154353e-005   8.8588680289e-004  -1.4756716750e-003
  9.2863750000e+008  -6.9464470579e-003   1.1508552488e-003  -1.5231906423e-005   1.1510342200e-004  -4.7185660329e-005  -4.3945374613e-005   8.5569979806e-004  -1.4412614437e-003
  9.3722500000e+008  -6.9497867156e-003   1.2120855164e-003  -1.8201352929e-004   1.1399724568e-004  -1.0017178094e-004   7.5461537386e-005   8.4787598937e-004  -1.4171350209e-003
  9.4581250000e+008  -6.9545698288e-003   1.1832752774e-003  -1.0108122653e-004   1.1888236739e-004  -4.5559639322e-005  -1.4160138820e-005   8.3894770348e-004  -1.4627495446e-003
  9.5440000000e+008  -6.9394935120e-003   1.1822887948e-003  -1.3255376402e-004   1.2174349746e-004   3.8786128003e-006   2.8064430803e-005   8.6631891011e-004  -1.4348497755e-003
  9.6298750000e+008  -6.9624173254e-003   1.2374483030e-003  -2.9012941351e-005   6.2317059363e-005  -3.3153290630e-005   5.5472347073e-005   8.1086879397e-004  -1.4457092811e-003
  9.7157500000e+008  -6.9575598668e-003   1.2175215553e-003  -2.1900447887e-005   7.1208189495e-005  -9.8447354357e-006   7.7885132473e-006   7.8648782630e-004  -1.4405252928e-003
  9.8016250000e+008  -6.9429575226e-003   1.2255871553e-003  -1.4788475343e-004   7.1429015361e-005   5.4446495060e-005  -6.1444157542e-005   8.1127043878e-004  -1.4263596822e-003
  9.8875000000e+008  -6.9469935362e-003   1.2430430267e-003  -1.0869773461e-004   3.1801059274e-005  -4.5959865771e-005  -4.4275372263e-005   7.9544767122e-004  -1.4124939476e-003
  9.9733750000e+008  -6.8992122600e-003   1.2535136885e-003  -1.1461349073e-004   1.6491171207e-005  -3.9947770350e-005  -1.1598122109e-005   7.7361570605e-004  -1.4411262356e-003
  1.0059250000e+009  -6.9168889687e-003   1.2258682223e-003  -4.8897081137e-005  -2.8158842112e-006  -4.3168484834e-005  -7.0880030543e-005   7.4628866393e-004  -1.3950315101e-003
  1.0145125000e+009  -6.9054486155e-003   1.2973968156e-003  -1.5823117440e-004   8.6461425368e-005  -1.4550302347e-004  -9.6202915901e-005   7.8436414148e-004  -1.4116659236e-003
  1.0231000000e+009  -6.9201803545e-003   1.3011662463e-003  -2.1787975898e-004   4.5512693215e-006  -1.7258399549e-004  -5.0097887921e-005   7.2992124440e-004  -1.4702149734e-003
  1.0316875000e+009  -6.8956563459e-003   1.2770619991e-003  -1.7271062445e-004   2.6775723859e-005  -1.4696343159e-004   5.3780435038e-005   7.1028022956e-004  -1.4651530205e-003
  1.0402750000e+009  -6.8836439952e-003   1.3348419069e-003  -9.3011922787e-005   8.0281335104e-005  -9.8388719368e-005   1.9546395836e-005   7.1270129590e-004  -1.4341337638e-003
  1.0488625000e+009  -6.9288319741e-003   1.3418801851e-003  -3.6579370165e-005  -9.4205383425e-006  -6.6694053543e-005  -9.2062899797e-005   6.8094831633e-004  -1.4776041181e-003
  1.0574500000e+009  -6.8751726858e-003   1.3573471949e-003  -1.7333626631e-004   9.3465450897e-005  -2.1781970673e-005  -1.2189356378e-004   6.9512725936e-004  -1.4153446913e-003
