# Hz S RI R 50.000000
! Metas.Vna.Tools, 2.8.8664.20301
! Metas.Vna.Data, 2.8.8664.20285
! Created: UTC 2024.02.11 10:08:07
! FREQ                re:S1,1             im:S1,1             re:S2,1             im:S2,1             re:S1,2             im:S1,2             re:S2,2             im:S2,2          
  1.3000000000e+008   9.9601866090e-001  -9.5453139537e-002   1.0698805687e-003   4.8674218980e-004   4.0031120676e-004   1.9342654572e-004   9.9781918990e-001  -6.9072296922e-002
  1.3858750000e+008   9.9496681922e-001  -1.0102170543e-001   1.0142971483e-003   1.7029735489e-004   1.7900494212e-004   3.5790933224e-004   9.9739223068e-001  -7.2103761197e-002
  1.4717500000e+008   9.9510597403e-001  -1.0725372845e-001   3.8943448919e-004   3.0517657491e-004  -1.5842994092e-004   4.4633736829e-004   9.9774057215e-001  -7.7002124823e-002
  1.5576250000e+008   9.9354834666e-001  -1.1429445339e-001   8.4270460918e-004   3.1879780893e-004   5.5168927937e-004   5.8060263643e-004   9.9630781893e-001  -8.2149235815e-002
  1.6435000000e+008   9.9322162259e-001  -1.1957729845e-001   6.2803359355e-004   4.3882824544e-004   3.9111505198e-004   3.3317502226e-004   9.9621071579e-001  -8.6469269197e-002
  1.7293750000e+008   9.9190092336e-001  -1.2628798493e-001   3.9989886843e-004   5.2749130493e-004   4.4484235164e-004   6.0694695782e-004   9.9618733992e-001  -9.0336629282e-002
  1.8152500000e+008   9.9077498408e-001  -1.3180106723e-001   1.2506860525e-004   5.8629598508e-004   6.3917423831e-005   7.9529992162e-004   9.9540563684e-001  -9.4809870762e-002
  1.9011250000e+008   9.9056152216e-001  -1.3857469957e-001   1.4035246496e-004   1.4358279272e-004  -6.1998966194e-005   4.5694585676e-004   9.9539564324e-001  -1.0037126446e-001
  1.9870000000e+008   9.8976727286e-001  -1.4458399547e-001   3.7914343236e-004   3.0429498865e-004   1.5669401525e-004   5.1962406198e-004   9.9471508895e-001  -1.0402246404e-001
  2.0728750000e+008   9.8864277263e-001  -1.5128411499e-001   3.9109320488e-004   5.2959396487e-004   2.3963567090e-004   6.5831108616e-005   9.9387318442e-001  -1.0901581517e-001
  2.1587500000e+008   9.8740169518e-001  -1.5700885739e-001   1.5986705212e-004   3.0623554527e-004  -2.0320284806e-004   3.6084255910e-004   9.9351292500e-001  -1.1339188758e-001
  2.2446250000e+008   9.8664668220e-001  -1.6275261351e-001   3.2596424151e-004   5.3232428589e-004   6.7601023506e-005   4.0853877738e-004   9.9301020982e-001  -1.1758337964e-001
  2.3305000000e+008   9.8522915920e-001  -1.6959562790e-001   2.4993112470e-004   6.2456580188e-004  -1.7358852388e-004   5.1911535865e-004   9.9250981231e-001  -1.2239512028e-001
  2.4163750000e+008   9.8507533036e-001  -1.7499613483e-001   1.1515870101e-005   6.1871127991e-004  -4.5915927511e-004   3.8914572389e-004   9.9208076235e-001  -1.2619940254e-001
  2.5022500000e+008   9.8366037376e-001  -1.8169308363e-001   6.8575266554e-005   5.7506133806e-004   1.1593382477e-004   5.7461410701e-004   9.9184108049e-001  -1.3108964272e-001
  2.5881250000e+008   9.8174171749e-001  -1.8812681259e-001   1.4399717640e-004   6.5916511280e-004  -7.2662698738e-005   3.9248093674e-004   9.9074688850e-001  -1.3532700112e-001
  2.6740000000e+008   9.8083470637e-001  -1.9370948835e-001   1.1778324218e-005   2.4521455856e-004  -3.9641294081e-004   2.4095586777e-004   9.9035168046e-001  -1.4006558236e-001
  2.7598750000e+008   9.8039490160e-001  -2.0026193889e-001  -7.8809955778e-005   5.2941376171e-004  -4.2048581073e-004   2.7719343592e-004   9.8907017244e-001  -1.4480615479e-001
  2.8457500000e+008   9.7882100353e-001  -2.0671304754e-001  -5.2590511281e-005   3.7245566638e-004  -2.7226226840e-004  -6.9697856528e-006   9.8939567604e-001  -1.4922578918e-001
  2.9316250000e+008   9.7754610604e-001  -2.1199624680e-001   1.2188624226e-004   4.3775958346e-004  -9.1711445508e-005   3.5782517039e-004   9.8821751059e-001  -1.5371623060e-001
  3.0175000000e+008   9.7555784851e-001  -2.1792050892e-001   1.6127619531e-004   3.5204743760e-004  -2.6399038823e-004   2.7855743179e-004   9.8724237862e-001  -1.5787221838e-001
  3.1033750000e+008   9.7458969438e-001  -2.2510043437e-001  -5.7473592541e-005   4.5036323332e-004  -4.3761049474e-005   2.4406018054e-004   9.8692781163e-001  -1.6241280818e-001
  3.1892500000e+008   9.7343197105e-001  -2.3081284010e-001  -2.6408109308e-004   7.5978183638e-005  -2.7018370545e-005   5.0043860462e-005   9.8617203872e-001  -1.6690349213e-001
  3.2751250000e+008   9.7176995957e-001  -2.3648514028e-001  -2.3043796319e-004   4.1642098022e-004  -1.9841257799e-004   1.0638338543e-004   9.8492948186e-001  -1.7111634027e-001
  3.3610000000e+008   9.7043959753e-001  -2.4282396952e-001  -6.0873218973e-004   2.1603466874e-004  -3.1219906532e-004   2.1011530990e-005   9.8382623447e-001  -1.7629970329e-001
  3.4468750000e+008   9.6869910967e-001  -2.4842879152e-001  -1.3770049467e-004   1.5340580210e-004  -8.0027332232e-005  -1.2327377179e-004   9.8346796264e-001  -1.8022707390e-001
  3.5327500000e+008   9.6715614080e-001  -2.5500214811e-001  -2.3518315420e-004   3.9357856909e-004  -4.6194923028e-004   2.5479413342e-004   9.8289958314e-001  -1.8493229441e-001
  3.6186250000e+008   9.6533236118e-001  -2.6056716542e-001  -3.6154944690e-004  -5.3457264214e-005  -2.4773425474e-004   2.4592958931e-006   9.8211261640e-001  -1.8912005284e-001
  3.7045000000e+008   9.6377099119e-001  -2.6707293867e-001  -3.2277509681e-004   1.3867071587e-004  -4.0691540130e-005   1.4515868473e-004   9.8144525882e-001  -1.9364979783e-001
  3.7903750000e+008   9.6214017991e-001  -2.7328636118e-001  -4.2840935887e-004   2.6113089306e-004  -2.8385613983e-004   9.1072964919e-005   9.8013941736e-001  -1.9750698793e-001
  3.8762500000e+008   9.6034198594e-001  -2.7885103144e-001  -4.5777057050e-004   3.4178318431e-004  -1.6906481810e-004  -5.0824847079e-005   9.7905596413e-001  -2.0275202148e-001
  3.9621250000e+008   9.5895858185e-001  -2.8468341596e-001  -3.1115203665e-004   1.9654283024e-004  -1.3800957313e-004  -1.3573329978e-005   9.7817665532e-001  -2.0711427169e-001
  4.0480000000e+008   9.5708762036e-001  -2.9102173727e-001  -2.9316938483e-004   1.3542614253e-004  -1.5731913707e-004  -1.8821793670e-004   9.7755858456e-001  -2.1089180992e-001
  4.1338750000e+008   9.5518297151e-001  -2.9700536614e-001  -3.1117723143e-004   1.9991156494e-004  -7.6693305415e-005  -2.2640377539e-004   9.7668230308e-001  -2.1568088695e-001
  4.2197500000e+008   9.5311338212e-001  -3.0286644187e-001  -3.2736396502e-004  -4.0518058152e-005  -1.2991529807e-004  -1.7739995961e-004   9.7534551533e-001  -2.2003154206e-001
  4.3056250000e+008   9.5099584963e-001  -3.0872572631e-001  -3.1911612143e-004   1.9178304002e-005  -2.9088503588e-004  -1.4738134499e-004   9.7448215401e-001  -2.2468145892e-001
  4.3915000000e+008   9.4902254173e-001  -3.1447927966e-001  -1.7119089710e-004   2.9332813648e-005  -1.8499493377e-004   6.7936506934e-006   9.7352091708e-001  -2.2898561032e-001
  4.4773750000e+008   9.4744338401e-001  -3.2028904726e-001  -3.6173478607e-004  -1.7149660385e-006  -1.7140834770e-004  -1.5143663834e-004   9.7225427214e-001  -2.3311560373e-001
  4.5632500000e+008   9.4516069985e-001  -3.2671685841e-001  -2.9201867743e-004   1.2569142798e-004  -1.0669549263e-005  -8.2084725492e-005   9.7131281068e-001  -2.3761926848e-001
  4.6491250000e+008   9.4309749310e-001  -3.3243734635e-001  -4.1734865169e-004  -9.8712699245e-005  -6.7369544194e-005  -1.3149447502e-004   9.6991691766e-001  -2.4174811510e-001
  4.7350000000e+008   9.4108511430e-001  -3.3802011874e-001  -2.1309680265e-004   3.4589518872e-006  -7.6714281699e-005  -7.0308360817e-005   9.6911897678e-001  -2.4618304154e-001
  4.8208750000e+008   9.3915372512e-001  -3.4402334537e-001  -2.9925808057e-004  -2.6123336815e-004  -3.2534938513e-005  -3.3273093124e-004   9.6802268494e-001  -2.5084613125e-001
  4.9067500000e+008   9.3684841102e-001  -3.4975098300e-001  -2.4391226067e-004  -1.4504242776e-004  -1.1145299475e-005  -2.2717938021e-004   9.6688730677e-001  -2.5484563795e-001
  4.9926250000e+008   9.3438935123e-001  -3.5583706642e-001  -2.9020606981e-004  -1.7354172571e-004  -1.4081219696e-004  -2.9442604919e-004   9.6578551631e-001  -2.6001562165e-001
  5.0785000000e+008   9.3216601855e-001  -3.6154814315e-001  -1.9265626521e-004  -7.5719052369e-005   1.5628407484e-004  -2.4443119202e-004   9.6475959912e-001  -2.6387519081e-001
  5.1643750000e+008   9.3003254542e-001  -3.6747007797e-001  -2.3150428413e-004  -1.8693344998e-004  -6.0105325705e-005  -9.5944035433e-005   9.6366592674e-001  -2.6846205220e-001
  5.2502500000e+008   9.2783262580e-001  -3.7314000144e-001  -2.0743616370e-004  -2.1793444470e-004  -6.3305267255e-005  -2.6688452534e-004   9.6221972340e-001  -2.7214216961e-001
  5.3361250000e+008   9.2522846756e-001  -3.7930851549e-001  -2.1958590395e-004  -3.3769576517e-004   2.7892547844e-005  -1.7436682280e-004   9.6087466126e-001  -2.7680701016e-001
  5.4220000000e+008   9.2324090021e-001  -3.8504676534e-001  -9.4684750557e-005  -1.9717323032e-004   9.6291701737e-005  -2.0312660073e-004   9.5967267616e-001  -2.8127443782e-001
  5.5078750000e+008   9.2053292749e-001  -3.9107809447e-001  -7.7280348688e-005  -2.5328737859e-004  -3.0017735062e-005  -8.3264819463e-005   9.5836917271e-001  -2.8541233542e-001
  5.5937500000e+008   9.1836761029e-001  -3.9634778363e-001  -1.9220010099e-005  -2.8038118100e-004   6.6396866002e-005  -6.7917273327e-005   9.5709606969e-001  -2.8995099828e-001
  5.6796250000e+008   9.1554019085e-001  -4.0204636719e-001   4.3874199356e-005  -2.5571541042e-004   1.0128761681e-005  -4.3313340989e-005   9.5590217893e-001  -2.9401881478e-001
  5.7655000000e+008   9.1302086847e-001  -4.0785891098e-001   5.6698359602e-005  -3.0004707513e-004  -1.1143741605e-004  -7.6601955571e-005   9.5442382053e-001  -2.9860946529e-001
  5.8513750000e+008   9.1036733478e-001  -4.1339970353e-001   4.7086265869e-005  -2.4714205760e-004   1.7274196997e-004  -3.8015230665e-005   9.5299613943e-001  -3.0296233453e-001
  5.9372500000e+008   9.0800548138e-001  -4.1927660977e-001   8.3039812038e-006  -3.6065404627e-004   5.7082545891e-005  -4.0810670566e-005   9.5131075508e-001  -3.0721297786e-001
  6.0231250000e+008   9.0486495823e-001  -4.2525493197e-001  -1.1669278180e-004  -1.9856183306e-004   9.1414574535e-005  -4.0036409143e-005   9.5061249868e-001  -3.1138635144e-001
  6.1090000000e+008   9.0259525472e-001  -4.3048874976e-001   9.7167343912e-005  -1.1057179337e-004   1.9257349886e-004  -2.9273180146e-005   9.4874789829e-001  -3.1575070202e-001
  6.1948750000e+008   8.9962491248e-001  -4.3592891814e-001   3.7723015773e-005  -1.8385659038e-004   1.9065905609e-004  -1.0357041743e-004   9.4721351797e-001  -3.1991258462e-001
  6.2807500000e+008   8.9695587187e-001  -4.4219034864e-001   1.4715176040e-004  -2.1224761687e-004   2.0994702755e-004  -2.3073662271e-004   9.4583791722e-001  -3.2443255043e-001
  6.3666250000e+008   8.9411260838e-001  -4.4759837857e-001   1.6774117578e-004  -2.6121538456e-004   1.4163618465e-004  -1.5974408895e-004   9.4461809317e-001  -3.2860880033e-001
  6.4525000000e+008   8.9123216592e-001  -4.5283284853e-001   4.6452849975e-005  -1.4762397209e-004   1.5087763600e-004  -1.7680172820e-004   9.4328862008e-001  -3.3254155992e-001
  6.5383750000e+008   8.8850207278e-001  -4.5808180976e-001   1.5744566264e-004  -1.2221944448e-004   1.2256766883e-004  -1.0334738419e-004   9.4133622178e-001  -3.3706189350e-001
  6.6242500000e+008   8.8557775335e-001  -4.6392603555e-001   1.6406348104e-004  -1.0068207804e-004   1.2789025796e-004  -2.1004305226e-005   9.4019657200e-001  -3.4136140738e-001
  6.7101250000e+008   8.8283111070e-001  -4.6953918075e-001   9.9004545260e-005  -2.4582655832e-004   1.5967997950e-005   1.1498573203e-006   9.3810699306e-001  -3.4541088178e-001
  6.7960000000e+008   8.7996307621e-001  -4.7475039523e-001   2.0285828525e-004  -1.6925323784e-004   1.6617807689e-004  -1.6013314646e-005   9.3676124928e-001  -3.4947574599e-001
  6.8818750000e+008   8.7688161129e-001  -4.8030756820e-001   2.3526950087e-004  -5.9656155522e-005   7.5787694498e-005  -3.6753865668e-006   9.3480699398e-001  -3.5389914205e-001
  6.9677500000e+008   8.7385063121e-001  -4.8574345639e-001   1.3605458333e-004  -3.8863584462e-005   1.3002262967e-004   3.3892514027e-005   9.3362964195e-001  -3.5808939516e-001
  7.0536250000e+008   8.7125483385e-001  -4.9135535251e-001   2.3142956284e-004   3.7340536263e-006   1.0749366220e-004   6.7121419253e-005   9.3171460199e-001  -3.6280847944e-001
  7.1395000000e+008   8.6780113045e-001  -4.9669681711e-001   2.2539543591e-004  -1.0574845859e-004   2.0157939165e-004   9.2847001990e-006   9.2991869969e-001  -3.6683275195e-001
  7.2253750000e+008   8.6449318657e-001  -5.0234199101e-001   2.7587592702e-004  -4.5914901765e-005   5.3497177662e-005  -9.0515892932e-006   9.2848927239e-001  -3.7095324553e-001
  7.3112500000e+008   8.6116658321e-001  -5.0715543775e-001   2.4110532980e-004  -3.1170896554e-005   1.3244704673e-004   2.0998916045e-005   9.2701815238e-001  -3.7492109510e-001
  7.3971250000e+008   8.5794413095e-001  -5.1301184856e-001   1.0650769677e-004  -5.0727894940e-005   7.8055225453e-005   7.0543802487e-005   9.2265000802e-001  -3.7971741767e-001
  7.4830000000e+008   8.5485964345e-001  -5.1840747849e-001   2.0771913153e-004   1.5902065545e-004   1.3645376789e-004   7.8195659904e-005   9.2401524609e-001  -3.8325114898e-001
  7.5688750000e+008   8.5094593615e-001  -5.2387778192e-001   2.0419142046e-004   7.4889610046e-005   7.2553003918e-005   7.8864007691e-005   9.2158307253e-001  -3.8773004377e-001
  7.6547500000e+008   8.4982883434e-001  -5.2955753847e-001   2.0279134236e-004   2.9329253855e-005   3.1414753688e-005  -5.1446401377e-005   9.2015552021e-001  -3.9216162734e-001
  7.7406250000e+008   8.4468477419e-001  -5.3371902808e-001   1.6477870065e-004   4.2254318128e-005   6.3501978728e-005  -1.2750277162e-005   9.1834200952e-001  -3.9564222724e-001
  7.8265000000e+008   8.4196533977e-001  -5.3984931460e-001   1.1179773663e-004   2.6592564576e-005   2.6543508997e-005   1.6425401498e-007   9.1664056293e-001  -4.0043280449e-001
  7.9123750000e+008   8.3829331602e-001  -5.4427751067e-001   9.5258157692e-005   8.6455466281e-005   5.5919684357e-005   2.3388847442e-004   9.1445008294e-001  -4.0394184257e-001
  7.9982500000e+008   8.3486593034e-001  -5.4997912859e-001   1.7941068452e-004   1.5287184372e-004   4.8936092716e-005   1.3609778062e-004   9.1307477548e-001  -4.0826761980e-001
  8.0841250000e+008   8.3115587502e-001  -5.5514461251e-001   2.5280290075e-004   2.1610327039e-004  -6.1470601541e-005   1.0983650758e-004   9.1108023351e-001  -4.1256751518e-001
  8.1700000000e+008   8.2786117142e-001  -5.6012110762e-001   2.1369114470e-004   1.4721814803e-004  -1.3248364496e-005   9.5236575341e-005   9.0939611841e-001  -4.1651810137e-001
  8.2558750000e+008   8.2447586000e-001  -5.6535495413e-001   1.6307532478e-004   1.1650692963e-004  -1.1912590111e-005  -4.7132967299e-005   9.0702039847e-001  -4.2060209472e-001
  8.3417500000e+008   8.2081323652e-001  -5.7062044866e-001   4.6493097927e-005   1.0209512455e-004   1.3028154079e-005   6.0277297833e-005   9.0550207128e-001  -4.2471991610e-001
  8.4276250000e+008   8.1773339600e-001  -5.7537219469e-001   1.3532306718e-004   1.5075157330e-004   1.9289452656e-005   7.8490222696e-005   9.0330387645e-001  -4.2908691129e-001
  8.5135000000e+008   8.1370003725e-001  -5.8059913100e-001   5.4640314196e-005   2.5681611087e-004  -6.7360854355e-005   9.1723744943e-005   9.0141498940e-001  -4.3306534279e-001
  8.5993750000e+008   8.1014526107e-001  -5.8576899828e-001   1.2670161006e-004   2.1391313785e-004  -1.0441603901e-004   1.0250599677e-004   8.9929791308e-001  -4.3686953239e-001
  8.6852500000e+008   8.0639320887e-001  -5.9081199219e-001   8.5013601744e-005   1.5722126112e-004   1.8991876130e-005   1.3792689750e-004   8.9760195163e-001  -4.4097550973e-001
  8.7711250000e+008   8.0274619460e-001  -5.9583643873e-001   4.0202329009e-005   1.6677202134e-004  -1.4478552483e-004   5.2863342758e-005   8.9553798097e-001  -4.4547489537e-001
  8.8570000000e+008   7.9902487352e-001  -6.0057210891e-001   9.5999366512e-005   1.9479924739e-005  -6.3586665257e-005   1.2416388048e-004   8.9335284337e-001  -4.4915073212e-001
  8.9428750000e+008   7.9525037586e-001  -6.0569992908e-001  -6.0723844526e-005   1.5449428323e-004  -6.3975791774e-005   1.2262173337e-004   8.9135206406e-001  -4.5329080608e-001
  9.0287500000e+008   7.9137819897e-001  -6.1063401685e-001   7.8655715685e-006   1.1345300720e-004  -1.1433521107e-004   1.0269998015e-004   8.8913985857e-001  -4.5718127641e-001
  9.1146250000e+008   7.8739059495e-001  -6.1558316037e-001   4.8524366479e-005   1.7450951071e-004  -3.5060520171e-005   8.5021297122e-005   8.8733068377e-001  -4.6146080876e-001
  9.2005000000e+008   7.8373498902e-001  -6.2039101214e-001  -5.0913730391e-005   1.6256257804e-004  -8.2135658818e-005   4.6076212314e-005   8.8518712757e-001  -4.6526728788e-001
  9.2863750000e+008   7.7954513040e-001  -6.2529005063e-001  -1.1770995366e-004   5.4401753256e-005   1.5239699381e-005   8.0056796242e-005   8.8306257629e-001  -4.6916269490e-001
  9.3722500000e+008   7.7574623598e-001  -6.3020038748e-001  -1.5744311695e-004   1.6365661369e-004  -1.3910914639e-004   1.5955197603e-004   8.8087720031e-001  -4.7342398388e-001
  9.4581250000e+008   7.7160512184e-001  -6.3499969085e-001  -5.6443912348e-005   1.0213132858e-004   1.2871560463e-005   9.0222683926e-005   8.7853210334e-001  -4.7738521262e-001
  9.5440000000e+008   7.6787078213e-001  -6.3973905742e-001  -1.1863004564e-004   1.4017793314e-004  -5.7522214904e-005   2.9092682013e-005   8.7682923849e-001  -4.8118718201e-001
  9.6298750000e+008   7.6394189489e-001  -6.4433122146e-001  -1.6727990475e-005   6.6192789539e-005  -6.9249974286e-005   2.5990206538e-005   8.7442666023e-001  -4.8503172311e-001
  9.7157500000e+008   7.5988991390e-001  -6.4940999062e-001  -1.8133071322e-004   1.6404584334e-004  -1.4555695777e-004   4.3185228163e-005   8.7206029277e-001  -4.8941283597e-001
  9.8016250000e+008   7.5578512681e-001  -6.5444047261e-001  -1.2708067032e-004   1.1536267403e-004  -1.0146352591e-004  -6.3835204563e-006   8.7003555567e-001  -4.9330443000e-001
  9.8875000000e+008   7.5166163181e-001  -6.5850884525e-001  -1.3441888347e-004   1.0951492997e-004  -9.7617094616e-005   4.9457646665e-005   8.6762056929e-001  -4.9692885503e-001
  9.9733750000e+008   7.4751792714e-001  -6.6316908164e-001  -1.3386364896e-004   1.3869182865e-004  -9.0695307777e-005   1.1397111200e-004   8.6533683562e-001  -5.0095909500e-001
  1.0059250000e+009   7.4328780989e-001  -6.6750396595e-001  -4.6067373422e-005   1.2675517297e-004  -4.4276574652e-006  -4.0924241334e-005   8.6323006475e-001  -5.0454988314e-001
  1.0145125000e+009   7.3927846161e-001  -6.7236822135e-001  -1.6288774410e-004   1.0197578602e-004  -2.3398311262e-004   1.6365501188e-005   8.6068503449e-001  -5.0890033575e-001
  1.0231000000e+009   7.3487938923e-001  -6.7712036337e-001  -2.3667799360e-004   4.2807146883e-005  -1.6985399561e-004  -6.0616139597e-005   8.5867946952e-001  -5.1262271077e-001
  1.0316875000e+009   7.3033613332e-001  -6.8188784645e-001  -2.4369691286e-004   4.3159568970e-005  -1.4881799482e-004  -6.3736919185e-005   8.5626460977e-001  -5.1678257843e-001
  1.0402750000e+009   7.2648845778e-001  -6.8634642877e-001  -7.4888447107e-005   2.1010817843e-005  -1.7661093714e-004  -1.2974135685e-005   8.5359639351e-001  -5.2066173231e-001
  1.0488625000e+009   7.2171705311e-001  -6.9071009490e-001  -2.0342489801e-004  -8.6472285580e-007  -2.6285640548e-005  -1.9950509179e-004   8.5179876916e-001  -5.2443761968e-001
  1.0574500000e+009   7.1756942987e-001  -6.9537644975e-001  -2.1785955365e-004  -8.8367673649e-005  -8.2796328678e-005   2.3103521714e-005   8.4925305927e-001  -5.2849653459e-001
