# Hz S RI R 50.000000
! Metas.Vna.Tools, 2.8.8664.20301
! Metas.Vna.Data, 2.8.8664.20285
! Created: UTC 2024.02.11 10:08:07
! FREQ                re:S1,1             im:S1,1             re:S2,1             im:S2,1             re:S1,2             im:S1,2             re:S2,2             im:S2,2          
  1.3000000000e+008  -9.9011142562e-001   9.6014676721e-002   5.8155576584e-004   3.3908665780e-004  -1.6476560970e-004   7.3929805681e-004  -9.9600468407e-001   7.2697248303e-002
  1.3858750000e+008  -9.9039908671e-001   1.0178068080e-001   5.9259658343e-004   1.0658306251e-004  -3.1179946213e-005   5.9929251310e-004  -9.9571053779e-001   7.7125977641e-002
  1.4717500000e+008  -9.8894412966e-001   1.0814216608e-001   8.5540360775e-004   9.2379444172e-005   2.2048585228e-004   3.5520391557e-004  -9.9587695614e-001   8.1502301888e-002
  1.5576250000e+008  -9.8878682408e-001   1.1428139936e-001   6.3423047614e-004   1.1884155240e-004  -2.0113802116e-004   2.2603863428e-004  -9.9565779710e-001   8.6952829606e-002
  1.6435000000e+008  -9.8775669701e-001   1.2054348682e-001   7.4548393879e-004   3.4645742814e-004  -1.6216322150e-004   4.2447306258e-004  -9.9535971799e-001   9.0467455512e-002
  1.7293750000e+008  -9.8709371737e-001   1.2661388947e-001   6.7850940683e-004   2.9292600218e-004  -1.0826449902e-004   6.8345138319e-004  -9.9432210751e-001   9.5672119279e-002
  1.8152500000e+008  -9.8537401368e-001   1.3246025845e-001  -3.2738094655e-005   2.9707656285e-004   1.1774213147e-004   5.8425110845e-004  -9.9384236228e-001   1.0020090625e-001
  1.9011250000e+008  -9.8561680904e-001   1.3791862413e-001   2.7545409929e-004   2.9554885215e-004   1.2034889056e-004   4.4252356312e-004  -9.9376262106e-001   1.0505562106e-001
  1.9870000000e+008  -9.8455855037e-001   1.4511942937e-001   4.0474486029e-004   1.0409835826e-004   2.0478677076e-004   3.3481002736e-004  -9.9309877206e-001   1.1035758042e-001
  2.0728750000e+008  -9.8318071621e-001   1.5027999391e-001   4.7652883680e-004   1.6838528925e-004  -5.2186191679e-005  -5.9240217569e-005  -9.9199113918e-001   1.1441425083e-001
  2.1587500000e+008  -9.8228475144e-001   1.5689984651e-001   4.6113754403e-004   4.0983883219e-004  -3.6738142168e-004   3.2458954501e-004  -9.9107526452e-001   1.1916812724e-001
  2.2446250000e+008  -9.8140742809e-001   1.6235718235e-001   4.1318520659e-004   3.0350659375e-004  -9.7465251627e-005   1.1221987854e-004  -9.9089562767e-001   1.2386435526e-001
  2.3305000000e+008  -9.8013103460e-001   1.6828809562e-001   2.9923792694e-005   3.7784623551e-004  -1.6644853932e-004  -1.0712257009e-004  -9.9086128524e-001   1.2852774210e-001
  2.4163750000e+008  -9.7868946668e-001   1.7466375447e-001   1.5004816450e-005   1.3368934835e-004  -2.4892351535e-004   6.0416008794e-005  -9.8980684842e-001   1.3334035228e-001
  2.5022500000e+008  -9.7773627312e-001   1.8086260514e-001   9.9469731175e-005   4.3426467665e-004   1.6972246012e-004   1.4455150827e-004  -9.8894329307e-001   1.3771568295e-001
  2.5881250000e+008  -9.7624657923e-001   1.8691485881e-001   1.1036687200e-004   5.7215154316e-004   1.4449181428e-004   1.5709943953e-004  -9.8825288072e-001   1.4240021372e-001
  2.6740000000e+008  -9.7576341737e-001   1.9258483964e-001   6.2847099985e-005   3.2259023707e-004  -1.4058523915e-005   3.6243946206e-004  -9.8743620582e-001   1.4671508461e-001
  2.7598750000e+008  -9.7364867993e-001   1.9910968426e-001   1.1578044669e-004   4.5374936020e-004   8.9629510089e-005   1.4121405928e-004  -9.8724791957e-001   1.5228448434e-001
  2.8457500000e+008  -9.7257618710e-001   2.0493506690e-001  -9.6168555366e-005   5.4378335302e-004  -2.2113930781e-004   2.9124008165e-004  -9.8638533758e-001   1.5596137302e-001
  2.9316250000e+008  -9.7158841779e-001   2.1131118330e-001  -2.0267136611e-004   4.4903186731e-004  -3.0365095732e-004   2.0029615632e-004  -9.8589447243e-001   1.6065120568e-001
  3.0175000000e+008  -9.7008025316e-001   2.1658029438e-001  -6.5418526725e-005   3.3671066977e-004  -1.4416596651e-004   3.3596780375e-004  -9.8475829269e-001   1.6551942613e-001
  3.1033750000e+008  -9.6865745778e-001   2.2271206857e-001  -1.7212857976e-004   4.7030705309e-004  -2.9255190085e-004   1.7763677482e-004  -9.8400750044e-001   1.7002534917e-001
  3.1892500000e+008  -9.6751307530e-001   2.2881267959e-001  -1.9023613917e-004   5.8628118161e-004   1.1025733428e-004   3.5658216758e-005  -9.8289320948e-001   1.7502955553e-001
  3.2751250000e+008  -9.6602515162e-001   2.3433977583e-001  -1.2474442950e-004   3.4760533804e-004  -3.4143440215e-004   2.3731959199e-004  -9.8195820772e-001   1.7951619568e-001
  3.3610000000e+008  -9.6414088678e-001   2.4081535754e-001  -1.6831374626e-004   2.7259065387e-004  -2.0598737686e-004   5.9751358693e-005  -9.8101551998e-001   1.8412965886e-001
  3.4468750000e+008  -9.6266905653e-001   2.4618997604e-001  -1.6886212037e-004   2.1512685507e-004  -3.2405060611e-004   6.1481406515e-005  -9.8046400295e-001   1.8865306763e-001
  3.5327500000e+008  -9.6121163875e-001   2.5196943540e-001  -1.7987427117e-004   3.3686018178e-004  -1.2187465527e-004   2.3043808875e-005  -9.7946049223e-001   1.9328302794e-001
  3.6186250000e+008  -9.5954678113e-001   2.5858316975e-001  -2.2015639743e-004   8.5564752232e-005  -2.5947014194e-004  -6.1112236705e-005  -9.7844692486e-001   1.9738645290e-001
  3.7045000000e+008  -9.5796483632e-001   2.6417732121e-001  -2.1618581245e-004   1.5196850038e-005  -2.1148211495e-004  -3.9451943488e-005  -9.7749596376e-001   2.0220158412e-001
  3.7903750000e+008  -9.5608099984e-001   2.7010743403e-001  -4.4999035103e-004   8.5221045380e-005  -4.1498754174e-004  -1.8956080148e-004  -9.7668187959e-001   2.0737301343e-001
  3.8762500000e+008  -9.5424744068e-001   2.7629390174e-001  -4.9627290465e-004   2.5500315884e-004  -1.6184501384e-004   4.4964318360e-006  -9.7532773266e-001   2.1203309628e-001
  3.9621250000e+008  -9.5271172112e-001   2.8160767013e-001  -2.2928180050e-004   5.9484890474e-005  -1.2038725244e-004  -1.6335386809e-004  -9.7415738736e-001   2.1626558764e-001
  4.0480000000e+008  -9.5102957221e-001   2.8769717508e-001  -2.0690821987e-004   6.6762320319e-005  -1.8838397072e-004  -5.5003304716e-005  -9.7353816214e-001   2.2094303806e-001
  4.1338750000e+008  -9.4949719617e-001   2.9358428954e-001  -3.4581693176e-004   1.4739466250e-004  -2.0166313171e-004  -1.5128344215e-004  -9.7249573747e-001   2.2557691457e-001
  4.2197500000e+008  -9.4703989412e-001   2.9928812506e-001  -2.3718067798e-004  -2.4386396997e-005  -2.2266264716e-004  -2.4702800145e-004  -9.7108006309e-001   2.3054423065e-001
  4.3056250000e+008  -9.4543917189e-001   3.0515629324e-001  -1.3214422877e-004  -3.9520097656e-005  -2.6156232972e-004  -1.0238014583e-004  -9.6994291488e-001   2.3410656845e-001
  4.3915000000e+008  -9.4374858556e-001   3.1108966464e-001  -1.7839450824e-004  -2.2196947538e-005  -3.8079096007e-004   1.7898608566e-005  -9.6893136102e-001   2.3878449638e-001
  4.4773750000e+008  -9.4144344808e-001   3.1686046435e-001  -3.6791150016e-004  -8.1593676979e-006  -1.1810570855e-004  -1.1929957460e-004  -9.6775549172e-001   2.4340925862e-001
  4.5632500000e+008  -9.3996308784e-001   3.2287002888e-001  -3.3076677150e-004  -2.9178391690e-005  -1.8508150803e-005   1.4410618156e-004  -9.6691247431e-001   2.4810076027e-001
  4.6491250000e+008  -9.3769160930e-001   3.2793324099e-001  -2.4744169134e-004   2.8284406748e-005  -1.0030964089e-004  -1.0147423046e-004  -9.6549973732e-001   2.5284896682e-001
  4.7350000000e+008  -9.3543384560e-001   3.3440449996e-001  -2.1214027341e-004  -1.4159118915e-004   9.9563437894e-006  -3.8804796945e-004  -9.6417456245e-001   2.5719426296e-001
  4.8208750000e+008  -9.3322762942e-001   3.4021569029e-001  -5.5832129768e-005  -1.7840219883e-004  -1.7211328369e-004  -4.0043161707e-005  -9.6309228463e-001   2.6192690002e-001
  4.9067500000e+008  -9.3124112387e-001   3.4595844258e-001  -2.5405412703e-004  -2.9510797974e-005   2.1020854425e-004  -1.3746779547e-004  -9.6170498280e-001   2.6647508053e-001
  4.9926250000e+008  -9.2910776007e-001   3.5138666855e-001  -2.0235786668e-004  -2.3102110181e-004   1.2184954197e-004  -3.4809527438e-004  -9.6061524260e-001   2.7102269387e-001
  5.0785000000e+008  -9.2687990385e-001   3.5699193420e-001  -1.9760647652e-004  -9.0448272828e-005   2.8495468661e-005  -2.0785328742e-004  -9.5900493394e-001   2.7540366330e-001
  5.1643750000e+008  -9.2457248670e-001   3.6312882590e-001  -1.2826360432e-004  -1.4524385998e-004   8.5024356958e-006  -2.1776614876e-004  -9.5778402144e-001   2.8004950836e-001
  5.2502500000e+008  -9.2183851986e-001   3.6869310179e-001   2.6189539675e-005  -1.8561836827e-004   9.8049127519e-005  -1.8381059819e-004  -9.5661665149e-001   2.8432660241e-001
  5.3361250000e+008  -9.1975606887e-001   3.7437047600e-001   6.1368821762e-005  -3.2381254339e-004  -4.1639577663e-005  -1.7596419216e-004  -9.5524301941e-001   2.8876437160e-001
  5.4220000000e+008  -9.1774668075e-001   3.7990663060e-001  -5.1849548170e-005  -1.2095851412e-004   2.7594442536e-005   1.8943280461e-005  -9.5390609944e-001   2.9359182864e-001
  5.5078750000e+008  -9.1524062322e-001   3.8577155891e-001  -1.3698291524e-004  -3.5317211936e-004   7.0166763578e-005  -4.5713211669e-005  -9.5247860791e-001   2.9796453672e-001
  5.5937500000e+008  -9.1256279677e-001   3.9102545217e-001   1.2234424932e-004  -1.5671206598e-004   4.3026048148e-005  -1.9305136304e-004  -9.5111896135e-001   3.0223064485e-001
  5.6796250000e+008  -9.1049819947e-001   3.9711518563e-001  -1.0475194676e-004  -8.3835976079e-005   6.8329403829e-005  -1.3828138472e-004  -9.4968870472e-001   3.0660971064e-001
  5.7655000000e+008  -9.0807823961e-001   4.0261052354e-001   9.4241971185e-005  -2.3062588894e-004   5.1439008245e-005  -1.0819668840e-004  -9.4797817366e-001   3.1104652692e-001
  5.8513750000e+008  -9.0523825127e-001   4.0829343044e-001   9.4383423668e-006  -1.3688552923e-004   1.1282557133e-004  -6.4258852339e-006  -9.4639368973e-001   3.1581464116e-001
  5.9372500000e+008  -9.0267154105e-001   4.1401364853e-001   2.9623519767e-005  -5.5104912514e-005   1.5357326253e-004   1.8830470715e-005  -9.4495756597e-001   3.2050854629e-001
  6.0231250000e+008  -9.0008288542e-001   4.1943303172e-001   4.2710961148e-005  -1.5076256475e-004   1.8108977938e-004  -1.2935309201e-004  -9.4325393719e-001   3.2508342509e-001
  6.1090000000e+008  -8.9757089249e-001   4.2471600886e-001  -8.1377853773e-005  -1.3975901669e-004   5.6586667267e-005  -3.6678454556e-005  -9.4185831310e-001   3.2882976527e-001
  6.1948750000e+008  -8.9508900440e-001   4.3059227780e-001   1.8574170514e-004  -1.1775934614e-004   4.8148141951e-005  -1.3329529045e-004  -9.4027139018e-001   3.3358735244e-001
  6.2807500000e+008  -8.9191629154e-001   4.3602346525e-001   2.5097202729e-005  -1.8441015179e-004   1.0502992996e-004  -3.7418644102e-005  -9.3841808473e-001   3.3812218875e-001
  6.3666250000e+008  -8.8937303612e-001   4.4126201863e-001  -4.0833135915e-005  -1.6670868066e-004   1.4659424109e-004  -9.6250749575e-006  -9.3725194461e-001   3.4244776751e-001
  6.4525000000e+008  -8.8664397737e-001   4.4673029204e-001   8.3130867596e-005  -2.4385937903e-004   3.5875792150e-005   5.1261354902e-005  -9.3568240152e-001   3.4685276734e-001
  6.5383750000e+008  -8.8393669077e-001   4.5211568079e-001   7.6291178506e-005  -1.7863013085e-004   1.9913714275e-004  -2.5513878987e-005  -9.3327492132e-001   3.5156360357e-001
  6.6242500000e+008  -8.8085476688e-001   4.5759529384e-001   1.2022500459e-004  -2.7168416638e-004   1.8903665206e-004  -3.5694869355e-005  -9.3187862411e-001   3.5535615597e-001
  6.7101250000e+008  -8.7833252892e-001   4.6337088890e-001   2.2114862832e-004  -9.3832036918e-005   1.7642909625e-004  -6.3305522605e-005  -9.3037602647e-001   3.6011094938e-001
  6.7960000000e+008  -8.7561203542e-001   4.6829643456e-001   2.5185423693e-004  -1.1726426997e-004   3.6595740435e-005   3.3568839308e-006  -9.2889290944e-001   3.6431154554e-001
  6.8818750000e+008  -8.7217028496e-001   4.7388914651e-001   1.2501347115e-004  -7.1638052137e-005   1.0160809832e-004  -3.7405193481e-005  -9.2709708309e-001   3.6862340253e-001
  6.9677500000e+008  -8.6967308870e-001   4.7890546559e-001   2.5713788674e-004  -4.7523341016e-005   1.2659077822e-004   3.4883767927e-005  -9.2523313026e-001   3.7327033489e-001
  7.0536250000e+008  -8.6606993379e-001   4.8471745103e-001   1.5328978505e-004  -2.6661138791e-005   1.4932691138e-004  -5.8624825206e-006  -9.2323061574e-001   3.7724631458e-001
  7.1395000000e+008  -8.6298396500e-001   4.8990910857e-001   1.7787729069e-004   7.8569277003e-006   8.1847377436e-005  -1.2644692098e-005  -9.2160316863e-001   3.8136681044e-001
  7.2253750000e+008  -8.6038256347e-001   4.9486799929e-001   1.5333935333e-004   6.4720484805e-005   6.9917935938e-005  -3.7001694887e-005  -9.1961783975e-001   3.8578214502e-001
  7.3112500000e+008  -8.5754731757e-001   5.0067856539e-001   1.4226336270e-004  -4.1644172803e-006   4.7947236144e-005   1.4814610084e-004  -9.1784771807e-001   3.9029726228e-001
  7.3971250000e+008  -8.5410625138e-001   5.0610022920e-001   1.5758245271e-004  -2.1108997567e-006   1.0687667178e-004  -2.6872574181e-005  -9.1820812718e-001   3.9454435970e-001
  7.4830000000e+008  -8.5101411171e-001   5.1115601245e-001   1.5352370194e-004   8.8433350860e-005   2.0194009629e-005   1.8503928061e-004  -9.1411230176e-001   3.9883381820e-001
  7.5688750000e+008  -8.4818350592e-001   5.1632893195e-001   1.7523323571e-004   1.3694182300e-004   1.7354678983e-005   1.8337230568e-004  -9.1226554284e-001   4.0324669602e-001
  7.6547500000e+008  -8.4328507519e-001   5.2099006994e-001   1.5478005193e-004   1.3245557715e-004   6.2763077219e-005   6.0531854195e-005  -9.1045954482e-001   4.0753356848e-001
  7.7406250000e+008  -8.4157845538e-001   5.2681441244e-001   2.4382916721e-004   4.4425063868e-005   4.5842228683e-005   9.0200278257e-005  -9.0841601675e-001   4.1162124625e-001
  7.8265000000e+008  -8.3749183513e-001   5.3197610148e-001   1.6721252757e-004  -3.4459419147e-005   3.9970005621e-005   7.5807329679e-005  -9.0653454380e-001   4.1627396992e-001
  7.9123750000e+008  -8.3483125745e-001   5.3737760443e-001   3.2375548201e-004  -1.3022491076e-004   6.5079509572e-005   8.5408150901e-005  -9.0440179936e-001   4.1996069382e-001
  7.9982500000e+008  -8.3109076840e-001   5.4249919636e-001   1.7570650542e-004   4.5511906162e-005   3.2549594532e-005   9.7277598352e-005  -9.0230010411e-001   4.2437798734e-001
  8.0841250000e+008  -8.2827474419e-001   5.4715981063e-001   2.0077288995e-004   2.2235860836e-004  -3.9765617293e-005  -4.1025251986e-005  -9.0039510889e-001   4.2864956077e-001
  8.1700000000e+008  -8.2451079756e-001   5.5241816664e-001   1.1549019133e-004   1.5235815320e-004   2.1256483359e-005   1.2565502048e-004  -8.9819040210e-001   4.3251658611e-001
  8.2558750000e+008  -8.2126660761e-001   5.5784304050e-001   6.6718401533e-005   1.0584039821e-004  -1.0977668444e-005   7.8290602664e-005  -8.9627525451e-001   4.3699479911e-001
  8.3417500000e+008  -8.1751544941e-001   5.6240021159e-001   1.4627059882e-005   2.2524546143e-004   3.4211153690e-006   1.8681450717e-005  -8.9423332195e-001   4.4143329594e-001
  8.4276250000e+008  -8.1377127579e-001   5.6770760607e-001   1.5454005758e-004   1.5868284335e-004   2.7448435077e-005   1.2953334052e-005  -8.9201027358e-001   4.4557918064e-001
  8.5135000000e+008  -8.1058460120e-001   5.7297020820e-001   8.6275360134e-005   1.4628901363e-004  -6.1468188611e-005   1.1233633573e-004  -8.9012115273e-001   4.4968662331e-001
  8.5993750000e+008  -8.0702850096e-001   5.7787975421e-001   9.3558102618e-005   1.2682528486e-004   1.9759297094e-005   1.3902682937e-004  -8.8783226904e-001   4.5385389717e-001
  8.6852500000e+008  -8.0335946280e-001   5.8264931484e-001  -4.0449434456e-006   1.9352716963e-004   3.9804578813e-005   3.0410926103e-005  -8.8555475342e-001   4.5788748362e-001
  8.7711250000e+008  -7.9986573207e-001   5.8744270907e-001  -1.4945699626e-005   1.4598213590e-004  -6.1430102887e-005   1.6044483910e-004  -8.8337825840e-001   4.6221143012e-001
  8.8570000000e+008  -7.9623149684e-001   5.9279553527e-001  -1.4010701542e-005   2.0620570641e-004  -2.7172696695e-005  -3.3223403662e-005  -8.8119243040e-001   4.6625726662e-001
  8.9428750000e+008  -7.9241748053e-001   5.9725715123e-001  -4.0886384489e-005   1.3019894128e-004  -1.1333408727e-004  -2.7020222765e-005  -8.7902440539e-001   4.7070840712e-001
  9.0287500000e+008  -7.8861628205e-001   6.0211537214e-001  -6.9558113408e-005   2.4417215016e-004  -8.1642797170e-005   1.1632181938e-004  -8.7687700931e-001   4.7452519814e-001
  9.1146250000e+008  -7.8521302976e-001   6.0693822957e-001   4.0343464412e-005   1.8155898534e-004  -4.9325748784e-005   9.0752961589e-005  -8.7494739300e-001   4.7877962573e-001
  9.2005000000e+008  -7.8128294986e-001   6.1165314139e-001  -7.2760384881e-005   1.4384900966e-004  -1.1255872032e-004  -2.1162687712e-005  -8.7247876785e-001   4.8253234129e-001
  9.2863750000e+008  -7.7727069703e-001   6.1684805129e-001  -5.0746656379e-006   1.1619827694e-004  -3.3742524675e-005   5.2159243369e-005  -8.7014746630e-001   4.8663553229e-001
  9.3722500000e+008  -7.7368725946e-001   6.2156941993e-001  -4.1155433139e-005   1.2410231347e-004  -1.5320327899e-004   9.3907098770e-005  -8.6799410410e-001   4.9073104190e-001
  9.4581250000e+008  -7.6983341578e-001   6.2614871337e-001  -1.0916285302e-004   1.4008216207e-004   3.5478248269e-006   1.2066854967e-004  -8.6533750611e-001   4.9520782768e-001
  9.5440000000e+008  -7.6593940493e-001   6.3062841345e-001  -6.4678743920e-005   1.5560873109e-004  -1.2197099313e-004   9.2096283511e-005  -8.6307889479e-001   4.9911239203e-001
  9.6298750000e+008  -7.6171082547e-001   6.3601316015e-001  -9.7491220930e-005   5.9678198165e-005  -5.9894884318e-005   1.0209655265e-004  -8.6068021243e-001   5.0301506172e-001
  9.7157500000e+008  -7.5791699840e-001   6.4076088789e-001  -7.9994684427e-005   1.5127251008e-004  -1.6758565892e-004  -4.6498827660e-005  -8.5830582997e-001   5.0693138217e-001
  9.8016250000e+008  -7.5384639535e-001   6.4507667304e-001  -9.9504328290e-005   1.1968616143e-004  -3.2121445224e-005  -2.2653946972e-005  -8.5610058487e-001   5.1107593135e-001
  9.8875000000e+008  -7.5007036695e-001   6.4992155979e-001  -6.3929665950e-005   4.2600721557e-005  -6.4848868880e-005   6.3679013517e-005  -8.5380041744e-001   5.1513317404e-001
  9.9733750000e+008  -7.4597161600e-001   6.5434503834e-001  -1.8032700267e-004   9.5581738995e-005  -1.3861627250e-004  -6.2273391309e-005  -8.5087332301e-001   5.1949460208e-001
  1.0059250000e+009  -7.4187236709e-001   6.5881382763e-001  -1.4016636772e-004   5.1304378975e-005  -1.1222344410e-004  -1.2453897639e-005  -8.4891349440e-001   5.2285328981e-001
  1.0145125000e+009  -7.3777310439e-001   6.6321689797e-001  -1.3838748861e-004   1.0073462351e-004  -1.3014458833e-004   4.1285751596e-005  -8.4614496747e-001   5.2724527789e-001
  1.0231000000e+009  -7.3353692998e-001   6.6821631081e-001  -1.7331952419e-004   5.7716661648e-005  -9.1968532323e-005  -1.2047470596e-005  -8.4391347074e-001   5.3095091818e-001
  1.0316875000e+009  -7.2930028027e-001   6.7250043331e-001  -2.8931429530e-004   6.4758328542e-005  -9.4649090047e-005   7.2775571232e-005  -8.4123312741e-001   5.3495745203e-001
  1.0402750000e+009  -7.2510273605e-001   6.7717898390e-001  -2.2451900876e-004  -3.1514877854e-005  -2.9534880254e-005   1.1011397402e-005  -8.3828533271e-001   5.3864605263e-001
  1.0488625000e+009  -7.2094484804e-001   6.8115361448e-001  -2.0651435913e-004  -4.1209740418e-005  -1.6238877375e-004  -2.3553682886e-005  -8.3610220444e-001   5.4252164357e-001
  1.0574500000e+009  -7.1743694207e-001   6.8575497578e-001  -1.8423203088e-004   1.0838122661e-005  -1.2414649832e-004  -2.0931231401e-005  -8.3348269914e-001   5.4661174393e-001
