# Hz S RI R 50.000000
! Metas.Vna.Tools, 2.8.8664.20301
! Metas.Vna.Data, 2.8.8664.20285
! Created: UTC 2024.02.11 10:08:07
! FREQ                re:S1,1             im:S1,1             re:S2,1             im:S2,1             re:S1,2             im:S1,2             re:S2,2             im:S2,2          
  1.3000000000e+008   4.3382499901e-019  -1.7346051985e-018   1.0000000000e+000  -5.5969439568e-018   1.0000000000e+000   3.5940649809e-017  -3.4693828651e-018   8.6735051244e-019
  1.3858750000e+008  -8.6740195020e-019  -1.1460164235e-022   1.0000000000e+000   1.0950949621e-017   1.0000000000e+000   7.4133165778e-018   9.2636313403e-024   8.6737159228e-019
  1.4717500000e+008  -1.7351900630e-018   1.7348879004e-018   1.0000000000e+000  -4.2006920346e-017   1.0000000000e+000  -5.7600066313e-019  -1.2804270093e-022  -3.4695569356e-018
  1.5576250000e+008  -7.4399191218e-023  -8.6755238496e-019   1.0000000000e+000  -1.6537717338e-018   1.0000000000e+000   4.7705414101e-018   1.7345617114e-018  -1.7349229506e-018
  1.6435000000e+008   1.7348520454e-018  -4.3416233140e-019   1.0000000000e+000  -1.1927834654e-018   1.0000000000e+000   7.3447005670e-018   0.0000000000e+000   0.0000000000e+000
  1.7293750000e+008   3.4683475309e-018  -2.6029973648e-018   1.0000000000e+000   1.4852431819e-017   1.0000000000e+000  -4.0987758377e-018   1.0839737753e-019   2.8805387773e-024
  1.8152500000e+008   3.6080667963e-022   1.7342266377e-018   1.0000000000e+000  -1.9564244257e-017   1.0000000000e+000  -5.8264762709e-018  -1.7340848741e-018  -1.7347009988e-018
  1.9011250000e+008   1.7341065129e-018  -1.7340424934e-018   1.0000000000e+000   2.3098414281e-017   1.0000000000e+000  -2.7701151629e-017   3.4672927071e-018   6.9399040587e-018
  1.9870000000e+008   5.1486437167e-019   1.3326530694e-022   1.0000000000e+000  -2.5418041086e-017   1.0000000000e+000   1.0247730672e-017  -1.7350655106e-018  -4.0055634841e-022
  2.0728750000e+008  -1.7340683308e-018  -1.7352898822e-018   1.0000000000e+000  -1.8918844006e-017   1.0000000000e+000  -3.6630903670e-017  -1.7352568462e-018  -1.7353247006e-018
  2.1587500000e+008   3.4695578485e-018   2.6034132599e-018   1.0000000000e+000  -7.3469696100e-018   1.0000000000e+000   2.4590689719e-017  -3.4699649370e-018   1.7359474248e-018
  2.2446250000e+008   3.4704602179e-018  -4.3378687090e-019   1.0000000000e+000  -1.3937751163e-018   1.0000000000e+000  -8.2345725631e-017  -3.4692701744e-018   6.5159685104e-019
  2.3305000000e+008  -1.7351844455e-018  -8.6721041267e-019   1.0000000000e+000  -7.4741913376e-017   1.0000000000e+000  -7.3544140721e-017   3.4691023327e-018   2.6006801342e-018
  2.4163750000e+008  -1.7342417027e-018   1.7350557134e-018   1.0000000000e+000  -3.2605974934e-017   1.0000000000e+000  -3.3219545798e-017   6.9368198862e-018  -3.4677218190e-018
  2.5022500000e+008   2.1679541745e-019  -2.6305268449e-023   1.0000000000e+000   1.9660634420e-017   1.0000000000e+000  -2.3577084431e-017  -3.4699393783e-018   3.4676854658e-018
  2.5881250000e+008  -1.7344044327e-018   1.7342230130e-018   1.0000000000e+000  -8.3775482408e-017   1.0000000000e+000  -3.2530060577e-017   1.3378527505e-021  -3.4698731282e-018
  2.6740000000e+008  -1.7350638512e-018   3.4686582094e-018   1.0000000000e+000  -4.2630169265e-017   1.0000000000e+000   3.5792280530e-018   1.7365091686e-018  -6.9412517261e-018
  2.7598750000e+008   1.7350257128e-018  -1.7343948387e-018   1.0000000000e+000   9.1533071893e-017   1.0000000000e+000   4.6775495665e-018   8.6734401668e-019  -3.4709711903e-018
  2.8457500000e+008  -3.4696441712e-018   3.7908683171e-019   1.0000000000e+000  -1.9421630051e-017   1.0000000000e+000   2.6406117313e-017  -5.1388266352e-020   6.9404390094e-018
  2.9316250000e+008   6.9389839921e-018   6.4702223859e-022   1.0000000000e+000   2.7118958922e-017   1.0000000000e+000   9.2690088752e-018  -8.6437754170e-019   6.9385677417e-018
  3.0175000000e+008  -6.9393082779e-018   3.4685021608e-018   1.0000000000e+000  -1.4772155782e-017   1.0000000000e+000   0.0000000000e+000   8.0120133914e-022   3.4683516783e-018
  3.1033750000e+008  -1.7355232758e-018   3.4693153305e-018   1.0000000000e+000   3.2528077263e-018   1.0000000000e+000   5.5345097195e-018   1.7341915400e-018   7.1053388955e-023
  3.1892500000e+008   1.7358101802e-018  -3.4698336346e-018   1.0000000000e+000   8.1332601087e-020   1.0000000000e+000  -2.4364205739e-017   1.7344929558e-018   3.0915798900e-022
  3.2751250000e+008   2.1673968917e-019   3.4707060212e-018   1.0000000000e+000   1.5523225013e-018   1.0000000000e+000   2.3041176430e-018  -3.4694412211e-018  -1.7354428021e-018
  3.3610000000e+008   2.6037440591e-018   3.4702216977e-018   1.0000000000e+000  -3.4165087375e-018   1.0000000000e+000   2.3965317024e-017  -1.7349842436e-018  -1.0294261954e-023
  3.4468750000e+008  -5.2077418582e-018  -6.9379930724e-018   1.0000000000e+000  -4.1640189949e-017   1.0000000000e+000   1.6264998570e-019  -3.4702867659e-018  -2.6018392320e-018
  3.5327500000e+008  -6.4571579394e-022  -1.7344808569e-018   1.0000000000e+000  -4.3145211314e-017   1.0000000000e+000  -9.1204071117e-017  -3.4700230808e-018  -3.4685332954e-018
  3.6186250000e+008   1.7339760034e-018  -1.0840920913e-018   1.0000000000e+000  -4.0860591114e-017   1.0000000000e+000  -6.7344266000e-017  -3.4690183508e-018  -1.3003377431e-018
  3.7045000000e+008  -3.4686004974e-018   8.6664324339e-019   1.0000000000e+000  -2.7666557321e-017   1.0000000000e+000  -2.0660047795e-017  -1.7343636132e-018  -4.3363326664e-019
  3.7903750000e+008   4.3366301482e-019   1.2624917683e-022   1.0000000000e+000   1.3020732020e-016   1.0000000000e+000  -5.1764853438e-017  -1.7346193457e-018   7.5865026100e-019
  3.8762500000e+008  -4.3410308402e-019   1.7350496953e-018   1.0000000000e+000  -1.4558823903e-017   1.0000000000e+000   2.5397088364e-017  -1.7345428898e-018  -1.2470336621e-018
  3.9621250000e+008   8.6753325160e-019  -8.6769675142e-019   1.0000000000e+000   6.3417234017e-017   1.0000000000e+000  -2.4395904066e-019   8.6737484625e-019   4.6087754688e-019
  4.0480000000e+008   1.7346256685e-018  -8.6800042119e-019   1.0000000000e+000   1.6118311847e-016   1.0000000000e+000  -3.4714164426e-017  -8.6743911804e-019   3.2526364026e-019
  4.1338750000e+008   1.7346801210e-018   1.0834661032e-018   1.0000000000e+000  -8.2111176400e-017   1.0000000000e+000  -1.5323222508e-017   2.6307702404e-024  -4.3371606635e-019
  4.2197500000e+008   1.7339556081e-018  -3.4681372260e-018   1.0000000000e+000   6.1853285776e-017   1.0000000000e+000   3.0177725629e-017  -4.3371264645e-019   4.3373601299e-019
  4.3056250000e+008   1.7337079661e-018   1.7348379993e-018   1.0000000000e+000   3.8533377834e-017   1.0000000000e+000   1.8542117667e-017   1.4583992697e-022   1.7349349864e-018
  4.3915000000e+008  -3.1197172664e-021   6.9395139034e-018   1.0000000000e+000  -7.2648036177e-018   1.0000000000e+000  -3.8003959670e-017   1.7350278153e-018   8.6705816916e-019
  4.4773750000e+008  -2.1619822479e-019  -3.4709872812e-018   1.0000000000e+000  -3.0072452407e-017   1.0000000000e+000   1.4039388818e-017  -8.6729815092e-019   2.3260576469e-022
  4.5632500000e+008  -1.7352018076e-018   1.7358541465e-018   1.0000000000e+000   4.6099961891e-019   1.0000000000e+000   2.6555049997e-018   8.6710367337e-019  -1.9761087745e-022
  4.6491250000e+008   0.0000000000e+000   0.0000000000e+000   1.0000000000e+000  -3.9579284325e-018   1.0000000000e+000  -9.5911032008e-018   4.3964958358e-023  -1.7339847595e-018
  4.7350000000e+008   3.4685333668e-018  -1.3473859094e-021   1.0000000000e+000  -2.1678333542e-019   1.0000000000e+000   1.4198137895e-017   1.7335005026e-018   1.7347469221e-018
  4.8208750000e+008   3.4680530253e-018  -1.7339280607e-018   1.0000000000e+000   1.8728628373e-018   1.0000000000e+000   2.0058348324e-017   1.0407724470e-017   1.7403678165e-018
  4.9067500000e+008   6.1216750017e-022  -1.7345215134e-018   1.0000000000e+000   1.3008911351e-018   1.0000000000e+000   1.1281130822e-017   6.9420243422e-018   6.5307457317e-019
  4.9926250000e+008   8.6714996435e-019   2.6030917877e-018   1.0000000000e+000   3.0367488646e-017   1.0000000000e+000   2.9156806563e-017   3.6046847486e-022   1.7358470884e-018
  5.0785000000e+008  -2.7075323231e-022  -8.1340936767e-019   1.0000000000e+000  -1.3502595503e-017   1.0000000000e+000   1.1614202639e-016   3.7126102458e-021   5.2052448803e-018
  5.1643750000e+008  -8.6756939543e-019  -8.6674623582e-019   1.0000000000e+000  -3.9726667428e-017   1.0000000000e+000   4.9631471677e-017  -3.4631918694e-018   6.9376567601e-018
  5.2502500000e+008   5.4181950943e-020   1.6694161933e-024   1.0000000000e+000  -5.5651636362e-017   1.0000000000e+000  -5.1390941367e-017  -3.4666880079e-018  -1.2235558528e-022
  5.3361250000e+008  -8.6790790373e-019   1.7341149753e-018   1.0000000000e+000   5.3388697332e-017   1.0000000000e+000   4.9095726509e-017   2.5989525200e-018   3.4697399708e-018
  5.4220000000e+008   0.0000000000e+000   0.0000000000e+000   1.0000000000e+000   9.8139003740e-018   1.0000000000e+000  -4.0125571224e-017  -1.0026194553e-021   1.7351598367e-018
  5.5078750000e+008  -4.3368376807e-019   4.3376766556e-019   1.0000000000e+000   5.6655421759e-018   1.0000000000e+000  -1.5362009889e-017   5.2065417451e-018   5.9625383788e-022
  5.5937500000e+008  -2.2977210101e-023  -4.3363812758e-019   1.0000000000e+000  -1.9371428231e-017   1.0000000000e+000   1.5752099368e-017  -3.4704941155e-018  -6.4987800499e-019
  5.6796250000e+008  -6.3641129930e-023   5.4204006407e-019   1.0000000000e+000   9.9328841740e-018   1.0000000000e+000  -4.5372060885e-017  -1.7345457997e-018   4.3409909570e-019
  5.7655000000e+008  -2.6024309543e-018   8.6691860484e-019   1.0000000000e+000  -8.3760354486e-018   1.0000000000e+000  -5.3130181808e-017  -2.6015196902e-018   1.7345874966e-018
  5.8513750000e+008   1.7351902440e-018  -1.7350017352e-018   1.0000000000e+000  -5.3428756585e-017   1.0000000000e+000   1.5963229189e-017   8.6746482046e-019  -1.7344481248e-018
  5.9372500000e+008   1.6810613244e-018   1.7347626663e-018   1.0000000000e+000  -6.1078039110e-017   1.0000000000e+000  -5.1719609394e-017   6.5011568833e-019   3.4697428497e-018
  6.0231250000e+008   1.7354459235e-018   3.4689846115e-018   1.0000000000e+000  -5.0929209564e-017   1.0000000000e+000   5.3342205777e-018   8.6750446621e-019   2.3337670493e-024
  6.1090000000e+008  -1.7345674379e-018  -1.7342089454e-018   1.0000000000e+000   4.1042670566e-017   1.0000000000e+000   6.2076999576e-018  -1.7351521047e-018  -1.7346539852e-018
  6.1948750000e+008   0.0000000000e+000   0.0000000000e+000   1.0000000000e+000  -7.3983414363e-018   1.0000000000e+000  -7.5891025918e-019   1.6288379225e-022   8.6732601049e-019
  6.2807500000e+008   3.4692340832e-018   8.6803000365e-019   1.0000000000e+000  -7.0472265579e-019   1.0000000000e+000  -1.0420141827e-017  -1.7345986802e-018  -1.7342651789e-018
  6.3666250000e+008   2.9110834222e-022  -2.6024814894e-018   1.0000000000e+000  -3.7952855054e-018   1.0000000000e+000  -1.3441697714e-017  -3.1833217853e-023   4.3360315205e-019
  6.4525000000e+008   0.0000000000e+000   0.0000000000e+000   1.0000000000e+000   1.8163641729e-017   1.0000000000e+000  -3.4150200963e-018   1.7346522721e-018  -2.1651555429e-019
  6.5383750000e+008  -3.5419026147e-022  -1.7347514585e-018   1.0000000000e+000  -3.8218743070e-018   1.0000000000e+000   8.8505453752e-017  -1.6484043936e-022   1.0842934610e-018
  6.6242500000e+008   1.7346589114e-018   1.7341940778e-018   1.0000000000e+000   2.9674953306e-017   1.0000000000e+000  -7.9339394593e-017  -1.7350410780e-018  -4.3378219675e-019
  6.7101250000e+008  -1.7343290075e-018  -1.2972303618e-022   1.0000000000e+000  -4.9265783370e-017   1.0000000000e+000   2.1090430627e-017   6.9397818000e-018  -1.0971710682e-021
  6.7960000000e+008   1.7346100494e-018   4.1646239287e-022   1.0000000000e+000   3.2713661400e-017   1.0000000000e+000   1.2955633481e-017   2.1035781975e-022   8.6732274352e-019
  6.8818750000e+008   1.7356163758e-018  -2.6021909564e-018   1.0000000000e+000   7.8321106822e-017   1.0000000000e+000   5.0458314969e-017   0.0000000000e+000   0.0000000000e+000
  6.9677500000e+008  -3.4705062800e-018   1.7353763447e-018   1.0000000000e+000   1.9715060257e-017   1.0000000000e+000   6.6387642051e-017   8.6710389618e-019   3.8574927900e-023
  7.0536250000e+008   4.3356755122e-018  -6.9417269552e-018   1.0000000000e+000   1.4151953951e-017   1.0000000000e+000   1.7398121348e-017  -8.6806672387e-019   3.4685666576e-018
  7.1395000000e+008  -1.2995559591e-018   3.4697014163e-018   1.0000000000e+000   5.0303128604e-017   1.0000000000e+000   1.6480349631e-017   1.0864282711e-018  -6.9387516529e-018
  7.2253750000e+008   8.6874417582e-019   6.9362014286e-018   1.0000000000e+000   4.6441452647e-017   1.0000000000e+000   4.4978569278e-017   8.6831403792e-019  -3.4701339208e-018
  7.3112500000e+008   3.4677422191e-018   3.4682589884e-018   1.0000000000e+000  -2.1038300537e-017   1.0000000000e+000  -2.6855781648e-017  -1.3014412106e-018   1.3296186205e-023
  7.3971250000e+008   0.0000000000e+000   0.0000000000e+000   1.0000000000e+000   2.1570826847e-017   1.0000000000e+000  -3.0147029080e-017   0.0000000000e+000   0.0000000000e+000
  7.4830000000e+008   3.0014623260e-022  -9.4874988030e-019   1.0000000000e+000  -2.4504854051e-017   1.0000000000e+000  -3.2091281998e-017   1.7346638918e-018  -5.3864121816e-022
  7.5688750000e+008   8.6769109086e-019  -1.7351174906e-018   1.0000000000e+000   3.5991230380e-018   1.0000000000e+000   2.5878630637e-017  -3.4688842360e-018  -1.7336051445e-018
  7.6547500000e+008  -2.1686958741e-019   4.7690537961e-023   1.0000000000e+000  -4.9798679010e-017   1.0000000000e+000   4.0981917128e-018  -3.6534196636e-023   8.6705543675e-019
  7.7406250000e+008   3.4684023690e-018  -8.6823211394e-019   1.0000000000e+000  -6.8831392718e-018   1.0000000000e+000   9.2133647610e-019  -2.6747836575e-022   8.6714021280e-019
  7.8265000000e+008   1.7338451612e-018   6.5013582124e-019   1.0000000000e+000   3.3457437346e-018   1.0000000000e+000   1.4094898323e-018   3.4694095691e-018   2.1850641608e-019
  7.9123750000e+008  -7.5958222445e-022   1.7338653320e-018   1.0000000000e+000   1.8422319153e-018   1.0000000000e+000  -4.9564107054e-017   6.9401902558e-018   2.3887930878e-018
  7.9982500000e+008  -2.6074144592e-021   3.4691493456e-018   1.0000000000e+000  -3.4691493456e-018   1.0000000000e+000   3.2124304860e-017   1.3885640323e-017   8.6925096144e-019
  8.0841250000e+008  -6.5324185508e-019   3.4705324261e-018   1.0000000000e+000   1.1280712105e-017   1.0000000000e+000   5.9012444305e-017   3.4707924542e-018  -1.7367157247e-018
  8.1700000000e+008  -3.4730872686e-018   3.4714000735e-018   1.0000000000e+000   4.8150254032e-017   1.0000000000e+000   6.9836346969e-017  -6.9383201978e-018   3.4740048140e-018
  8.2558750000e+008  -6.9456036803e-018  -5.2058610630e-018   1.0000000000e+000   5.3707497414e-018   1.0000000000e+000   1.0991335760e-016   3.4629574345e-018  -1.0407901247e-017
  8.3417500000e+008   2.1314392133e-021   3.4705576064e-018   1.0000000000e+000   2.4836177871e-017   1.0000000000e+000   9.0381428292e-017  -6.9357450967e-018   1.4512831500e-021
  8.4276250000e+008   1.7357071639e-018   2.1671428456e-018   1.0000000000e+000   2.7535060320e-017   1.0000000000e+000   7.0145058610e-017  -3.0364120794e-018   1.3871444936e-017
  8.5135000000e+008  -2.3563248592e-022  -8.6706735247e-019   1.0000000000e+000  -4.3624326171e-017   1.0000000000e+000  -2.3903295871e-017   6.9316384481e-018   2.0815847437e-017
  8.5993750000e+008   0.0000000000e+000   0.0000000000e+000   1.0000000000e+000  -8.1227480476e-017   1.0000000000e+000   5.5382242943e-017   3.4706868316e-018  -3.4690362195e-018
  8.6852500000e+008  -2.5168386913e-022   1.7344339606e-018   1.0000000000e+000   5.2195622002e-017   1.0000000000e+000   3.1083643129e-017   3.4703064287e-018   1.6043812691e-022
  8.7711250000e+008  -6.5025308348e-019  -1.7348039962e-018   1.0000000000e+000  -2.3716682051e-017   1.0000000000e+000  -7.2520297608e-017   0.0000000000e+000   0.0000000000e+000
  8.8570000000e+008   0.0000000000e+000   0.0000000000e+000   1.0000000000e+000  -2.7554199111e-017   1.0000000000e+000   6.2026261796e-017  -1.3879564187e-017   2.6048389097e-018
  8.9428750000e+008  -4.4627771778e-025  -3.7950024958e-019   1.0000000000e+000   1.0028357627e-016   1.0000000000e+000   2.8623249400e-017   1.1307704363e-021   4.3368559697e-018
  9.0287500000e+008   6.5052512664e-019  -4.3372981634e-019   1.0000000000e+000  -2.4653003307e-017   1.0000000000e+000  -1.4201568326e-017  -6.9381707852e-018   2.0524094834e-021
  9.1146250000e+008   2.1682655346e-019  -2.1685109608e-019   1.0000000000e+000  -3.1014728155e-017   1.0000000000e+000  -3.0784059105e-017   1.0404278507e-017  -6.9396536958e-018
  9.2005000000e+008  -1.0841723176e-019   4.4660127116e-024   1.0000000000e+000   6.7482950692e-017   1.0000000000e+000  -6.3671804006e-019   3.4679196200e-018  -3.4682428590e-018
  9.2863750000e+008   3.3846460186e-021  -2.1683178858e-019   1.0000000000e+000   4.3200335450e-017   1.0000000000e+000  -2.7638078932e-018  -5.2030790031e-018   3.4673823146e-018
  9.3722500000e+008  -6.7757756013e-020   4.3366725712e-019   1.0000000000e+000  -6.4414771428e-018   1.0000000000e+000   5.3658861543e-018  -4.3360696197e-019  -1.7309066919e-022
  9.4581250000e+008  -3.3879857673e-020  -2.1683551603e-019   1.0000000000e+000   3.2440610247e-018   1.0000000000e+000   7.5361327972e-018   1.2968600547e-018   1.0410165122e-017
  9.5440000000e+008  -2.7106994512e-020   2.1683620529e-019   1.0000000000e+000   3.5947427532e-018   1.0000000000e+000  -9.7339351825e-018  -1.7345527438e-018  -3.4709677206e-018
  9.6298750000e+008  -2.7105717461e-020   5.4209349124e-020   1.0000000000e+000  -5.1499277970e-019   1.0000000000e+000  -1.0493343399e-017  -3.4709059557e-018  -6.9412133985e-018
  9.7157500000e+008   1.0842092355e-019   5.4212231977e-020   1.0000000000e+000   2.2919316474e-017   1.0000000000e+000  -3.7844569593e-017  -3.4699891890e-018   8.6762183439e-022
  9.8016250000e+008  -8.0084271719e-025  -1.0842352661e-019   1.0000000000e+000  -1.7011481913e-017   1.0000000000e+000   1.2304925754e-017  -3.4692301684e-018   8.5548061443e-022
  9.8875000000e+008   1.0184107723e-023   2.1684659868e-019   1.0000000000e+000   2.6279097178e-017   1.0000000000e+000   2.1943221334e-017  -6.9373688949e-018  -1.7339758708e-018
  9.9733750000e+008  -2.1676737348e-019   8.6738129656e-019   1.0000000000e+000   5.6947799029e-017   1.0000000000e+000  -9.4930702927e-017   6.9374275561e-018   8.6822502281e-019
  1.0059250000e+009   9.5025173049e-020   1.7346349402e-018   1.0000000000e+000   1.3214462191e-016   1.0000000000e+000  -7.8983359439e-017   6.9390524368e-018  -8.6554468970e-019
  1.0145125000e+009  -1.0842761068e-018  -2.6017756197e-018   1.0000000000e+000  -7.5711056837e-017   1.0000000000e+000   4.1152996289e-017  -8.9624094446e-022   5.2051220603e-018
  1.0231000000e+009   1.7345267501e-018  -5.7502221463e-023   1.0000000000e+000   6.0295131050e-017   1.0000000000e+000  -2.1452094102e-017  -1.7351611806e-018   1.7351301875e-018
  1.0316875000e+009   0.0000000000e+000   0.0000000000e+000   1.0000000000e+000  -8.1704868636e-017   1.0000000000e+000  -3.0064306809e-017   2.6027663431e-018   1.7346023486e-018
  1.0402750000e+009  -5.2036047959e-018  -2.6016912117e-018   1.0000000000e+000  -1.1364494436e-016   1.0000000000e+000  -5.9360940719e-018   1.3017178781e-018   3.4692518436e-018
  1.0488625000e+009   3.1931439813e-023   1.7344392491e-018   1.0000000000e+000  -1.3496105407e-017   1.0000000000e+000  -5.7797416334e-017   3.7925044109e-019  -1.7346423578e-018
  1.0574500000e+009   5.7993465437e-023  -1.7343177804e-018   1.0000000000e+000   8.5205135643e-017   1.0000000000e+000  -1.1464580798e-017  -1.7346036642e-018  -1.7345839058e-018
