# Hz S RI R 50.000000
! Metas.Vna.Tools, 2.8.8664.20301
! Metas.Vna.Data, 2.8.8664.20285
! Created: UTC 2024.02.11 10:08:28
! FREQ                re:S1,1             im:S1,1             re:S2,1             im:S2,1             re:S1,2             im:S1,2             re:S2,2             im:S2,2          
  1.3000000000e+008   1.3961617452e-004  -1.3866517776e-003   9.9069468705e-001  -7.1216184212e-003   1.0008343329e+000   2.2115152782e-004   9.1374290162e-004   8.3884449367e-004
  1.3858750000e+008  -2.6291458865e-004  -1.1547944400e-003   9.9145809937e-001  -6.6143898034e-003   1.0002778084e+000   5.1268331411e-004   1.0381387923e-003   3.8556563340e-004
  1.4717500000e+008  -2.0395473512e-003  -6.3791837862e-004   9.9342718745e-001  -7.7096984361e-003   1.0006298749e+000   1.1395145668e-004   4.7241707163e-004  -4.0187321202e-004
  1.5576250000e+008  -8.3427355556e-004  -2.8923856456e-004   9.9145541462e-001  -6.8446443503e-003   1.0002904661e+000  -1.9611232171e-004   1.2197222401e-003  -7.9885743463e-004
  1.6435000000e+008  -9.9372988037e-004   4.6126366946e-004   9.9258746880e-001  -5.4028345244e-003   1.0005904042e+000  -4.9416969166e-004   6.8240612138e-004  -1.5270789847e-005
  1.7293750000e+008  -8.6409555329e-004   9.8245379104e-004   9.9311337369e-001  -6.7717175619e-003   1.0009808641e+000  -3.1576650639e-004   1.0411512012e-003  -8.2344228563e-004
  1.8152500000e+008  -3.4334464365e-004   3.6189615314e-004   9.9043219256e-001  -8.0705308892e-003   1.0001263243e+000  -1.1586041803e-003   7.0201396387e-004  -8.1093007404e-004
  1.9011250000e+008  -3.8243073737e-004   8.1852873718e-004   9.9247262773e-001  -8.2924002585e-003   1.0007924246e+000  -5.9607522510e-004   5.4296171269e-004  -8.6168349104e-004
  1.9870000000e+008   1.1891659918e-004   8.4311948326e-004   9.9224570632e-001  -6.6285534469e-003   1.0008786070e+000  -8.2034001187e-004   4.9678930098e-004  -1.5135821742e-004
  2.0728750000e+008   3.7137719773e-004   1.7386151701e-004   9.8916449808e-001  -7.8543739377e-003   1.0011390763e+000  -7.7665532856e-004   3.0324815276e-004  -5.0355237162e-004
  2.1587500000e+008   9.5234071921e-005  -5.2515416962e-004   9.9343827056e-001  -7.0807582821e-003   9.9986022248e-001  -6.7402357556e-004  -4.9386847627e-004  -2.4759488376e-004
  2.2446250000e+008   4.8832815298e-004  -5.4309562975e-004   9.9091945770e-001  -7.1490576184e-003   1.0008298425e+000  -4.7779030398e-004  -4.1536801671e-004   3.2587227630e-005
  2.3305000000e+008   2.2478641181e-005   1.8393656268e-004   9.9136423381e-001  -6.9582169348e-003   1.0007745152e+000  -4.0205863309e-004  -4.0802294179e-004  -1.5093956337e-004
  2.4163750000e+008  -2.3707194823e-004  -5.1382507410e-004   9.9247057580e-001  -8.2682490709e-003   9.9998603017e-001  -1.4966645074e-003  -8.3870284533e-004   2.6368922265e-004
  2.5022500000e+008  -3.5985034437e-004  -8.2400466763e-004   9.9364575606e-001  -6.7614651800e-003   1.0009326722e+000  -1.0147451986e-003  -7.7739068876e-004   6.5170540697e-004
  2.5881250000e+008  -5.8757541626e-004  -5.3503331018e-004   9.9370416439e-001  -6.5628122791e-003   1.0005709658e+000  -8.8484925878e-004  -8.2263954385e-004   8.0667251594e-004
  2.6740000000e+008  -7.9350077194e-004  -4.3577827562e-004   9.9367643275e-001  -7.2668210742e-003   1.0007397674e+000  -2.0245743838e-003  -3.7659282433e-004   6.9312303920e-004
  2.7598750000e+008  -3.4291348264e-004  -1.5352103882e-004   9.9219166374e-001  -7.4118827782e-003   1.0006944442e+000  -1.3647383621e-003  -5.6677016013e-004   7.4353263929e-004
  2.8457500000e+008  -7.3126185071e-004  -4.0100021749e-004   9.9326840867e-001  -6.5688371608e-003   1.0009501068e+000  -1.3405256942e-003  -5.6392868807e-004   9.1226553515e-004
  2.9316250000e+008  -5.8167696827e-004  -6.1076188690e-004   9.9214071177e-001  -7.4798025777e-003   1.0015006248e+000  -1.3498679528e-003   1.0908048032e-005   7.5171191017e-004
  3.0175000000e+008  -9.9314721210e-004   3.8868134005e-004   9.9324792772e-001  -8.9018619991e-003   1.0007957850e+000  -1.0851476464e-003  -4.9751632199e-004   5.0501566327e-004
  3.1033750000e+008  -7.6260223806e-004   2.7780848366e-004   9.9411987358e-001  -6.2575679100e-003   1.0013674092e+000  -1.0777666213e-003  -9.4178821306e-004   6.5278598761e-004
  3.1892500000e+008  -7.3980007970e-004   1.5897388712e-004   9.9467253084e-001  -7.0350307305e-003   1.0003934719e+000  -3.9498732277e-005  -6.4060768232e-004   5.1406494339e-004
  3.2751250000e+008  -5.7360496500e-004   4.5027185229e-005   9.9416054112e-001  -6.6750680491e-003   1.0009720154e+000  -1.7849956929e-003  -8.8344672060e-004   4.9563387174e-004
  3.3610000000e+008  -9.7101982744e-004   9.1149121562e-005   9.9402082022e-001  -6.1757127419e-003   1.0009856256e+000  -1.6033653637e-003  -7.1099221236e-004   3.2489748429e-004
  3.4468750000e+008  -5.9968828938e-004   3.0098737478e-004   9.9398992258e-001  -5.3191888057e-003   1.0013311023e+000  -2.0021142762e-003  -5.2041771280e-004   2.4133027493e-004
  3.5327500000e+008  -6.3383873002e-004   2.0028980846e-004   9.9461245107e-001  -6.8429425854e-003   9.9949077288e-001  -1.9907442408e-003  -4.5695996641e-004   2.8172628109e-004
  3.6186250000e+008  -5.6694781383e-004   2.1720882652e-004   9.9481707281e-001  -6.8315487666e-003   1.0007516079e+000  -1.3436735718e-003  -4.3330144827e-004   4.1516100492e-004
  3.7045000000e+008  -6.7550968486e-004   5.6645098283e-004   9.9249479190e-001  -7.6644828083e-003   1.0012666330e+000  -1.3108620871e-003  -5.2992110744e-004   1.6079557641e-004
  3.7903750000e+008  -3.9439752634e-004   6.4293045583e-004   9.9422966332e-001  -7.1590272391e-003   1.0010842898e+000  -1.6211415928e-003  -3.5772718294e-004   3.1911159721e-005
  3.8762500000e+008  -4.3609442103e-004   4.7444521909e-004   9.9538811078e-001  -6.2781790157e-003   1.0002674000e+000  -1.0974298067e-003  -6.1248155215e-004   3.2936661672e-004
  3.9621250000e+008  -8.3216705930e-005   3.3746659912e-004   9.9524148995e-001  -7.0833258965e-003   1.0005530576e+000  -1.6926400447e-003  -3.8030684090e-004   3.4859592110e-004
  4.0480000000e+008   2.2139088704e-004   3.0640044193e-004   9.9479769831e-001  -7.6079809605e-003   1.0006485404e+000  -1.2946776560e-003  -2.0283544502e-004   1.6399502687e-004
  4.1338750000e+008   1.5730043600e-004   2.7778026998e-004   9.9502274840e-001  -6.1213384108e-003   1.0008399398e+000  -1.2747330659e-003   1.6398267911e-004   4.2211992060e-004
  4.2197500000e+008   9.6150524917e-006  -3.1008666142e-004   9.9218817335e-001  -7.4785186174e-003   1.0006914503e+000  -1.4193152739e-003   9.5932828826e-005   6.4066260576e-004
  4.3056250000e+008   2.0854944671e-004  -2.2054002484e-004   9.9267634894e-001  -7.8444113834e-003   1.0009329723e+000  -1.7264167094e-003   2.7642968645e-004   3.6949623310e-004
  4.3915000000e+008   8.0449556890e-005  -4.2386013215e-004   9.9314239114e-001  -6.3116871602e-003   1.0004217996e+000  -1.8256567669e-003   6.1759950807e-004   2.3998410753e-004
  4.4773750000e+008   2.4894738567e-004  -3.0205653837e-004   9.9395856137e-001  -6.8103482655e-003   1.0006371187e+000  -1.8215726848e-003   5.8473864162e-004   1.9035762855e-004
  4.5632500000e+008  -1.0029830996e-004  -4.2865847379e-004   9.9246825770e-001  -7.3144825200e-003   1.0007383114e+000  -1.6878786948e-003   5.8609331961e-004   6.4433205643e-005
  4.6491250000e+008  -2.8784232197e-004  -3.2631500681e-004   9.9287478456e-001  -7.7605356680e-003   1.0002351519e+000  -1.6990550284e-003   2.1976091303e-004   1.1254704319e-004
  4.7350000000e+008  -4.2712672521e-004  -1.2644268312e-004   9.9276268943e-001  -7.6103895845e-003   1.0002066544e+000  -1.6354541768e-003   5.3199226250e-004   1.0028273181e-004
  4.8208750000e+008  -2.7476280135e-004  -5.1937974308e-005   9.9020679268e-001  -7.5835941852e-003   9.9967966653e-001  -1.4790914385e-003   6.4317251172e-004   2.4105449577e-004
  4.9067500000e+008  -1.5744173916e-005  -2.9121098050e-004   9.9159769507e-001  -7.5988159480e-003   1.0000396472e+000  -1.5217823307e-003   4.5722414422e-004   2.9435374819e-004
  4.9926250000e+008  -8.6924072928e-005  -4.4123793855e-004   9.8947680586e-001  -8.1312655970e-003   1.0001390724e+000  -1.4900685902e-003   4.6152907737e-004   2.0792153444e-004
  5.0785000000e+008  -4.8524073543e-004  -2.2201536268e-004   9.8966604095e-001  -8.1123427253e-003   9.9975582472e-001  -1.4372988058e-003   6.0567796117e-004   3.2860992212e-004
  5.1643750000e+008  -4.9396260243e-004  -2.8093159284e-006   9.9035039995e-001  -7.4947816724e-003   1.0007816241e+000  -1.5768221703e-003   6.7695786181e-004   7.7723865264e-005
  5.2502500000e+008  -3.2727487226e-004   6.0519536857e-004   9.9091581513e-001  -7.6872060726e-003   1.0007558039e+000  -1.0680627971e-003   2.8530400166e-004  -3.0567500253e-004
  5.3361250000e+008   4.0092134898e-004   6.5727918711e-004   9.9334414125e-001  -7.5828047083e-003   1.0005884696e+000  -1.6145046523e-003   6.6749193470e-005  -4.5881110153e-004
  5.4220000000e+008   7.6877795682e-004   7.8395190105e-005   9.9178927359e-001  -8.3285605665e-003   1.0011079320e+000  -1.5008277494e-003  -6.7935661356e-004  -3.0903060621e-004
  5.5078750000e+008   6.2100962431e-004  -6.5570039851e-004   9.9332181996e-001  -8.7185770186e-003   1.0006695727e+000  -2.3287993901e-003  -8.4078340994e-004  -3.1067114006e-004
  5.5937500000e+008   5.4402246817e-004  -6.2824543150e-004   9.9084475351e-001  -7.2119851194e-003   1.0005229133e+000  -2.7269584190e-003  -8.9867498511e-004  -1.8185112393e-005
  5.6796250000e+008   4.5734659648e-004  -7.4896978329e-004   9.9183537685e-001  -8.4373384163e-003   1.0007517424e+000  -1.2410523729e-003  -8.6263654362e-004   3.3860449219e-004
  5.7655000000e+008  -2.6815365285e-004  -1.0754754409e-003   9.9123313039e-001  -1.0152655843e-002   1.0005325429e+000  -2.5858954738e-003  -8.0391699557e-004   6.1842723873e-004
  5.8513750000e+008  -2.8428250369e-004  -9.3781417352e-004   9.8977422195e-001  -1.0142278393e-002   9.9981586511e-001  -2.3258635082e-003  -6.6560095964e-004   8.8403558374e-004
  5.9372500000e+008  -7.0100939241e-004  -8.4860752743e-004   9.8955274521e-001  -8.2026836058e-003   9.9982639762e-001  -2.4201279968e-003  -4.5970131653e-004   8.0241630594e-004
  6.0231250000e+008  -8.6266394105e-004  -5.8048453132e-004   9.9038047006e-001  -8.3575163510e-003   9.9989531386e-001  -2.5667047097e-003  -5.2685284042e-004   9.1155458162e-004
  6.1090000000e+008  -8.1220872796e-004  -4.5405366645e-004   9.9097912752e-001  -9.0932881732e-003   1.0000430502e+000  -1.9712983039e-003  -6.9426670338e-004   8.3855346690e-004
  6.1948750000e+008  -1.0054920299e-003  -8.3281458103e-005   9.8860618838e-001  -8.6373199210e-003   9.9973228331e-001  -2.2454009092e-003  -4.6098332018e-004   6.7333766194e-004
  6.2807500000e+008  -8.3407699962e-004   4.3262268305e-005   9.9026339191e-001  -9.4356962456e-003   1.0005295256e+000  -2.2044041685e-003  -7.9853295275e-005   4.1580899200e-004
  6.3666250000e+008  -4.4720314350e-004   4.4301998320e-004   9.9442821299e-001  -8.4879293974e-003   1.0004731303e+000  -2.2259693889e-003   4.8176184196e-005   3.1312786501e-004
  6.4525000000e+008  -1.6798969572e-005   4.1413313059e-004   9.9258642832e-001  -8.7206626391e-003   1.0000462062e+000  -2.0821164561e-003   2.3876378262e-004   1.0488407915e-004
  6.5383750000e+008   5.2220314645e-005   3.3862479543e-004   9.9031905067e-001  -8.5202309909e-003   9.9996069963e-001  -1.4095174251e-003   1.0492138254e-004  -6.1998858154e-005
  6.6242500000e+008   3.1537676965e-004   3.1738216764e-004   9.9039615956e-001  -8.4692625436e-003   1.0006115390e+000  -2.8381784220e-003   1.9184133354e-004  -4.1287636313e-004
  6.7101250000e+008   5.0971640680e-004  -1.6378168550e-004   9.9182634152e-001  -7.6172517426e-003   1.0000148841e+000  -1.6205631330e-003   9.3632252947e-005  -5.6084519302e-004
  6.7960000000e+008   8.7533494132e-004  -4.8232314949e-004   9.9092801727e-001  -9.8018886843e-003   1.0002588567e+000  -1.7866375046e-003   1.8642490499e-004  -9.4197839440e-004
  6.8818750000e+008   3.5517768070e-004  -7.2029926637e-004   9.9009045376e-001  -8.0606967120e-003   1.0005899871e+000  -2.8195730323e-003   1.0563802164e-004  -9.8515524695e-004
  6.9677500000e+008   2.1913422051e-004  -1.0499037340e-003   9.9188892590e-001  -7.3603805816e-003   1.0000385649e+000  -2.5783686185e-003  -1.3144827038e-004  -1.1209843108e-003
  7.0536250000e+008  -1.6671001841e-004  -1.0822366063e-003   9.9086874663e-001  -9.9443235231e-003   1.0004859915e+000  -2.3946991414e-003  -3.6862940269e-004  -1.3260674652e-003
  7.1395000000e+008  -5.0243027526e-004  -1.0734358340e-003   9.9230806682e-001  -7.7997421557e-003   9.9986947542e-001  -2.3416199109e-003  -4.8023114754e-004  -1.3252123536e-003
  7.2253750000e+008  -9.6284317175e-004  -9.5948585806e-004   9.9094524740e-001  -8.0988546421e-003   9.9988911735e-001  -2.4965197241e-003  -7.8948708048e-004  -1.2330362074e-003
  7.3112500000e+008  -1.0895103962e-003  -6.1521098064e-004   9.8995489925e-001  -9.5072035488e-003   9.9979697451e-001  -1.8818846115e-003  -7.3184862660e-004  -1.0163246326e-003
  7.3971250000e+008  -1.1244624825e-003  -1.1567074177e-004   9.8962421187e-001  -1.0035150349e-002   9.9951646464e-001  -3.4482760343e-003  -9.7688596457e-004  -6.1047572267e-004
  7.4830000000e+008  -1.0410123713e-003   4.3172584379e-004   9.9035416239e-001  -7.6852958416e-003   9.9933281088e-001  -2.3919958014e-003  -1.0014763267e-003  -8.0003514507e-004
  7.5688750000e+008  -8.9758590685e-004   7.1970286669e-004   9.9003796591e-001  -8.5633734395e-003   9.9960118317e-001  -2.7581238216e-003  -1.1467826512e-003  -4.1715089939e-004
  7.6547500000e+008  -2.2180625854e-004   8.2803395364e-004   9.9068417042e-001  -9.5294736518e-003   9.9968772439e-001  -2.8599368127e-003  -1.1769137085e-003  -2.3649075471e-004
  7.7406250000e+008  -1.1234200365e-005   8.5649879944e-004   9.8908395857e-001  -1.0241793823e-002   1.0002320727e+000  -2.9566593996e-003  -8.0711906776e-004   5.8671380425e-005
  7.8265000000e+008   4.0815077602e-004   6.2140656470e-004   9.8883726337e-001  -8.8918023335e-003   9.9952877406e-001  -2.2498397319e-003  -6.5284306604e-004   5.1956044578e-004
  7.9123750000e+008   5.5319222067e-004   3.4052612062e-004   9.9067469641e-001  -7.3267669716e-003   9.9914857275e-001  -2.2149989297e-003  -6.3054585131e-004   4.7770378632e-004
  7.9982500000e+008   6.3823420797e-004   3.4804252461e-004   9.9001414203e-001  -8.9412388564e-003   1.0007864677e+000  -1.8492087836e-003  -5.0381911802e-004   6.2234849767e-004
  8.0841250000e+008   9.7277294372e-004   6.3630103654e-005   9.8918474736e-001  -1.0057876308e-002   9.9981021490e-001  -1.8221575522e-003  -4.2764618338e-004   6.8450708047e-004
  8.1700000000e+008   1.1740903388e-003  -1.8440477476e-004   9.9044253213e-001  -8.2671537015e-003   9.9997194053e-001  -2.3602198378e-003  -5.1313274388e-004   7.3432008088e-004
  8.2558750000e+008   1.1335811931e-003  -5.9592093269e-004   9.8961943676e-001  -7.9786619844e-003   1.0009749439e+000  -3.3116015061e-003  -5.3975889078e-004   1.0213986784e-003
  8.3417500000e+008   1.0484909781e-003  -9.9040943279e-004   9.9061543640e-001  -9.8557598290e-003   1.0014139054e+000  -2.5101968748e-003  -3.2609696081e-004   1.3115941628e-003
  8.4276250000e+008   5.4713250981e-004  -1.2824831857e-003   9.8784395505e-001  -8.7104322596e-003   9.9987339474e-001  -1.9389786276e-003  -2.9927214995e-004   1.2356480769e-003
  8.5135000000e+008   1.5916098614e-004  -1.2923273007e-003   9.8952654927e-001  -1.0143778154e-002   1.0011971557e+000  -2.3904883319e-003   1.0704162437e-004   1.4139733850e-003
  8.5993750000e+008  -1.9212317877e-004  -1.3749536512e-003   9.9037044359e-001  -9.8313796365e-003   9.9972884602e-001  -3.5015406583e-003   2.5301667444e-004   1.2191950781e-003
  8.6852500000e+008  -5.1261393940e-004  -9.9657342235e-004   9.8771212685e-001  -1.0047491646e-002   9.9988408134e-001  -2.4940558779e-003   6.5056379080e-004   9.4516920129e-004
  8.7711250000e+008  -5.1318328137e-004  -8.0421789681e-004   9.8742752845e-001  -9.3494951465e-003   1.0003386161e+000  -2.9185276364e-003   5.0710475873e-004   5.3334357822e-004
  8.8570000000e+008  -4.6738665643e-004  -4.1208863733e-004   9.9014722710e-001  -9.2335308824e-003   9.9934102583e-001  -2.8425350055e-003   5.7855793069e-004   2.1553493207e-004
  8.9428750000e+008  -2.6261475752e-004  -1.9276198249e-004   9.8764846691e-001  -1.0852746266e-002   1.0001242354e+000  -3.5952899621e-003   1.7855999441e-004  -6.2835854794e-005
  9.0287500000e+008   4.1396878762e-005  -1.5077270938e-004   9.9180100808e-001  -9.9486138134e-003   1.0001416104e+000  -3.0921305991e-003   1.6500880501e-004  -3.8449822505e-004
  9.1146250000e+008   1.5538890540e-004  -2.2120366285e-004   9.8884419305e-001  -9.5050178522e-003   9.9885298289e-001  -3.0701969254e-003  -1.6158931070e-004  -3.1651736719e-004
  9.2005000000e+008   2.0597955571e-004  -2.9381956693e-004   9.9058715813e-001  -8.5376153949e-003   9.9895268245e-001  -2.3676877658e-003  -4.5756872736e-004  -6.9362953389e-004
  9.2863750000e+008   4.7971945778e-004  -5.2660757162e-004   9.8897524724e-001  -9.7520378077e-003   9.9888068873e-001  -4.0059878740e-003  -7.3431622874e-004  -5.8885275480e-004
  9.3722500000e+008   4.3150388577e-004  -7.0107551816e-004   9.8908056114e-001  -9.9165375964e-003   9.9882961618e-001  -3.1352887555e-003  -1.1087526332e-003  -7.5191430352e-004
  9.4581250000e+008   4.3736172709e-004  -1.0718143735e-003   9.8981635898e-001  -8.6539045908e-003   9.9959840742e-001  -2.5124055280e-003  -1.2914868603e-003  -5.2074258892e-004
  9.5440000000e+008   7.9561353838e-005  -1.3275234423e-003   9.8881527391e-001  -1.0588695704e-002   9.9996250375e-001  -3.2126825926e-003  -1.3660719089e-003  -4.5482284107e-004
  9.6298750000e+008  -3.0137456092e-004  -1.3929051326e-003   9.8946896789e-001  -8.3223855757e-003   9.9994891849e-001  -3.1021216584e-003  -1.5552535211e-003  -1.7325649971e-004
  9.7157500000e+008  -5.4920102496e-004  -1.3917104731e-003   9.9132409432e-001  -9.3276148303e-003   1.0005703278e+000  -3.0014485237e-003  -1.4133209309e-003  -2.5551222687e-004
  9.8016250000e+008  -8.7001997604e-004  -1.1030795185e-003   9.9063307614e-001  -9.1502116696e-003   9.9952763552e-001  -3.9619096269e-003  -1.4520093424e-003  -8.8461585261e-005
  9.8875000000e+008  -9.8849740983e-004  -6.8545135509e-004   9.9040296699e-001  -8.7166741281e-003   9.9945891006e-001  -2.4126219658e-003  -1.4069210942e-003   8.6827673260e-005
  9.9733750000e+008  -1.1264803504e-003  -4.5644643151e-004   9.8867670635e-001  -9.3021652210e-003   9.9994859044e-001  -2.8270725232e-003  -1.3009860224e-003   8.3252235481e-005
  1.0059250000e+009  -1.1260476335e-003   3.8316475000e-005   9.9124613692e-001  -8.1302104368e-003   1.0001095777e+000  -3.1976901504e-003  -1.0026955961e-003   1.7284420238e-004
  1.0145125000e+009  -9.8152714036e-004   3.7531193571e-004   9.8989171431e-001  -1.0960235069e-002   9.9969433570e-001  -2.9788165549e-003  -7.0979535968e-004   2.6542638318e-004
  1.0231000000e+009  -6.4056704136e-004   4.4009922082e-004   9.8942228903e-001  -7.8306933456e-003   9.9929742501e-001  -3.6159747734e-003  -3.6662448764e-004   2.8833540264e-004
  1.0316875000e+009  -3.4585348865e-004   7.8532376974e-004   9.9054615112e-001  -1.0161444572e-002   9.9919832122e-001  -3.7240019420e-003  -9.5791581490e-005   2.1099000676e-004
  1.0402750000e+009   2.0625483894e-004   8.5589997020e-004   9.8615949881e-001  -1.1102028811e-002   9.9994095203e-001  -2.5992521805e-003   2.2691948323e-004   1.9408346915e-005
  1.0488625000e+009   4.8030308725e-004   6.3590719695e-004   9.8857491065e-001  -9.9315012082e-003   9.9955727258e-001  -3.1494752830e-003   5.6843038615e-004  -1.1061483628e-004
  1.0574500000e+009   7.1317021206e-004   2.6589629813e-004   9.8813010868e-001  -1.0024848537e-002   1.0002643734e+000  -3.0465039725e-003   8.4391592502e-004  -3.1210511853e-004
