# Hz S RI R 50.000000
! Metas.Vna.Tools, 2.8.8664.20301
! Metas.Vna.Data, 2.8.8664.20285
! Created: UTC 2024.02.11 10:08:47
! FREQ                re:S1,1             im:S1,1             re:S2,1             im:S2,1             re:S1,2             im:S1,2             re:S2,2             im:S2,2          
  1.3000000000e+008   4.4996064195e-004  -1.5906490960e-003   9.9109833123e-001  -6.8510911878e-003   1.0009758223e+000   1.8672220523e-004   9.6127984369e-004   8.0398289337e-004
  1.3858750000e+008  -1.0453680363e-003  -1.0454024159e-003   9.9032232589e-001  -6.4480564231e-003   1.0004520339e+000   6.3347323229e-004   9.5405479529e-004  -3.8530482176e-004
  1.4717500000e+008  -1.5632366969e-003  -1.0049588745e-003   9.8987206932e-001  -7.6171760209e-003   1.0003893710e+000   4.4949407542e-004   6.3489233862e-004  -6.8975965171e-004
  1.5576250000e+008  -1.4241659599e-003  -3.3840554449e-004   9.9240633680e-001  -5.9277749091e-003   1.0003409020e+000   2.9019536069e-004   1.1715017639e-003  -9.5915259375e-004
  1.6435000000e+008  -8.0239766083e-004   7.5812270676e-004   9.9112839806e-001  -5.8182617403e-003   1.0003424409e+000   2.4372344276e-004   1.2692626945e-003  -7.9895017999e-004
  1.7293750000e+008  -8.3278559370e-004   1.1430311470e-003   9.9269528295e-001  -6.0178254199e-003   1.0003915391e+000   3.5247159656e-004   1.1892246929e-003  -8.4970485303e-004
  1.8152500000e+008  -4.3060517877e-004   1.7489127887e-004   9.8917521280e-001  -7.5128897110e-003   1.0001611495e+000  -3.6244060820e-004   6.4755899334e-004  -1.1329091742e-003
  1.9011250000e+008  -4.6709151971e-004   4.8519309127e-004   9.9397650911e-001  -6.8743254417e-003   1.0004361044e+000  -2.5238791502e-004   5.8430959107e-004  -1.0976510024e-003
  1.9870000000e+008  -3.7094528363e-004   5.4109551617e-004   9.9221526947e-001  -7.2967676419e-003   1.0004982381e+000   3.5261293297e-005   4.6023479063e-004  -3.6932914089e-004
  2.0728750000e+008   4.3083321625e-004   3.8633055433e-005   9.9050201299e-001  -6.4043525257e-003   1.0009335261e+000  -9.0394604008e-004   1.4709444113e-004  -4.2964207963e-004
  2.1587500000e+008   2.7497885872e-004  -3.4210356791e-004   9.9227965113e-001  -7.2330425103e-003   9.9997240699e-001   3.0315110584e-004  -7.4459868294e-004   3.4378556304e-004
  2.2446250000e+008   4.2165095790e-004  -3.1313435991e-004   9.9294886643e-001  -5.4710758988e-003   9.9990386115e-001  -2.2048204826e-004  -2.3433773459e-004   1.1494616075e-004
  2.3305000000e+008   2.3507216392e-005  -2.4575182362e-004   9.9241970471e-001  -5.7261192428e-003   1.0004879320e+000  -4.9002502394e-004  -2.9120996632e-004   3.3852492847e-004
  2.4163750000e+008  -2.9511019767e-004  -5.6644332134e-004   9.9027921931e-001  -8.5939982105e-003   9.9979548827e-001  -7.1911807784e-004  -3.9903020972e-004   2.4065411065e-004
  2.5022500000e+008  -3.4880412109e-004  -8.7108146658e-004   9.8943794035e-001  -7.9715086845e-003   1.0004206152e+000  -5.2059158605e-004  -1.0091022891e-003   5.6472963801e-004
  2.5881250000e+008  -7.7162598775e-004  -5.4594922449e-004   9.8884350398e-001  -8.4634995308e-003   1.0003100566e+000  -9.7606565301e-004  -5.1808314414e-004   8.8399504096e-004
  2.6740000000e+008  -7.4176155222e-004  -4.8834241645e-004   9.8959201860e-001  -8.6197827839e-003   1.0007722326e+000  -1.1771792429e-003  -4.1393801971e-004   4.9287500849e-004
  2.7598750000e+008  -3.2324602442e-004  -2.9568791345e-004   9.8717407496e-001  -8.5150666694e-003   1.0004093614e+000   2.4236829083e-004  -4.0499178188e-004   6.0221683829e-004
  2.8457500000e+008  -5.2875992642e-004  -8.4602167158e-005   9.9005233141e-001  -6.1970743953e-003   1.0003048272e+000  -2.5626224012e-004  -1.8290885085e-004   6.4803069025e-004
  2.9316250000e+008  -5.3455439171e-004  -5.5133595892e-004   9.8866157490e-001  -8.1291789229e-003   1.0006734652e+000  -9.9781430502e-004  -2.8285639828e-004   4.7926973170e-004
  3.0175000000e+008  -8.3897098091e-004   3.6264405924e-004   9.8939657845e-001  -9.0838519989e-003   1.0002025884e+000   3.1480108990e-004  -3.9048518959e-004   6.2462484117e-004
  3.1033750000e+008  -8.9813716581e-004   3.3336964546e-005   9.8956181878e-001  -5.9986514456e-003   1.0007932934e+000  -1.0364464619e-003  -7.3594258140e-004   5.5795133849e-004
  3.1892500000e+008  -6.7324568626e-004   8.9766542420e-005   9.8874802433e-001  -8.6467808080e-003   1.0003126125e+000   5.1499956794e-004  -5.1292307305e-004   1.2744818592e-004
  3.2751250000e+008  -8.5294495141e-004  -1.3056069523e-004   9.8827477600e-001  -8.7725445695e-003   1.0002970753e+000  -1.3099911599e-003  -7.0494755615e-004   2.1511501685e-004
  3.3610000000e+008  -6.2759223735e-004   1.5935205019e-004   9.8982479309e-001  -6.7785111041e-003   1.0011848189e+000  -9.7306073483e-004  -6.8660154680e-004   7.1626067839e-005
  3.4468750000e+008  -8.5272479259e-004  -2.0751886244e-005   9.8871383759e-001  -8.1744111968e-003   1.0005388330e+000  -1.3088686998e-003  -7.3687231800e-004   2.5868480894e-005
  3.5327500000e+008  -3.7343223793e-004   4.8022382389e-004   9.8994193571e-001  -1.0355156457e-002   9.9934405099e-001  -1.3373453981e-003  -6.9328659811e-004  -1.6048081917e-004
  3.6186250000e+008  -6.2972046572e-004   3.4411742067e-004   9.8949375711e-001  -8.7777553013e-003   9.9971660926e-001  -1.0165456915e-003  -7.0024756770e-004   4.0945918985e-005
  3.7045000000e+008  -7.9255401905e-004   4.2426969158e-004   9.8869853382e-001  -8.8572491660e-003   1.0009991629e+000  -2.3206095941e-003  -7.9288406281e-004   6.1700074288e-005
  3.7903750000e+008  -2.4786487104e-004   4.7080960449e-004   9.8750012238e-001  -7.2108882255e-003   1.0007013834e+000  -6.2312784281e-004  -5.9473679994e-004   1.8649271530e-004
  3.8762500000e+008  -2.5081623313e-004   5.1294278637e-004   9.9110079725e-001  -7.6235282212e-003   9.9991283870e-001  -3.0046998670e-004  -4.1032118669e-004   4.3139368176e-004
  3.9621250000e+008  -8.7938965699e-005   3.1196893453e-004   9.8982019414e-001  -7.4934422745e-003   1.0006796995e+000  -9.7134666995e-004  -5.0301126530e-004   4.0416989386e-004
  4.0480000000e+008   3.3120340529e-004   2.7566755392e-004   9.9031455733e-001  -8.6361049788e-003   1.0005771067e+000  -8.0910838495e-004  -2.1075557946e-004   4.9220861815e-004
  4.1338750000e+008   3.7522225621e-004   1.3385168660e-004   9.8926072839e-001  -6.9964711449e-003   1.0008431293e+000  -9.9301946786e-004   5.2770483327e-005   3.6920423078e-004
  4.2197500000e+008   1.5879376256e-004  -3.7160891376e-004   9.8956576611e-001  -8.1479375269e-003   1.0007498233e+000  -1.1082249062e-003   4.6596485499e-005   5.5746407109e-004
  4.3056250000e+008   3.4327046399e-004   5.8998194176e-005   9.9132314478e-001  -8.1915110960e-003   1.0006749938e+000  -1.0754972909e-003   4.1392523729e-004   3.8766046144e-004
  4.3915000000e+008   1.6390468675e-004  -3.0155456781e-004   9.9310469093e-001  -6.4081597323e-003   1.0005404232e+000  -1.5420079830e-003   6.6593905281e-004   2.0923612539e-004
  4.4773750000e+008   1.9659239748e-004  -2.1756228271e-004   9.9409477510e-001  -8.2447950338e-003   1.0003751083e+000  -1.4944219022e-003   6.1079048949e-004   2.5156194512e-004
  4.5632500000e+008  -8.8727768692e-005  -2.8905324507e-004   9.9189150972e-001  -6.5630978878e-003   1.0004614671e+000  -1.2610287595e-003   7.3914194988e-004   3.9353305033e-004
  4.6491250000e+008  -3.5867866134e-004  -4.1038943882e-004   9.9191857965e-001  -8.2108361200e-003   1.0002305371e+000  -1.3622678279e-003   6.8539087590e-004   2.0254167034e-004
  4.7350000000e+008  -6.6879609108e-004  -3.4602507189e-004   9.9090348064e-001  -7.6257148145e-003   1.0002991011e+000  -1.1172162284e-003   6.3451185843e-004   1.4933147295e-004
  4.8208750000e+008  -4.4210510939e-004   4.1161940034e-005   9.8990859635e-001  -8.0339193584e-003   9.9976924105e-001  -1.1680554425e-003   6.0110101961e-004   1.5455928841e-004
  4.9067500000e+008  -1.0565584681e-004  -2.4890473507e-004   9.9061157839e-001  -7.9143389376e-003   1.0001353405e+000  -1.3096749732e-003   4.9647877640e-004   1.0609000316e-004
  4.9926250000e+008  -1.2001054057e-004  -2.0384557819e-004   9.9123058883e-001  -7.2199122653e-003   1.0001589238e+000  -1.4009804626e-003   7.0570185822e-004  -1.6411457242e-004
  5.0785000000e+008  -3.4917864615e-004  -9.9263882772e-005   9.9040212044e-001  -7.8491092445e-003   9.9996089599e-001  -7.7976937586e-004   5.4025894317e-004   1.8869731124e-004
  5.1643750000e+008  -4.1304581620e-004   1.5092878256e-004   9.9043919218e-001  -6.3703002184e-003   1.0000358522e+000  -1.3666998750e-003   8.1405506212e-004  -2.6226643953e-004
  5.2502500000e+008  -1.4328154520e-004   4.3677222879e-004   9.9127463721e-001  -5.7098392395e-003   1.0006585481e+000  -7.6322900160e-004   3.4812249827e-004  -6.8265506291e-004
  5.3361250000e+008   3.5285970745e-004   2.1766672949e-004   9.9085699145e-001  -8.2865318487e-003   1.0006701688e+000  -1.3339910990e-003  -2.9139601953e-005  -6.9183836451e-004
  5.4220000000e+008   7.0721017238e-004  -3.5499132512e-005   9.9110127341e-001  -8.1551147292e-003   1.0004955544e+000  -1.7759080516e-003  -9.9690285414e-004  -2.7706840520e-004
  5.5078750000e+008   7.1152932279e-004  -6.9112526750e-004   9.9111046555e-001  -8.4174825366e-003   1.0003432193e+000  -1.4453670030e-003  -8.6708840902e-004  -3.2553169139e-004
  5.5937500000e+008   3.0231404966e-004  -5.5184009356e-004   9.8992370382e-001  -8.4517681150e-003   1.0004511366e+000  -1.2160624192e-003  -1.0375334961e-003  -4.6672938989e-005
  5.6796250000e+008   2.9153125712e-004  -7.0030923837e-004   9.9084254771e-001  -7.8564122459e-003   1.0001264531e+000  -1.5003842240e-003  -1.1771826604e-003   5.6041184310e-004
  5.7655000000e+008  -9.6846654684e-005  -1.0879296239e-003   9.9150814279e-001  -9.3175041704e-003   1.0008187283e+000  -2.0321134536e-003  -9.0628962117e-004   5.9807272971e-004
  5.8513750000e+008  -3.9480885446e-004  -8.8907501276e-004   9.9045688193e-001  -8.9669742605e-003   9.9926204738e-001  -1.0076797050e-003  -9.5070978722e-004   8.0617655522e-004
  5.9372500000e+008  -6.1348338241e-004  -8.1871059417e-004   9.9118203820e-001  -8.8083017099e-003   9.9975676274e-001  -1.6916589541e-003  -5.6837874540e-004   9.2257463447e-004
  6.0231250000e+008  -1.2085439821e-003  -6.0774466055e-004   9.9221665948e-001  -7.6465360605e-003   9.9936382645e-001  -1.7025229461e-003  -3.8853763406e-004   1.0480065724e-003
  6.1090000000e+008  -8.9838402653e-004  -3.5556982800e-004   9.9106279872e-001  -7.9230838678e-003   9.9979458789e-001  -1.4512777633e-003  -5.2977893802e-004   1.0236299208e-003
  6.1948750000e+008  -1.0159566701e-003  -4.1287689900e-007   9.9008080285e-001  -7.1938737470e-003   9.9971087394e-001  -1.5680480132e-003  -3.3996863374e-004   7.8803816838e-004
  6.2807500000e+008  -8.2686604856e-004   5.1719039448e-005   9.9074471619e-001  -8.5419833554e-003   9.9991547816e-001  -1.9168732646e-003  -3.1790951829e-005   5.8943689143e-004
  6.3666250000e+008  -4.0847842687e-004   5.8788952552e-004   9.9370729055e-001  -7.6313039177e-003   1.0000727915e+000  -1.5917904450e-003   1.3678673937e-004   3.4703709309e-004
  6.4525000000e+008  -3.8431107616e-005   4.7004190658e-004   9.9274025221e-001  -6.6778789781e-003   1.0004443793e+000  -2.0530596943e-003   2.9429627183e-004   5.0209369356e-005
  6.5383750000e+008   2.4798775329e-004   3.5155679844e-004   9.9145070118e-001  -6.3015861590e-003   9.9958166729e-001  -1.2888631793e-003   4.5499036781e-004  -1.1853275091e-004
  6.6242500000e+008   3.6569495420e-004   6.3892486335e-005   9.9066770426e-001  -8.8340478350e-003   1.0007784573e+000  -1.8487169264e-003   2.9108885338e-004  -4.0710196671e-004
  6.7101250000e+008   5.1398922379e-004  -1.6565112085e-004   9.9267514746e-001  -6.8623110039e-003   9.9968748919e-001  -7.7284490338e-004   2.7080490743e-004  -6.4844212076e-004
  6.7960000000e+008   7.7929662438e-004  -5.1230390814e-004   9.8793557714e-001  -8.1225740158e-003   1.0001473265e+000  -2.3384769871e-003   1.5516189176e-004  -9.5447405361e-004
  6.8818750000e+008   2.8256035466e-004  -9.5927357557e-004   9.8674953084e-001  -8.1651573707e-003   1.0000260040e+000  -2.4313014360e-003   1.2311240113e-004  -1.0846286957e-003
  6.9677500000e+008   2.9946145683e-004  -1.1505534860e-003   9.8731470591e-001  -7.5869599850e-003   9.9997469559e-001  -2.1149615528e-003  -9.2550552536e-005  -1.2837385816e-003
  7.0536250000e+008  -1.6557447901e-004  -1.0544106336e-003   9.8902509859e-001  -8.6625274507e-003   1.0001769422e+000  -1.9360019634e-003  -2.7124049370e-004  -1.3906032640e-003
  7.1395000000e+008  -6.4727637312e-004  -1.0044164506e-003   9.8992848878e-001  -8.6146699309e-003   1.0000154571e+000  -1.9042339154e-003  -5.1924111939e-004  -1.3870178749e-003
  7.2253750000e+008  -1.0316965491e-003  -8.0660512805e-004   9.9014933189e-001  -8.1276564227e-003   9.9960526875e-001  -1.9301815462e-003  -8.1168390653e-004  -1.3217019830e-003
  7.3112500000e+008  -1.0712963052e-003  -5.2257441413e-004   9.9121012320e-001  -7.9024794430e-003   1.0004046358e+000  -1.5760720161e-003  -1.0695207842e-003  -9.4316108956e-004
  7.3971250000e+008  -1.1399932601e-003  -2.5040163675e-005   9.9131623942e-001  -7.5101136360e-003   9.9900284334e-001  -2.4762318361e-003  -1.1850975598e-003  -9.5068251229e-004
  7.4830000000e+008  -9.0028305789e-004   4.6863570408e-004   9.9064745077e-001  -8.0286379012e-003   9.9909979649e-001  -1.6872327438e-003  -1.0713900076e-003  -8.8172473406e-004
  7.5688750000e+008  -9.5985946080e-004   8.1970336326e-004   9.8906868523e-001  -9.2282512426e-003   9.9926074838e-001  -1.9147134010e-003  -1.1638315296e-003  -4.4022738716e-004
  7.6547500000e+008  -2.6703438417e-004   8.5165541421e-004   9.9175933924e-001  -8.3505859111e-003   9.9936702052e-001  -1.9090559103e-003  -1.3223637955e-003  -1.1518747295e-004
  7.7406250000e+008   8.7857947186e-005   8.5344539331e-004   9.8985667624e-001  -8.8949744204e-003   9.9959352701e-001  -1.8150068484e-003  -9.7565376299e-004   1.0400010356e-004
  7.8265000000e+008   4.5360190752e-004   7.5403178445e-004   9.9115825990e-001  -8.0288365451e-003   1.0001398756e+000  -2.1933458088e-003  -8.6188120995e-004   5.4952356083e-004
  7.9123750000e+008   7.3596190430e-004   5.0930622474e-004   9.9030004013e-001  -7.8049383542e-003   1.0001559248e+000  -1.4130807241e-003  -1.0162391491e-003   5.3029758992e-004
  7.9982500000e+008   8.0430341545e-004   3.1647588786e-004   9.9124320053e-001  -7.8775073018e-003   1.0001194403e+000  -1.4802360197e-003  -7.3579956272e-004   7.2288542816e-004
  8.0841250000e+008   1.0541737232e-003   3.6488411884e-005   9.8989588664e-001  -8.7928396474e-003   9.9984183761e-001  -1.7187836952e-003  -6.3920386310e-004   1.0420372051e-003
  8.1700000000e+008   1.0647203927e-003  -4.3026050449e-004   9.9158834383e-001  -8.0606635260e-003   9.9964623996e-001  -1.4643238848e-003  -6.9661443637e-004   1.0052980802e-003
  8.2558750000e+008   9.7704316335e-004  -6.1476455685e-004   9.9168989081e-001  -7.8618773001e-003   1.0003986232e+000  -2.4327387268e-003  -6.1815478638e-004   1.3446060844e-003
  8.3417500000e+008   9.6085809385e-004  -1.1979076831e-003   9.9321056215e-001  -7.0659373766e-003   1.0007859246e+000  -2.0911280489e-003  -3.2918889338e-004   1.5427717339e-003
  8.4276250000e+008   3.7671306764e-004  -1.3198310767e-003   9.9161663239e-001  -8.4616012824e-003   9.9908686675e-001  -2.7727224612e-003  -3.5482757556e-005   1.5672543002e-003
  8.5135000000e+008  -1.4674398808e-004  -1.2511552511e-003   9.9041396067e-001  -7.3253310587e-003   1.0004335445e+000  -1.9228835582e-003   2.0966884678e-004   1.5308034625e-003
  8.5993750000e+008  -2.3964425188e-004  -1.1871222161e-003   9.9133888174e-001  -8.6930902211e-003   9.9886849658e-001  -2.8905820864e-003   4.8453582919e-004   1.3159966703e-003
  8.6852500000e+008  -4.6820079050e-004  -9.3689248622e-004   9.8970440328e-001  -7.6847685117e-003   9.9988053496e-001  -1.9551178358e-003   7.7846150766e-004   9.3233962341e-004
  8.7711250000e+008  -5.6155433224e-004  -5.8732990858e-004   9.9043662742e-001  -8.9663651850e-003   9.9982542806e-001  -2.7230090149e-003   6.4912016497e-004   4.4878490558e-004
  8.8570000000e+008  -3.7873968015e-004  -4.1544885876e-004   9.9107842424e-001  -7.6099619567e-003   1.0003817242e+000  -2.9693228791e-003   6.0560420516e-004   2.9493956171e-007
  8.9428750000e+008  -1.9677655496e-004  -1.7759545910e-004   9.9072786778e-001  -8.4469571547e-003   9.9948041437e-001  -2.5811042580e-003   3.2060354728e-004  -2.1490896359e-004
  9.0287500000e+008   1.8746989700e-005  -3.2996673086e-004   9.9113558362e-001  -8.3197697564e-003   9.9892346494e-001  -2.7976057992e-003   1.2629542162e-004  -3.5822803948e-004
  9.1146250000e+008   2.9446634416e-004  -2.6224001845e-004   9.8956868635e-001  -1.0097506362e-002   9.9867832831e-001  -3.2490762858e-003  -3.1017452837e-004  -4.2925192905e-004
  9.2005000000e+008   2.1067003811e-004  -4.2553682385e-004   9.9034162123e-001  -8.1071470567e-003   9.9861832513e-001  -2.2625549331e-003  -6.4217390105e-004  -7.6425316601e-004
  9.2863750000e+008   5.3162239613e-004  -6.8862897362e-004   9.9006731154e-001  -8.0707485592e-003   9.9952864619e-001  -3.0148337376e-003  -8.5210036212e-004  -6.2298651942e-004
  9.3722500000e+008   3.8680069823e-004  -9.0204752988e-004   9.9214564765e-001  -7.8566293805e-003   9.9894977868e-001  -2.9242161071e-003  -1.0056257147e-003  -7.5287207735e-004
  9.4581250000e+008   3.7140097830e-004  -1.2226858814e-003   9.9019238923e-001  -6.9896967655e-003   9.9920887996e-001  -2.6958909901e-003  -1.3945092140e-003  -5.2479254116e-004
  9.5440000000e+008   3.3908802966e-005  -1.3277860763e-003   9.9017878881e-001  -8.5541974701e-003   9.9969145911e-001  -1.3456248001e-003  -1.5137441023e-003  -4.3383441779e-004
  9.6298750000e+008  -3.1761413965e-004  -1.2769985264e-003   9.9013997941e-001  -8.1676112378e-003   9.9993364389e-001  -3.0388166270e-003  -1.5567439472e-003  -5.0371283556e-005
  9.7157500000e+008  -6.2828968101e-004  -1.2379349560e-003   9.9165337618e-001  -9.7196940424e-003   1.0001065602e+000  -2.5471481189e-003  -1.5591181799e-003  -1.3505040972e-004
  9.8016250000e+008  -8.7555636027e-004  -1.0177290261e-003   9.9167158688e-001  -8.3372489163e-003   9.9993926767e-001  -3.0193985359e-003  -1.5425394906e-003   4.1204491431e-005
  9.8875000000e+008  -1.1373847927e-003  -5.4628606907e-004   9.9006225804e-001  -8.1972262526e-003   9.9931677182e-001  -2.4295236770e-003  -1.3758292196e-003   2.3334969350e-004
  9.9733750000e+008  -1.0788760110e-003  -3.4896707691e-004   9.9013031045e-001  -8.5953413144e-003   9.9959567347e-001  -2.3587999505e-003  -1.2324135309e-003   1.5946472608e-004
  1.0059250000e+009  -1.0036413711e-003  -4.4588144959e-005   9.9084741152e-001  -7.9226550483e-003   9.9969109729e-001  -2.4328089293e-003  -7.7421558062e-004   2.8871160675e-004
  1.0145125000e+009  -8.4535335924e-004   4.2888044480e-004   9.8994540424e-001  -1.0218946675e-002   9.9926422094e-001  -3.2399366002e-003  -5.7413647945e-004   2.6947633676e-004
  1.0231000000e+009  -5.0237576836e-004   4.1176812179e-004   9.9013583522e-001  -7.4692082009e-003   9.9928678222e-001  -2.9051706634e-003  -3.2967594437e-004   2.8853591877e-004
  1.0316875000e+009  -1.5328101633e-004   6.8545218384e-004   9.9108272807e-001  -8.2728950493e-003   9.9898772445e-001  -2.6536905366e-003  -3.6184063334e-005   9.0360952070e-005
  1.0402750000e+009   2.4416761461e-004   5.8123967283e-004   9.9082247933e-001  -8.7048671920e-003   9.9998665233e-001  -2.2586908870e-003   3.8068749264e-004   2.0843628409e-005
  1.0488625000e+009   4.6676652378e-004   4.8960880007e-004   9.9202360916e-001  -8.7851881491e-003   9.9923716078e-001  -2.3101458986e-003   6.0817182797e-004  -7.8362619821e-005
  1.0574500000e+009   5.5931374337e-004   1.0450678472e-004   9.9122799709e-001  -9.1426669178e-003   9.9934572689e-001  -2.7902995620e-003   7.7326448397e-004  -5.5137440151e-004
