# Hz S RI R 50.000000
! Metas.Vna.Tools, 2.8.8664.20301
! Metas.Vna.Data, 2.8.8664.20285
! Created: UTC 2024.02.11 10:08:10
! FREQ                re:S1,1             im:S1,1             re:S2,1             im:S2,1             re:S1,2             im:S1,2             re:S2,2             im:S2,2          
  1.3000000000e+008   1.3462494264e-004  -1.0532181994e-003   1.0006064564e+000  -4.7062592245e-003   1.0000274267e+000  -2.5816350665e-003   1.6041595241e-003   5.6714130258e-004
  1.3858750000e+008  -8.7409221165e-004  -1.0989214416e-003   1.0020366808e+000  -4.5697062795e-003   9.9992493903e-001  -1.7999788099e-003   1.5288458366e-003   1.1158045249e-005
  1.4717500000e+008  -1.9474175610e-003  -6.5577915345e-004   1.0006278020e+000  -4.7828116408e-003   9.9927524003e-001  -2.6283729333e-003   9.7495580047e-004  -3.5379379209e-004
  1.5576250000e+008  -1.2489953256e-003   1.2869031981e-004   1.0009050445e+000  -3.3471643374e-003   1.0004337081e+000  -1.2803040372e-003   9.5092873358e-004  -1.1129193691e-003
  1.6435000000e+008  -5.2593474870e-004   7.8655649822e-004   1.0012216673e+000  -3.5329222025e-003   1.0003985450e+000  -2.3325807691e-003   9.4902270009e-004  -3.3767331406e-004
  1.7293750000e+008  -7.7267200760e-004   8.6590502156e-004   1.0012513402e+000  -3.4222973849e-003   1.0002302054e+000  -1.4465620871e-003   6.2215181821e-004  -1.3513433024e-003
  1.8152500000e+008  -7.5686593010e-004   2.1375068738e-004   1.0006302080e+000  -4.8236722657e-003   1.0003546164e+000  -1.6572381212e-003   3.3600364427e-004  -8.2965240967e-004
  1.9011250000e+008  -3.4744120706e-004   5.6249485977e-004   1.0016408485e+000  -5.5910877393e-003   1.0006565829e+000  -2.1345760629e-003   4.3975044837e-006  -7.4472927847e-004
  1.9870000000e+008  -2.1355888180e-004   7.5360146265e-004   1.0007043162e+000  -4.1275031828e-003   1.0003376943e+000  -2.3088834789e-003   2.2092359004e-004  -3.4707017505e-004
  2.0728750000e+008   3.0129939070e-004   3.8382313563e-004   1.0002620020e+000  -4.1200937185e-003   1.0005398237e+000  -1.8001902415e-003   4.3229513930e-004   1.3320498070e-004
  2.1587500000e+008   2.9615587082e-004   9.8677402262e-005   1.0016222175e+000  -4.8471245622e-003   9.9964751957e-001  -1.5113632698e-003  -3.2790565831e-004   1.3925278462e-004
  2.2446250000e+008   1.5798636020e-004  -6.2593952306e-004   1.0016351681e+000  -4.0894184494e-003   1.0001432872e+000  -1.5148925026e-003  -3.1151981883e-004   9.9488231372e-005
  2.3305000000e+008   2.0064400784e-004  -8.9297846454e-005   9.9924231068e-001  -4.4854241318e-003   1.0005346360e+000  -2.1852758712e-003  -5.7042010463e-004  -8.1082916261e-005
  2.4163750000e+008  -3.1864725848e-004  -2.3177306555e-004   1.0013559281e+000  -5.2898506979e-003   9.9995995955e-001  -2.6483537603e-003  -5.8197755010e-004   1.6555802991e-004
  2.5022500000e+008  -1.5721868010e-004  -6.3964538467e-004   1.0009844563e+000  -4.4267589229e-003   9.9992935483e-001  -2.7405843986e-003  -8.7571963821e-004   6.1631896716e-004
  2.5881250000e+008  -4.1756215085e-004  -8.4535972775e-004   1.0000709278e+000  -3.8722926908e-003   1.0004639122e+000  -2.8191088702e-003  -4.2280728986e-004   7.1181738204e-004
  2.6740000000e+008  -6.9444643086e-004  -6.7972944031e-004   1.0013257937e+000  -4.8900271034e-003   1.0002536974e+000  -3.5345027492e-003  -4.6413635364e-004   2.1509813096e-004
  2.7598750000e+008  -3.0966722538e-004  -5.2476870376e-004   1.0000628719e+000  -4.3680977000e-003   1.0003341554e+000  -2.2903872172e-003  -1.8842339057e-004   5.2075158478e-004
  2.8457500000e+008  -9.0611994439e-004  -4.6014362862e-004   1.0001080711e+000  -4.5916368019e-003   1.0005353714e+000  -2.0726356117e-003  -5.7967883319e-004   9.5828322320e-004
  2.9316250000e+008  -7.2076990676e-004  -6.9082413333e-004   1.0007452865e+000  -3.7490769011e-003   1.0003933078e+000  -2.7465649792e-003  -4.5100765934e-004   5.9315591271e-004
  3.0175000000e+008  -9.8484551232e-004   4.9132397500e-004   1.0014119027e+000  -5.0931630910e-003   1.0003869675e+000  -2.3313052333e-003  -6.3002557055e-004   4.2318385742e-004
  3.1033750000e+008  -1.0360502543e-003   2.9896692558e-004   1.0016234196e+000  -3.7782515075e-003   1.0013743947e+000  -2.5541397009e-003  -6.9337256710e-004   6.1907341653e-004
  3.1892500000e+008  -9.0021882830e-004   3.6975747847e-004   1.0000019480e+000  -4.0042899466e-003   9.9992210266e-001  -1.7168843065e-003  -6.1711230588e-004   1.6596131662e-004
  3.2751250000e+008  -8.6925208247e-004   2.6072484900e-004   1.0011903367e+000  -4.6802050475e-003   1.0007707974e+000  -2.9441094813e-003  -4.9797814112e-004   1.9159744343e-004
  3.3610000000e+008  -7.8762283265e-004   3.3022410251e-004   1.0026126563e+000  -4.9131294915e-003   1.0009740819e+000  -2.9589458886e-003  -2.9226657469e-004  -2.8765978832e-005
  3.4468750000e+008  -4.5555709418e-004   2.2198224190e-004   1.0017547331e+000  -3.9579109349e-003   1.0009267320e+000  -2.3466585337e-003  -3.3035839195e-004  -3.3440923284e-005
  3.5327500000e+008  -5.2808239861e-004   4.1567646129e-004   1.0025970155e+000  -5.4552293171e-003   9.9947014098e-001  -3.1646804909e-003  -4.9020779311e-004  -7.8916607862e-005
  3.6186250000e+008  -2.8096434902e-004   5.3183802318e-004   1.0020286052e+000  -4.3917760177e-003   1.0004823896e+000  -2.7978477193e-003  -5.5679249082e-004   2.7362063409e-004
  3.7045000000e+008  -8.0447798788e-004   5.3303989549e-004   1.0012464991e+000  -5.5566636960e-003   1.0006993642e+000  -3.5011816345e-003  -4.4117740116e-004  -4.9665672852e-005
  3.7903750000e+008  -8.9558581975e-005   6.8273985226e-004   1.0010070276e+000  -4.4797776294e-003   1.0002866741e+000  -2.7579644364e-003  -3.2259940762e-004  -1.7399854761e-004
  3.8762500000e+008  -3.2429437511e-004   5.5181186080e-004   1.0038428511e+000  -3.7898072351e-003   9.9992690861e-001  -3.0570680220e-003  -4.3682133721e-004   4.8962667653e-004
  3.9621250000e+008  -1.2848375563e-004  -5.8040760495e-005   1.0029246210e+000  -4.4667243229e-003   1.0003817109e+000  -3.0243738721e-003  -4.9704704291e-004   1.9124500418e-004
  4.0480000000e+008   1.9423076455e-004   1.9139043368e-004   1.0031449401e+000  -4.7667295853e-003   1.0000387249e+000  -3.0298653583e-003  -2.2034159516e-005   1.4903846538e-004
  4.1338750000e+008   3.1628434903e-004   1.4974083225e-004   1.0025824924e+000  -3.9680747299e-003   1.0006833205e+000  -3.0191133753e-003   1.1440329629e-004   3.4092194032e-004
  4.2197500000e+008  -1.5174195771e-004  -2.7253940416e-004   1.0027323101e+000  -4.5884216754e-003   1.0003034952e+000  -3.1166100056e-003   6.0460012394e-005   3.7615234787e-004
  4.3056250000e+008   5.9682789809e-005   1.6417169221e-004   1.0035870990e+000  -4.4972016039e-003   1.0006775419e+000  -3.0423215214e-003   2.9303776546e-004   2.9775972725e-004
  4.3915000000e+008  -2.3240684802e-005  -1.7847162975e-004   1.0060008962e+000  -2.9524237010e-003   1.0001499554e+000  -3.4873270643e-003   4.2996582849e-004   2.5117788250e-004
  4.4773750000e+008   6.6249066682e-005  -1.0032874826e-004   1.0043389432e+000  -3.9249961151e-003   1.0003743471e+000  -3.6915800707e-003   6.4086168905e-004   7.8296716682e-005
  4.5632500000e+008  -2.0605594478e-004  -2.5289431047e-004   1.0018670298e+000  -4.8067729779e-003   1.0001727005e+000  -3.2295384453e-003   4.9896327335e-004   3.9262123782e-004
  4.6491250000e+008  -3.0788665726e-004  -1.1828031322e-004   1.0027803203e+000  -5.5914466072e-003   9.9989755990e-001  -3.4355292240e-003   5.5768921218e-004   2.4394298748e-004
  4.7350000000e+008  -4.6996997773e-004  -2.0863500821e-004   1.0017241192e+000  -5.1651002859e-003   9.9998176855e-001  -3.2024310206e-003   3.9348450780e-004  -2.7862919681e-005
  4.8208750000e+008  -2.7044927857e-004   1.4440862414e-004   1.0007376602e+000  -5.6389447043e-003   9.9961590377e-001  -3.0850703380e-003   6.8632965557e-004   2.4800098922e-004
  4.9067500000e+008   5.9615065443e-005  -3.7742188899e-004   1.0000698737e+000  -4.8636076394e-003   9.9981095829e-001  -3.5617363225e-003   3.6039839794e-004   1.7042884572e-004
  4.9926250000e+008  -2.2128068074e-005  -5.1727838112e-004   1.0002875823e+000  -4.8452041066e-003   9.9974034869e-001  -3.1476603500e-003   6.9101147286e-004   2.3156109158e-004
  5.0785000000e+008  -6.8953303856e-004  -3.4917798224e-004   9.9915092002e-001  -4.5834484335e-003   9.9993170259e-001  -2.6869530261e-003   7.7859249071e-004   4.6881722866e-004
  5.1643750000e+008  -5.6578099798e-004   1.9591781780e-004   9.9940185800e-001  -4.1784963518e-003   1.0000357414e+000  -2.8627783898e-003   1.2283622084e-003   1.7022398707e-004
  5.2502500000e+008  -4.6052283667e-004   6.2994643463e-004   9.9851972383e-001  -4.0776823446e-003   1.0007183209e+000  -2.2019620795e-003   7.0890324643e-004  -3.4943338293e-004
  5.3361250000e+008   3.2200960584e-004   6.8633843479e-004   1.0010343808e+000  -5.6804388036e-003   1.0004001616e+000  -2.8424115513e-003   2.2056753034e-004  -7.9355124892e-004
  5.4220000000e+008   6.7842048311e-004   2.6544720968e-004   9.9958833579e-001  -5.4679956186e-003   1.0008486510e+000  -2.8458303852e-003  -6.1187809061e-004  -6.4350504903e-004
  5.5078750000e+008   7.1736707580e-004  -5.5095569335e-004   1.0008921578e+000  -5.5173808878e-003   1.0004759256e+000  -3.6364388417e-003  -8.7647842117e-004  -4.7470276737e-004
  5.5937500000e+008   4.8778312945e-004  -8.0766331421e-004   9.9963280900e-001  -6.7087253686e-003   1.0002831612e+000  -3.2753825550e-003  -9.2290450123e-004  -1.7961861182e-004
  5.6796250000e+008   2.0925684642e-004  -1.0124346771e-003   1.0020699664e+000  -5.2819940793e-003   1.0001712046e+000  -3.0587221218e-003  -1.0569865511e-003   4.0665180425e-004
  5.7655000000e+008  -3.6398962895e-004  -1.1250943799e-003   1.0011345453e+000  -6.7887412146e-003   9.9994084515e-001  -4.0941206155e-003  -8.0872755525e-004   5.1871090728e-004
  5.8513750000e+008  -5.9211561992e-004  -8.9271422138e-004   1.0003053348e+000  -5.9518364019e-003   9.9939507848e-001  -3.6175004214e-003  -6.5665633078e-004   6.1496336548e-004
  5.9372500000e+008  -7.0688243035e-004  -7.8718735491e-004   9.9833583321e-001  -5.3661372455e-003   1.0003133285e+000  -4.4392493613e-003  -4.9875422569e-004   7.7924483069e-004
  6.0231250000e+008  -9.7614424271e-004  -4.3520571143e-004   9.9951765197e-001  -6.1595952354e-003   9.9993572776e-001  -3.9628193745e-003  -4.8159150170e-004   7.1989052420e-004
  6.1090000000e+008  -8.0710994303e-004  -1.5536170341e-004   1.0006908180e+000  -6.7697472974e-003   9.9987909523e-001  -3.3696655207e-003  -5.6791163389e-004   8.3145793041e-004
  6.1948750000e+008  -8.5652763348e-004   1.5330149649e-004   9.9948440214e-001  -5.6014834445e-003   9.9992166342e-001  -3.7650486466e-003  -3.1197887744e-004   6.3927193114e-004
  6.2807500000e+008  -6.9559903187e-004   2.1075589366e-004   9.9915190792e-001  -8.1171028234e-003   1.0005899400e+000  -3.8044666379e-003  -1.8463758703e-005   4.8704494895e-004
  6.3666250000e+008  -4.0281251429e-004   6.7713592126e-004   1.0008504344e+000  -6.6189730930e-003   1.0005620440e+000  -3.7271249740e-003  -7.2899494076e-005   3.7121039139e-004
  6.4525000000e+008   1.4288506223e-004   4.3219420534e-004   9.9952706630e-001  -5.9929244506e-003   9.9981839790e-001  -3.4167367957e-003   1.5668938182e-005   2.1027023809e-004
  6.5383750000e+008   3.2778746459e-004   2.4090677197e-004   1.0013667353e+000  -5.5619223942e-003   9.9938055607e-001  -3.3162758818e-003   2.8843999068e-004  -6.1812972252e-005
  6.6242500000e+008   3.5424357705e-004   9.6678603746e-005   9.9964629403e-001  -6.9005782093e-003   1.0003303557e+000  -3.6131398506e-003   3.1381956577e-004  -1.1835678554e-004
  6.7101250000e+008   4.4068707115e-004  -3.0912191043e-004   1.0009675842e+000  -5.2034938652e-003   1.0001353218e+000  -2.7942116604e-003   2.5341426192e-004  -3.5579645686e-004
  6.7960000000e+008   6.4497819935e-004  -7.2547727877e-004   9.9953028486e-001  -6.5299591314e-003   1.0007679837e+000  -3.3408906239e-003   3.1291702379e-004  -6.1668359035e-004
  6.8818750000e+008   1.5643990021e-005  -8.6227017176e-004   9.9792952755e-001  -6.1896687270e-003   1.0000763528e+000  -4.3776218982e-003   1.6203247627e-004  -8.8991216560e-004
  6.9677500000e+008  -8.5349901468e-005  -9.9133980499e-004   1.0004323107e+000  -4.9323759885e-003   9.9986733815e-001  -4.1763208698e-003   1.5244289832e-005  -9.0264471575e-004
  7.0536250000e+008  -4.3925203393e-004  -1.0546121699e-003   9.9885833928e-001  -6.1499875204e-003   9.9985747364e-001  -4.0210147082e-003  -5.4758059281e-005  -1.1681452960e-003
  7.1395000000e+008  -9.1583216273e-004  -9.6194830458e-004   9.9915591366e-001  -5.7932713911e-003   9.9988437249e-001  -4.2839589645e-003  -3.5378009463e-004  -1.1406771962e-003
  7.2253750000e+008  -1.2003171024e-003  -6.0716868931e-004   9.9986602816e-001  -7.0959196807e-003   9.9964771884e-001  -3.5399305541e-003  -4.8594334862e-004  -1.0296382893e-003
  7.3112500000e+008  -1.1593563124e-003  -1.3489428435e-004   9.9917617048e-001  -5.3146469777e-003   9.9982788030e-001  -4.1172096263e-003  -7.1840732012e-004  -1.0686803934e-003
  7.3971250000e+008  -1.0753596959e-003   2.9500308533e-004   9.9994168696e-001  -6.2207188122e-003   9.9948646230e-001  -4.9075918843e-003  -8.6472149646e-004  -7.3092636128e-004
  7.4830000000e+008  -7.5786812191e-004   7.2422558706e-004   9.9908544729e-001  -6.3069148154e-003   9.9981704858e-001  -4.0577393834e-003  -9.1835163000e-004  -7.2632772966e-004
  7.5688750000e+008  -4.6605691335e-004   8.2289982494e-004   9.9730721169e-001  -6.4317084972e-003   9.9863931640e-001  -4.8275296653e-003  -9.9144744340e-004  -4.1290436437e-004
  7.6547500000e+008  -9.8134786090e-005   8.6282702264e-004   9.9905360136e-001  -6.4781844012e-003   9.9902656174e-001  -4.4515032346e-003  -9.7797498569e-004  -1.4018965533e-004
  7.7406250000e+008   2.6184010016e-004   6.9054695560e-004   1.0001367068e+000  -6.4430516889e-003   9.9931797187e-001  -4.1287060706e-003  -8.0922743075e-004   4.6402837656e-005
  7.8265000000e+008   3.9259936885e-004   2.9052279778e-004   9.9964596699e-001  -6.1227882759e-003   9.9874739702e-001  -3.6339458077e-003  -6.8518728868e-004   3.9671799952e-004
  7.9123750000e+008   5.0349256085e-004   1.1064249853e-004   9.9976835238e-001  -5.9838659476e-003   9.9964764630e-001  -3.9787912301e-003  -5.9387894282e-004   3.7340569309e-004
  7.9982500000e+008   4.6665157463e-004   1.7890071083e-004   9.9954586652e-001  -5.4058099670e-003   9.9994014920e-001  -3.0307730598e-003  -5.3619137701e-004   5.1100132725e-004
  8.0841250000e+008   6.5733450412e-004   2.8733804190e-004   9.9948494615e-001  -5.8885352339e-003   9.9927926521e-001  -3.6481226182e-003  -5.2461059750e-004   5.4663932767e-004
  8.1700000000e+008   8.7602276140e-004   9.8506596802e-005   1.0008845279e+000  -5.5992937984e-003   1.0006255915e+000  -3.3276390775e-003  -6.5815426779e-004   5.8981036037e-004
  8.2558750000e+008   1.2216651800e-003  -2.1837844744e-004   1.0017713881e+000  -5.8831961243e-003   1.0005736246e+000  -3.6284034935e-003  -8.8039620412e-004   9.8814329675e-004
  8.3417500000e+008   1.1109687143e-003  -8.4374224862e-004   9.9980254598e-001  -5.6473129687e-003   1.0005791573e+000  -4.0125982596e-003  -6.4218698327e-004   1.1573949352e-003
  8.4276250000e+008   6.5452503131e-004  -1.2322646744e-003   9.9910510207e-001  -6.5270062499e-003   1.0000895358e+000  -4.2042804026e-003  -4.1007315364e-004   1.2967793912e-003
  8.5135000000e+008   2.1561533779e-004  -1.2981420444e-003   9.9973601594e-001  -5.6779017636e-003   1.0013600328e+000  -4.1911672362e-003   3.1274859583e-006   1.6741215372e-003
  8.5993750000e+008  -8.2472904293e-005  -1.2926043442e-003   1.0012964691e+000  -6.1977933919e-003   9.9977953758e-001  -4.7423347929e-003   3.0548232909e-004   1.5722727967e-003
  8.6852500000e+008  -5.2943048160e-004  -1.0321975855e-003   9.9915451909e-001  -5.2724064348e-003   1.0002665517e+000  -4.5592678699e-003   7.3098854612e-004   1.4156209139e-003
  8.7711250000e+008  -5.8275608419e-004  -6.7023696118e-004   9.9788760069e-001  -6.7248944979e-003   9.9939408894e-001  -4.9175293566e-003   6.3356989883e-004   8.7223269263e-004
  8.8570000000e+008  -5.1540121406e-004  -4.1869144885e-004   1.0002988868e+000  -5.3913890355e-003   9.9999483203e-001  -4.3547015807e-003   8.4207386642e-004   5.3788413655e-004
  8.9428750000e+008  -3.9649185105e-004  -5.2454975395e-005   1.0003078322e+000  -7.3154617686e-003   9.9964990763e-001  -4.7563019961e-003   8.2396364508e-004   1.4725225652e-004
  9.0287500000e+008   4.8886361483e-005  -3.8496205045e-005   9.9985479132e-001  -5.9185892928e-003   9.9985189127e-001  -4.7420798669e-003   6.3188695911e-004  -1.8805527201e-004
  9.1146250000e+008   1.9833670230e-004  -9.6701166261e-005   9.9965504420e-001  -6.7368530560e-003   9.9947602111e-001  -5.1022789574e-003   2.6496211153e-004  -3.6275360814e-004
  9.2005000000e+008   3.8032721681e-004  -3.0087504765e-004   9.9909016951e-001  -6.4496534578e-003   9.9921538996e-001  -4.1282131852e-003  -2.3761527194e-004  -6.1810307617e-004
  9.2863750000e+008   4.8257927297e-004  -6.2376406118e-004   9.9949575794e-001  -5.6222536450e-003   9.9924820217e-001  -4.9747565950e-003  -4.3649097515e-004  -7.7809264670e-004
  9.3722500000e+008   3.6991730029e-004  -7.3960135755e-004   1.0012206658e+000  -5.7964589926e-003   9.9857946887e-001  -5.0402760534e-003  -7.3638137326e-004  -1.0080195222e-003
  9.4581250000e+008   2.7051910668e-004  -1.0490685120e-003   9.9886279434e-001  -5.5616277759e-003   9.9931375564e-001  -4.4519640531e-003  -1.0338399349e-003  -9.3822660222e-004
  9.5440000000e+008  -2.4850872340e-005  -1.2431209296e-003   1.0000782382e+000  -5.5292878291e-003   1.0003859900e+000  -3.8775582613e-003  -1.1840519777e-003  -9.3390097069e-004
  9.6298750000e+008  -4.8499297002e-004  -1.2678874615e-003   1.0015027245e+000  -5.1442750881e-003   1.0005125057e+000  -4.4667405582e-003  -1.4537507368e-003  -6.5131251726e-004
  9.7157500000e+008  -7.2122218974e-004  -1.1353703405e-003   1.0006185815e+000  -6.2683087093e-003   9.9943987358e-001  -6.0358573916e-003  -1.5624200825e-003  -5.5057388834e-004
  9.8016250000e+008  -9.3702633982e-004  -9.2815430372e-004   1.0009014659e+000  -5.9036858877e-003   9.9971254471e-001  -5.2015577357e-003  -1.6071498068e-003  -2.7124859614e-004
  9.8875000000e+008  -1.1468761724e-003  -5.6557531219e-004   9.9941807149e-001  -5.5471972744e-003   9.9972258116e-001  -4.9503686523e-003  -1.5826486527e-003  -3.6744724544e-005
  9.9733750000e+008  -1.2162765681e-003  -1.7121203011e-004   1.0002271585e+000  -6.0828928512e-003   9.9924320992e-001  -3.8476700340e-003  -1.5468519519e-003  -4.4797223898e-005
  1.0059250000e+009  -1.0300065518e-003   1.3070173687e-004   1.0001714810e+000  -5.6646852560e-003   9.9988977195e-001  -4.5220885656e-003  -1.2698197598e-003   2.5881985723e-004
  1.0145125000e+009  -8.6566336961e-004   5.5261459583e-004   9.9974526800e-001  -8.1725330784e-003   9.9919451847e-001  -5.0514267725e-003  -8.5363385807e-004   3.7226103723e-004
  1.0231000000e+009  -5.6042900226e-004   6.3663872907e-004   9.9982286564e-001  -6.5354827261e-003   9.9921685955e-001  -4.9993069419e-003  -6.5338192283e-004   5.3462707942e-004
  1.0316875000e+009  -1.5144713618e-004   8.3217355753e-004   1.0003210924e+000  -7.2908150659e-003   9.9874898523e-001  -4.7328082846e-003  -3.0766060675e-004   5.6242763278e-004
  1.0402750000e+009   2.0975385110e-004   6.9780830713e-004   9.9972761384e-001  -5.9952109001e-003   1.0000426999e+000  -3.7460956642e-003   1.8638697943e-004   5.0132905035e-004
  1.0488625000e+009   5.6686017830e-004   6.0988806314e-004   1.0004676709e+000  -6.0065315036e-003   9.9906710387e-001  -4.8809850047e-003   5.5700136937e-004   3.6105450715e-004
  1.0574500000e+009   6.0026315842e-004   2.2011649359e-004   9.9955657019e-001  -6.9427214222e-003   9.9938037787e-001  -4.8255706945e-003   8.4407266589e-004   7.9388526601e-005
