# Hz S RI R 50.000000
! Metas.Vna.Tools, 2.8.8664.20301
! Metas.Vna.Data, 2.8.8664.20285
! Created: UTC 2024.02.11 10:08:13
! FREQ                re:S1,1             im:S1,1             re:S2,1             im:S2,1             re:S1,2             im:S1,2             re:S2,2             im:S2,2          
  1.3000000000e+008  -9.8524436182e-005  -4.6948822212e-004   9.8704588970e-001  -7.9818198484e-003   1.0005178872e+000  -1.6232024069e-003   1.2657458353e-003   2.6440976568e-004
  1.3858750000e+008  -1.4648926389e-003  -7.7437337159e-004   9.8987954500e-001  -7.1784696936e-003   1.0005336356e+000  -7.9931598912e-004   1.2026708769e-003  -1.0626890719e-004
  1.4717500000e+008  -1.6358712840e-003  -1.1463026721e-003   9.8955010586e-001  -8.6307618845e-003   1.0002121494e+000  -1.2960442711e-003  -1.0377707140e-004   7.1898925605e-005
  1.5576250000e+008  -8.8806439028e-004  -2.0308869552e-004   9.8982646145e-001  -7.6820121855e-003   9.9951722476e-001  -6.1955797301e-004   1.5877815695e-003  -1.2276367141e-003
  1.6435000000e+008  -7.9681403797e-004   3.4358732143e-004   9.9106231210e-001  -6.0788008427e-003   1.0007929155e+000  -1.3637897549e-003   7.1547612253e-004  -6.6571969137e-004
  1.7293750000e+008  -9.2886952513e-004   4.1681845550e-004   9.9021248779e-001  -6.0317821736e-003   1.0005900869e+000  -1.1412510958e-003   5.5822655578e-004  -1.1528405417e-003
  1.8152500000e+008  -5.0990719994e-004   2.8598348502e-004   9.8979896551e-001  -7.4134288834e-003   1.0004617512e+000  -1.7643836903e-003   5.6992166704e-004  -6.9546131801e-004
  1.9011250000e+008  -7.2022609386e-004   7.0467961988e-004   9.9098096848e-001  -8.2151002305e-003   1.0006019184e+000  -1.8017609150e-003   3.9264894294e-004  -7.6940445425e-004
  1.9870000000e+008  -2.2703225942e-004   7.1906933257e-004   9.9097074083e-001  -6.9582124543e-003   1.0005200630e+000  -1.8476918533e-003   6.1633181660e-004   1.2832643050e-004
  2.0728750000e+008  -1.4331570904e-004  -1.1747056645e-004   9.9036988331e-001  -7.2898466305e-003   1.0003118923e+000  -1.4498057705e-003   4.3022871017e-004  -2.1183264579e-004
  2.1587500000e+008   3.3031513186e-004  -1.9338981908e-004   9.9010353982e-001  -7.2409306065e-003   1.0000374240e+000  -1.3457964693e-003   2.9005257246e-005   4.0794350092e-004
  2.2446250000e+008   3.2674577335e-004  -2.5731075984e-004   9.8885834615e-001  -7.9567696442e-003   1.0002955621e+000  -1.6053726586e-003   1.0688647298e-005   1.9684609754e-004
  2.3305000000e+008  -1.2969321458e-004  -1.2059842016e-004   9.8873221326e-001  -7.0213741279e-003   1.0004691848e+000  -1.5494879171e-003  -3.1314735356e-004   4.3784991178e-005
  2.4163750000e+008  -3.0201134441e-004  -2.8958444565e-004   9.8866476444e-001  -9.1432490738e-003   1.0003413800e+000  -2.2289811958e-003  -1.9429196246e-004   3.5929550613e-004
  2.5022500000e+008  -6.1615811883e-004  -3.0110534640e-004   9.8877635916e-001  -8.0443737707e-003   1.0001474608e+000  -2.5958041827e-003  -6.2009880464e-004   7.8363760786e-004
  2.5881250000e+008  -5.8456575403e-004  -2.3520371125e-004   9.8733495695e-001  -7.9629859750e-003   1.0006536763e+000  -2.6573339994e-003  -4.4190889101e-004   5.7598352932e-004
  2.6740000000e+008  -6.2368775498e-004  -5.5071241706e-004   9.8895135770e-001  -8.6139471349e-003   1.0001058588e+000  -3.1293588473e-003  -3.6082247075e-004   3.3978410308e-004
  2.7598750000e+008  -2.6755967523e-004  -1.8944289229e-004   9.8816858946e-001  -9.5671683276e-003   1.0001643864e+000  -2.5347446832e-003  -5.7290913858e-004   3.4533181847e-004
  2.8457500000e+008  -7.9556903862e-004  -1.4292804055e-004   9.8865804517e-001  -8.9588295480e-003   1.0007965134e+000  -1.8505230895e-003  -2.0569677702e-004   8.7161167260e-004
  2.9316250000e+008  -1.6569046579e-004  -3.1150981804e-004   9.8664278714e-001  -7.5162146868e-003   1.0004191847e+000  -2.8226865758e-003  -4.2141683396e-004   5.3419100637e-004
  3.0175000000e+008  -9.0858364446e-004   4.4828727896e-004   9.8922261907e-001  -1.0482659396e-002   1.0001005279e+000  -2.1130149320e-003  -1.8505394338e-004   8.6563668691e-005
  3.1033750000e+008  -7.8982068408e-004  -4.1285778263e-006   9.8918995477e-001  -7.0768140020e-003   1.0013206896e+000  -2.8852445167e-003  -7.2185534408e-004   6.1917095588e-004
  3.1892500000e+008  -8.0776184355e-004  -3.4358085586e-006   9.8902547175e-001  -8.0464081890e-003   1.0005765365e+000  -2.2670518166e-003  -8.1444323238e-004  -6.7235778593e-005
  3.2751250000e+008  -6.9039286311e-004   1.1666508592e-004   9.8918913427e-001  -8.6898974313e-003   1.0005284199e+000  -2.9239386378e-003  -6.0972478603e-004   1.1913901597e-004
  3.3610000000e+008  -5.6618176454e-004   4.2302111419e-005   9.9111729793e-001  -8.1821949923e-003   1.0010443010e+000  -2.4640397367e-003  -7.6565073979e-004   1.5621668507e-004
  3.4468750000e+008  -7.5823938767e-004   2.8452613885e-005   9.8768547846e-001  -7.7315354657e-003   1.0007965112e+000  -2.0834556469e-003  -7.6220681797e-004   8.1422641740e-005
  3.5327500000e+008  -8.5184950446e-004   2.3490264279e-004   9.8920500953e-001  -9.0656735662e-003   9.9944209792e-001  -2.5183197334e-003  -6.4615897644e-004  -3.2488581348e-005
  3.6186250000e+008  -5.1567905719e-004   2.8416951103e-004   9.8979009248e-001  -8.8390895811e-003   1.0005977725e+000  -2.4714834398e-003  -7.5678083503e-004   6.6047048985e-005
  3.7045000000e+008  -7.5286203558e-004   6.9213232641e-004   9.8714016994e-001  -8.7380146260e-003   1.0009023276e+000  -2.9732151581e-003  -7.9358318653e-004   6.0702336641e-005
  3.7903750000e+008  -3.4701896318e-004   6.0712544204e-004   9.8903338512e-001  -7.8815788506e-003   1.0007430698e+000  -2.8363330613e-003  -5.0345008167e-004   5.8885065399e-005
  3.8762500000e+008  -1.7645396402e-004   6.0241895368e-004   9.9100594970e-001  -7.8572884974e-003   1.0000460237e+000  -2.6759267443e-003  -3.6719818597e-004   5.1266511831e-004
  3.9621250000e+008  -1.1928723449e-004   3.5520689217e-004   9.8975072454e-001  -9.3790165792e-003   1.0004940754e+000  -2.7769797145e-003  -6.8587668133e-004   5.5670243116e-004
  4.0480000000e+008   4.8466990408e-004   1.7518419594e-004   9.9150613074e-001  -8.5693637036e-003   1.0007288392e+000  -2.7723425232e-003  -2.1389025410e-004   2.3406030244e-004
  4.1338750000e+008   3.6340013303e-004   1.8195222341e-005   9.8961698180e-001  -7.5074357272e-003   1.0010191417e+000  -2.9103209137e-003   8.3147480196e-005   4.6227945095e-004
  4.2197500000e+008  -2.3954827423e-005  -2.2107254974e-004   9.8893953021e-001  -8.9337106811e-003   1.0007751105e+000  -2.9131802071e-003   9.8227295465e-006   6.3348898724e-004
  4.3056250000e+008   4.4226558882e-004   1.1369348903e-004   9.9027148630e-001  -8.3853328639e-003   1.0006081589e+000  -2.6365278458e-003   3.3753267814e-004   1.5498340186e-004
  4.3915000000e+008   2.2130410985e-005  -2.7212069543e-004   9.9115009825e-001  -7.2173273504e-003   1.0004389639e+000  -3.2926094399e-003   6.3055109594e-004   4.5234315157e-005
  4.4773750000e+008  -3.6001320715e-005  -5.2233349842e-004   9.9099362190e-001  -8.3067217408e-003   1.0005962903e+000  -3.2519996023e-003   3.5696490184e-004  -2.4036399522e-005
  4.5632500000e+008  -2.8279999414e-004  -3.0129396707e-004   9.8818195052e-001  -7.8746904027e-003   1.0005957753e+000  -3.0737466750e-003   7.4464204429e-004   8.7343382726e-006
  4.6491250000e+008  -3.7816769793e-004  -2.2565529264e-004   9.8891185975e-001  -9.1730432801e-003   1.0001530277e+000  -3.0274819029e-003   4.3365202312e-004  -1.1980970061e-004
  4.7350000000e+008  -5.8998073362e-004  -2.7651728740e-004   9.8737376025e-001  -8.6817668688e-003   1.0003569623e+000  -3.0397635350e-003   4.4957926629e-004  -1.8039031430e-004
  4.8208750000e+008  -5.2301394462e-004   7.8099025418e-005   9.8464530994e-001  -9.3554403576e-003   9.9948871167e-001  -2.8343332477e-003   5.1991290025e-004   5.4043947161e-006
  4.9067500000e+008  -1.8868169019e-005  -1.3321178781e-004   9.8348698419e-001  -9.9809863488e-003   9.9990570391e-001  -3.1733339272e-003   1.1898378072e-004  -1.0217177412e-004
  4.9926250000e+008  -1.5645097158e-004  -2.5555348051e-004   9.8433642956e-001  -9.6962885087e-003   9.9979678020e-001  -3.2805009078e-003   4.7850054214e-004  -8.6047919223e-005
  5.0785000000e+008  -4.5524364644e-004  -4.3970269652e-004   9.8310170623e-001  -1.0153781867e-002   9.9973203981e-001  -2.1921062900e-003   3.0403406079e-004   4.5458956262e-004
  5.1643750000e+008  -3.0678014450e-004   4.0578192442e-005   9.8340077471e-001  -8.8120837200e-003   1.0003869029e+000  -2.5255050242e-003   7.2488496606e-004   2.8689912625e-004
  5.2502500000e+008  -5.5291814963e-004   2.9738029763e-004   9.8514593118e-001  -9.1193066559e-003   1.0001730842e+000  -2.3700423360e-003   2.1574342205e-004  -1.9638806390e-004
  5.3361250000e+008   3.0129704978e-004   4.9562803932e-004   9.8561197878e-001  -1.0348667324e-002   1.0004777466e+000  -2.5557669214e-003   1.0016068175e-004  -4.0532063603e-004
  5.4220000000e+008   7.5770557995e-004   2.3525630244e-004   9.8607957512e-001  -1.0973072840e-002   1.0005656831e+000  -3.2116150042e-003  -7.2946498491e-004  -1.8236657559e-004
  5.5078750000e+008   4.7734399025e-004  -7.0799748934e-004   9.8709174826e-001  -1.0072280133e-002   1.0001394310e+000  -3.1736764674e-003  -6.9096415775e-004  -1.7765438272e-004
  5.5937500000e+008   3.7762112545e-004  -7.4572183823e-004   9.9016834866e-001  -8.1065890463e-003   1.0002381190e+000  -3.3536904356e-003  -7.9991421066e-004   1.6588610867e-004
  5.6796250000e+008   2.2817661509e-004  -8.2972090114e-004   9.9391409541e-001  -8.5460348286e-003   1.0006460802e+000  -3.0926504634e-003  -1.0337718567e-003   4.6479369286e-004
  5.7655000000e+008  -3.2472903230e-004  -9.7359082040e-004   9.9302062999e-001  -8.8791438962e-003   1.0004365748e+000  -3.7908729009e-003  -7.7178218808e-004   7.4788880556e-004
  5.8513750000e+008  -4.9140898633e-004  -9.6194981589e-004   9.9240745222e-001  -8.6516108406e-003   9.9960370257e-001  -3.5931092799e-003  -7.0173719678e-004   9.2873505390e-004
  5.9372500000e+008  -7.2928508973e-004  -8.6506355886e-004   9.9022507388e-001  -8.2182839622e-003   1.0001004476e+000  -4.1107252246e-003  -5.3561239393e-004   1.0315757712e-003
  6.0231250000e+008  -1.1422029139e-003  -4.6563599035e-004   9.9050396527e-001  -8.1902516377e-003   1.0007563498e+000  -3.6620200781e-003  -3.8433842034e-004   1.0210652729e-003
  6.1090000000e+008  -9.1023020129e-004  -2.1069651286e-004   9.9290307402e-001  -8.9319808833e-003   1.0000838888e+000  -3.6904642279e-003  -3.9200200882e-004   1.0839416071e-003
  6.1948750000e+008  -8.6616578011e-004  -7.9160590433e-007   9.9397826572e-001  -6.7266598201e-003   9.9950371109e-001  -3.2320838598e-003  -1.0610168243e-004   8.3379483896e-004
  6.2807500000e+008  -7.6723770550e-004   1.0954582418e-004   9.9414335670e-001  -8.7214418482e-003   9.9990046038e-001  -3.6200057769e-003   7.4630376789e-005   5.2251131434e-004
  6.3666250000e+008  -4.3786903179e-004   6.2264740706e-004   9.9408683171e-001  -7.6840659586e-003   1.0003895332e+000  -3.9487950527e-003   1.3834727591e-004   3.9410396798e-004
  6.4525000000e+008  -4.7562143723e-006   5.6825181403e-004   9.9428332600e-001  -6.9813347765e-003   1.0004638468e+000  -3.4582466121e-003   3.9044664888e-004   1.2794967500e-004
  6.5383750000e+008   2.4376522499e-004   1.7534105624e-004   9.9414116276e-001  -5.8956771061e-003   9.9984887665e-001  -3.4591569332e-003   4.9133707206e-004  -5.6908533262e-005
  6.6242500000e+008   2.9645357820e-004   1.7436764038e-004   9.9209749326e-001  -7.8382597154e-003   1.0004611138e+000  -4.1645572672e-003   3.3795388864e-004  -2.1851831530e-004
  6.7101250000e+008   4.3891718152e-004  -9.8860993424e-005   9.8710879274e-001  -8.3019703673e-003   1.0000022563e+000  -2.8142567617e-003   2.6888858848e-004  -5.9559792245e-004
  6.7960000000e+008   6.5954650999e-004  -3.4834097614e-004   9.8676287071e-001  -9.7982759435e-003   1.0003248545e+000  -3.5614473165e-003   1.5757575981e-004  -9.4565920510e-004
  6.8818750000e+008   3.2476082445e-004  -8.4752555098e-004   9.8821868058e-001  -9.7827046691e-003   1.0000419832e+000  -3.6411867486e-003   2.1385305521e-005  -1.0538702831e-003
  6.9677500000e+008   1.1649528366e-004  -9.6732809820e-004   9.9358851155e-001  -7.9505770130e-003   1.0000907981e+000  -3.5982533117e-003  -2.6519802768e-004  -1.0475960521e-003
  7.0536250000e+008  -3.5042955616e-004  -1.1537358468e-003   9.9263356773e-001  -8.1210882273e-003   9.9973467451e-001  -3.4623404443e-003  -2.6297502943e-004  -1.2689982686e-003
  7.1395000000e+008  -6.4851676268e-004  -1.0867368592e-003   9.8552426419e-001  -1.0576946918e-002   9.9988993020e-001  -3.6176871678e-003  -6.0019240431e-004  -1.1189150549e-003
  7.2253750000e+008  -1.1786279732e-003  -7.3080824054e-004   9.9068350079e-001  -7.9763077173e-003   9.9994334320e-001  -3.5700167742e-003  -7.6052205859e-004  -1.0211686754e-003
  7.3112500000e+008  -1.1300225855e-003  -4.5476468288e-004   9.9133199603e-001  -8.2146309212e-003   9.9986420635e-001  -3.2140868555e-003  -1.0160447729e-003  -9.1793310054e-004
  7.3971250000e+008  -1.0503143184e-003   8.9124372820e-005   9.9245124231e-001  -8.2464269703e-003   9.9948936552e-001  -4.0242553555e-003  -1.0791749720e-003  -6.5081864782e-004
  7.4830000000e+008  -9.3534066648e-004   5.7439621325e-004   9.9202463864e-001  -7.1468378407e-003   9.9989563853e-001  -4.0734322946e-003  -9.3627076164e-004  -5.7454362145e-004
  7.5688750000e+008  -7.3040354818e-004   7.0756440672e-004   9.9284076874e-001  -8.4799574675e-003   1.0000248730e+000  -4.0961498371e-003  -1.1527285372e-003  -8.0065582727e-005
  7.6547500000e+008  -2.0462496207e-004   9.2713910788e-004   9.9283763285e-001  -8.6649150552e-003   9.9969077506e-001  -3.8775127367e-003  -9.9050857177e-004   2.4475469079e-005
  7.7406250000e+008   2.0362804636e-004   8.5935892460e-004   9.9196993959e-001  -8.8531155240e-003   9.9961820294e-001  -3.6703757678e-003  -8.6360596621e-004   3.8366692515e-004
  7.8265000000e+008   3.7948054043e-004   5.3950740515e-004   9.9127585372e-001  -8.2883202330e-003   9.9933568363e-001  -3.4289269206e-003  -6.7702351019e-004   7.8764191528e-004
  7.9123750000e+008   5.5806568568e-004   1.9422722910e-004   9.9119175875e-001  -7.3655031902e-003   9.9945183973e-001  -3.0041821233e-003  -4.3940936302e-004   6.5461334438e-004
  7.9982500000e+008   4.7659873581e-004   1.4339042330e-004   9.9120854934e-001  -7.4854609014e-003   9.9970657243e-001  -2.7771730967e-003  -3.9725414338e-004   6.4063627441e-004
  8.0841250000e+008   8.7136503155e-004  -7.9552767625e-006   9.9211335457e-001  -8.6543450615e-003   9.9979091721e-001  -3.2772470575e-003  -2.0082795954e-004   8.2201287383e-004
  8.1700000000e+008   8.8378161122e-004  -1.5765437348e-004   9.9351051299e-001  -7.7667750838e-003   1.0001285826e+000  -3.7506141437e-003  -2.4648628892e-004   8.3211150499e-004
  8.2558750000e+008   1.1661935068e-003  -3.3341657386e-004   9.9442072941e-001  -6.8077969727e-003   1.0003837145e+000  -3.9522187396e-003  -4.2400798617e-004   9.4354059119e-004
  8.3417500000e+008   9.8931139458e-004  -9.4269263341e-004   9.9386690870e-001  -8.1567888918e-003   1.0009926791e+000  -3.8784543633e-003  -1.3931042791e-004   1.1961632065e-003
  8.4276250000e+008   5.9724470233e-004  -1.1697867038e-003   9.9309802427e-001  -7.6587554067e-003   9.9952383941e-001  -3.9120187669e-003  -1.4403512049e-004   1.1727845943e-003
  8.5135000000e+008   1.9915419224e-004  -1.2616580225e-003   9.9184298691e-001  -8.5875082396e-003   1.0005644120e+000  -4.0474431901e-003   2.1003806464e-004   1.2256442018e-003
  8.5993750000e+008  -2.3746091921e-004  -1.3178388175e-003   9.9079718112e-001  -8.9099570040e-003   9.9966048872e-001  -5.3680085608e-003   3.6214955161e-004   1.0480312232e-003
  8.6852500000e+008  -5.8922253978e-004  -9.4595493182e-004   9.9189217588e-001  -9.2474608019e-003   9.9992983120e-001  -3.8657293976e-003   7.2211079447e-004   9.4033873827e-004
  8.7711250000e+008  -6.8131863184e-004  -6.0558850239e-004   9.9077814796e-001  -8.4678192854e-003   9.9999803120e-001  -4.3323710704e-003   5.7784916358e-004   4.4903659815e-004
  8.8570000000e+008  -5.5733814277e-004  -3.1339686292e-004   9.9371803060e-001  -7.7158002291e-003   9.9980505556e-001  -4.7256446739e-003   5.8110524993e-004   7.4422589144e-005
  8.9428750000e+008  -4.0139847431e-004  -1.3782187237e-004   9.9403421316e-001  -9.9823236293e-003   1.0001206569e+000  -4.7210730538e-003   3.3458163120e-004  -3.0947142492e-004
  9.0287500000e+008   3.3963368674e-005  -1.2224828988e-004   9.9493650777e-001  -8.6245382340e-003   9.9968595438e-001  -5.0563856731e-003   3.2758045910e-004  -5.1361512049e-004
  9.1146250000e+008   1.5102287502e-004  -1.7048816022e-004   9.9423768844e-001  -8.3999355994e-003   9.9890804841e-001  -5.1260131263e-003  -2.0122734940e-004  -4.9710339337e-004
  9.2005000000e+008   2.3366559173e-004  -3.0778240239e-004   9.9430880922e-001  -8.4984510526e-003   9.9888932938e-001  -3.3972136081e-003  -5.7769954305e-004  -5.6165614046e-004
  9.2863750000e+008   5.9072014161e-004  -5.1523963190e-004   9.9420770458e-001  -8.1585320127e-003   9.9944273638e-001  -5.3277191275e-003  -6.9977941292e-004  -7.9325567878e-004
  9.3722500000e+008   3.6095921870e-004  -7.8069119040e-004   9.9555394967e-001  -7.0545615789e-003   9.9996292133e-001  -4.3002618951e-003  -1.0966094387e-003  -8.2571436777e-004
  9.4581250000e+008   2.8708946533e-004  -1.0499729422e-003   9.9313415082e-001  -6.9933053350e-003   9.9924898868e-001  -3.9794306830e-003  -1.2991667977e-003  -4.6699255176e-004
  9.5440000000e+008  -1.0396287628e-004  -1.2251314507e-003   9.9369443235e-001  -8.7907202425e-003   1.0002535949e+000  -4.5158160480e-003  -1.4991799555e-003  -3.5679160687e-004
  9.6298750000e+008  -3.4775892543e-004  -1.2467960983e-003   9.9663591154e-001  -6.9106896426e-003   1.0000489523e+000  -4.5395230853e-003  -1.5370996072e-003  -1.3855933665e-004
  9.7157500000e+008  -7.1992683505e-004  -1.2018147312e-003   9.9621169854e-001  -8.0623432143e-003   1.0005597120e+000  -4.7267626408e-003  -1.4907080169e-003  -1.1489354276e-004
  9.8016250000e+008  -9.0871523771e-004  -9.7432139083e-004   9.9552600779e-001  -7.7853639138e-003   9.9965798154e-001  -5.9685832510e-003  -1.5606287854e-003   6.6293185819e-005
  9.8875000000e+008  -1.2045392202e-003  -5.3400203337e-004   9.9536062269e-001  -7.0360172974e-003   9.9932708019e-001  -4.8130373860e-003  -1.3221413148e-003   2.9182462020e-004
  9.9733750000e+008  -1.1718092887e-003  -2.4604985583e-004   9.9390145687e-001  -7.6081891286e-003   9.9888709839e-001  -3.7032977596e-003  -1.1938223255e-003   3.0751063290e-004
  1.0059250000e+009  -1.0301133284e-003   1.6669150622e-004   9.9537675581e-001  -6.8497096352e-003   9.9999034553e-001  -4.3407522690e-003  -7.1453522755e-004   2.8912960738e-004
  1.0145125000e+009  -8.5477140604e-004   4.8265948155e-004   9.8818153393e-001  -1.1372611293e-002   9.9914095644e-001  -4.7294211764e-003  -4.1838848943e-004   4.2721781191e-004
  1.0231000000e+009  -5.4020312857e-004   6.8306183398e-004   9.8798302408e-001  -9.6815655887e-003   9.9922325738e-001  -4.6327931541e-003  -2.3782922354e-004   2.9380882828e-004
  1.0316875000e+009  -2.3414652952e-004   9.9702993301e-004   9.8853082907e-001  -1.2115234190e-002   9.9913858130e-001  -5.3088307485e-003   2.1682166674e-004   2.1074818343e-004
  1.0402750000e+009   2.7627925860e-004   7.8023471593e-004   9.9440892327e-001  -8.7839862446e-003   9.9917624243e-001  -3.8553261115e-003   3.9259002531e-004   1.0146579213e-004
  1.0488625000e+009   4.4624337034e-004   5.7771342723e-004   9.9519035403e-001  -7.9777171801e-003   9.9983879698e-001  -4.3917819298e-003   6.9244539212e-004  -3.3722581104e-005
  1.0574500000e+009   7.2712506012e-004   2.7394485526e-004   9.9416430395e-001  -8.5590246743e-003   9.9945538113e-001  -4.7794629298e-003   9.9795784493e-004  -3.5681347930e-004
