# Hz S RI R 50.000000
! Metas.Vna.Tools, 2.8.8664.20301
! Metas.Vna.Data, 2.8.8664.20285
! Created: UTC 2024.02.11 10:08:46
! FREQ                re:S1,1             im:S1,1             re:S2,1             im:S2,1             re:S1,2             im:S1,2             re:S2,2             im:S2,2          
  1.3000000000e+008  -2.8258058890e-004  -1.3748084718e-003   9.8819391468e-001  -7.3278448411e-003   1.0009940112e+000  -1.1217069703e-004   1.6923079349e-003   4.1350128756e-004
  1.3858750000e+008  -1.0035669953e-003  -1.3939715122e-003   9.8780413199e-001  -7.1426241487e-003   1.0006602223e+000   5.0519325653e-004   1.4090339456e-003   9.9145843889e-005
  1.4717500000e+008  -1.6326521256e-003  -6.6120485244e-004   9.8894197946e-001  -7.6601363598e-003   1.0003774312e+000  -9.9944011010e-005   7.7401869355e-004   2.9639051823e-004
  1.5576250000e+008  -1.5786259178e-003   5.4362266939e-004   9.8972862470e-001  -7.9853940851e-003   1.0005687788e+000   6.3381532060e-004   1.2820963145e-003  -1.3561944407e-003
  1.6435000000e+008  -9.7176138344e-004   4.3305120065e-004   9.8896108600e-001  -7.2551193975e-003   1.0009244712e+000  -1.3528267868e-004   7.0688531291e-004  -6.2290091118e-004
  1.7293750000e+008  -6.5028224466e-004   5.6479677276e-004   9.8961440198e-001  -6.8666141417e-003   1.0007167963e+000   2.0356601125e-004   9.0306352744e-004  -1.1474196480e-003
  1.8152500000e+008  -6.2459872376e-004   8.1922118943e-004   9.8635961424e-001  -8.0301767445e-003   1.0001933873e+000   6.4042731651e-006   8.1457523707e-004  -9.4987028057e-004
  1.9011250000e+008   1.9569115834e-005   6.3137545500e-004   9.8768612037e-001  -9.7600990634e-003   1.0007247575e+000  -4.3456367301e-004   3.2926499827e-004  -1.5683914675e-003
  1.9870000000e+008   3.5080697229e-005   7.5540815620e-004   9.8862963377e-001  -7.2984340352e-003   1.0003435172e+000  -6.2295056795e-004   1.8852865464e-004  -4.7450659975e-004
  2.0728750000e+008   4.1466822757e-004   2.3160192157e-005   9.8832742173e-001  -7.5044714436e-003   1.0004398513e+000  -1.4238723400e-004   8.0962561634e-005   1.0867828027e-004
  2.1587500000e+008   1.2047375032e-004  -2.4258578246e-004   9.8922353475e-001  -7.8581507144e-003   9.9985771866e-001  -1.5389607181e-005  -5.5777890930e-004   1.9508201084e-004
  2.2446250000e+008   3.8109061858e-004  -6.9386770639e-004   9.8872297758e-001  -7.7537123063e-003   9.9988689861e-001  -6.0376834826e-004  -3.7585510117e-004  -7.7838754225e-005
  2.3305000000e+008   1.0458046977e-004  -2.9795113865e-004   9.8917620601e-001  -8.4051746142e-003   1.0007748661e+000  -3.2141559447e-004  -1.6865725962e-004   1.0407619173e-004
  2.4163750000e+008  -4.2267269710e-004  -1.0318294931e-004   9.8841653847e-001  -8.7759090138e-003   1.0000711974e+000  -8.6953979419e-004  -4.3517694562e-004   1.2521124297e-004
  2.5022500000e+008  -2.9225879178e-004  -6.9301037967e-004   9.8773546328e-001  -8.0922317432e-003   1.0006079989e+000  -4.0362211645e-004  -1.0862099881e-003   5.2041900062e-004
  2.5881250000e+008  -7.6002406825e-004  -7.6790966427e-004   9.8565977283e-001  -8.5345377552e-003   1.0002443528e+000  -9.9762816799e-004  -2.7364546529e-004   1.0595867118e-003
  2.6740000000e+008  -8.2590492392e-004  -3.7777615028e-004   9.8553687706e-001  -9.2133284771e-003   1.0007944629e+000  -7.3869005205e-004  -5.6947909918e-004   5.8305322265e-004
  2.7598750000e+008   8.7645812273e-005  -4.5054228461e-004   9.8557780063e-001  -9.1269948333e-003   1.0000630807e+000  -5.9931279517e-004  -4.8430905953e-004   8.4998202764e-004
  2.8457500000e+008  -4.9814488117e-004  -1.7454056723e-004   9.8551882568e-001  -7.9747432916e-003   1.0008601090e+000  -4.1563145062e-004  -5.0507302833e-004   6.6100973930e-004
  2.9316250000e+008  -2.9590161609e-004  -3.8722005557e-004   9.8708029873e-001  -8.9860219733e-003   9.9990515691e-001  -1.2530916457e-003  -4.4330738614e-004   4.2417414918e-004
  3.0175000000e+008  -8.7693011039e-004   1.8180097708e-004   9.8907793283e-001  -1.0106688627e-002   1.0003084111e+000  -6.5366511128e-004  -6.4548981230e-004   5.0388428101e-004
  3.1033750000e+008  -8.2165374721e-004   2.5648330694e-004   9.8848698592e-001  -7.9877797405e-003   1.0015188616e+000  -9.0456822161e-004  -6.9935779907e-004   4.2994209424e-004
  3.1892500000e+008  -8.5177476727e-004   4.8122934382e-005   9.8693367673e-001  -1.0338567011e-002   1.0003663049e+000  -3.6759339286e-004  -7.9339214597e-004   1.0288562622e-005
  3.2751250000e+008  -7.8023361586e-004   1.2486157600e-004   9.8701028631e-001  -1.0267066964e-002   1.0000086330e+000  -1.4539655087e-003  -6.5008415532e-004   3.0717894573e-004
  3.3610000000e+008  -8.3637457480e-004   2.7895258715e-004   9.8808798651e-001  -8.7822991121e-003   1.0017796175e+000  -1.3267145846e-003  -4.3639648351e-004   7.9667355118e-005
  3.4468750000e+008  -9.3312548722e-004   1.3965291225e-004   9.8605320412e-001  -8.4287966220e-003   1.0010791223e+000  -4.9932115386e-004  -4.7574428809e-004  -2.7658386554e-005
  3.5327500000e+008  -4.4257536761e-004  -6.6985453765e-005   9.8732300968e-001  -7.7900103102e-003   9.9961737123e-001  -7.8113628003e-004  -6.5605697764e-004   2.7697213844e-005
  3.6186250000e+008  -4.4932902024e-004   3.4744275550e-004   9.8956552175e-001  -8.3448012757e-003   1.0008209842e+000  -4.8994117709e-004  -5.9285814729e-004   3.0400015235e-004
  3.7045000000e+008  -5.9840950631e-004   6.5513831226e-004   9.8609833290e-001  -8.8061759280e-003   1.0009895548e+000  -1.5751933457e-003  -6.6067044287e-004   1.2294202873e-004
  3.7903750000e+008  -3.7691484340e-004   7.6474660956e-004   9.8809630610e-001  -8.0458636876e-003   1.0005381587e+000  -1.2416374868e-003  -6.4333118198e-004   6.1839915801e-005
  3.8762500000e+008  -3.1311519947e-004   6.1336617301e-004   9.8937318639e-001  -7.6012398225e-003   9.9975846808e-001  -8.3138321109e-004  -3.2418724252e-004   4.5480957999e-004
  3.9621250000e+008  -2.6833804545e-004   5.0597103468e-004   9.8782365023e-001  -8.6315401941e-003   1.0009590558e+000  -1.2522538298e-003  -6.7359611008e-004   4.1036397716e-004
  4.0480000000e+008   4.1962552010e-004   4.6057049597e-004   9.8712303364e-001  -9.3099823770e-003   1.0000583487e+000  -1.1629273495e-003  -2.7578853829e-004   3.2658181932e-004
  4.1338750000e+008   2.5958287866e-004   2.8707402106e-004   9.8683774042e-001  -9.5404406225e-003   1.0008359801e+000  -5.7130343527e-004   1.6348338025e-004   4.2752487634e-004
  4.2197500000e+008   2.0250899190e-004  -7.8440634322e-006   9.8696336116e-001  -9.4362752567e-003   1.0003261108e+000  -1.0093616867e-003  -4.0653088614e-005   5.1129164974e-004
  4.3056250000e+008   3.3121142500e-004   1.0024475389e-004   9.8983895867e-001  -8.5866753825e-003   1.0006797273e+000  -1.2735524932e-003   2.6928885552e-004   4.6407068584e-004
  4.3915000000e+008   3.8679923112e-005  -4.0446577700e-004   9.9143124194e-001  -7.4842820641e-003   1.0001200825e+000  -1.7794792562e-003   2.6166795743e-004   3.0772604412e-004
  4.4773750000e+008   9.3787518210e-005  -4.7314109514e-004   9.9006209672e-001  -8.4737434824e-003   1.0002051149e+000  -1.3677471004e-003   2.9106768597e-004   2.2044220499e-004
  4.5632500000e+008  -2.0068558986e-004  -5.0923302027e-004   9.8781866693e-001  -8.5552269296e-003   1.0002278772e+000  -1.3835973836e-003   6.7178429231e-004   1.1112550419e-004
  4.6491250000e+008  -2.8396709594e-004  -3.4232032157e-004   9.8838914734e-001  -9.0723856806e-003   1.0004595655e+000  -1.3994399980e-003   5.6235781134e-004   2.3132436481e-004
  4.7350000000e+008  -4.7500215258e-004  -2.7513590326e-004   9.8808959589e-001  -8.5320031482e-003   1.0005106250e+000  -1.4130506068e-003   2.4931914984e-004   6.8217953019e-005
  4.8208750000e+008  -4.2284779750e-004   1.0638734504e-004   9.8638577072e-001  -8.7246582004e-003   1.0000283419e+000  -8.1963664718e-004   5.8561269617e-004   1.9263050734e-004
  4.9067500000e+008  -1.7087341588e-004  -3.0687109903e-004   9.8718021045e-001  -9.0480009908e-003   1.0003399589e+000  -1.2434171249e-003   5.3910876510e-004   1.0190659806e-004
  4.9926250000e+008  -1.9706696116e-004  -1.7458338150e-004   9.8777019576e-001  -8.6729488526e-003   9.9998155008e-001  -1.5444150479e-003   6.1815338907e-004   5.3521570731e-005
  5.0785000000e+008  -5.5860693063e-004  -2.5781862834e-004   9.8692310850e-001  -8.2800550528e-003   9.9972547407e-001  -4.7985160956e-004   4.7520112135e-004   3.7402104033e-004
  5.1643750000e+008  -2.6905195762e-004   1.0821692055e-004   9.8570134379e-001  -8.1060339628e-003   1.0004905010e+000  -1.2022093394e-003   6.7810085975e-004  -7.1007611074e-005
  5.2502500000e+008  -2.2836187527e-004   3.9004083472e-004   9.8770340231e-001  -8.5178168992e-003   1.0006819976e+000  -7.2588008555e-004   2.8562373274e-004  -2.0858863311e-004
  5.3361250000e+008   3.3489715574e-004   3.4912662814e-004   9.8793415052e-001  -9.8908551628e-003   1.0000780825e+000  -9.1010061807e-004   1.2396483442e-005  -7.5876144026e-004
  5.4220000000e+008   5.3778281476e-004  -1.1215806561e-005   9.8873710814e-001  -8.8362585100e-003   1.0005297475e+000  -1.3762414188e-003  -6.6928117868e-004  -2.6370509522e-004
  5.5078750000e+008   4.7404155223e-004  -5.0355860250e-004   9.8951344619e-001  -9.1281478219e-003   9.9992914896e-001  -1.8222004938e-003  -8.9170093494e-004  -4.7779887722e-004
  5.5937500000e+008   3.9661735972e-004  -6.6400744488e-004   9.8555081216e-001  -9.2995745222e-003   1.0004034256e+000  -1.6528057294e-003  -8.4412430582e-004   2.1200191238e-005
  5.6796250000e+008   3.8359683330e-004  -8.1326021651e-004   9.8660896314e-001  -9.2106260590e-003   1.0009642666e+000  -1.4572923520e-003  -1.0111895355e-003   3.5358049814e-004
  5.7655000000e+008  -2.2212459004e-004  -1.0771112664e-003   9.8737624900e-001  -1.1533377686e-002   1.0007287917e+000  -2.2528153568e-003  -9.3457800200e-004   6.8660169276e-004
  5.8513750000e+008  -2.9672893835e-004  -8.4616504409e-004   9.8682288073e-001  -9.5997236854e-003   9.9969716807e-001  -1.4945950368e-003  -9.8459973283e-004   7.8295887749e-004
  5.9372500000e+008  -5.9424754085e-004  -9.7248133976e-004   9.8512052763e-001  -9.6275120443e-003   1.0001828390e+000  -1.9345938029e-003  -7.3608724002e-004   8.1609198519e-004
  6.0231250000e+008  -8.8829098119e-004  -5.5714177006e-004   9.8629927225e-001  -9.8673566676e-003   1.0003430345e+000  -1.7043611084e-003  -6.0926421592e-004   8.4817970847e-004
  6.1090000000e+008  -8.6881661787e-004  -4.1497032596e-004   9.8541385049e-001  -1.0062376443e-002   9.9975562910e-001  -1.3621154508e-003  -6.3566708943e-004   8.7090919767e-004
  6.1948750000e+008  -1.0360100085e-003  -2.3587142881e-005   9.8504126605e-001  -1.0909061846e-002   9.9941987800e-001  -2.3024684369e-003  -4.8256219446e-004   5.6756640803e-004
  6.2807500000e+008  -8.1987227985e-004  -1.6165322277e-004   9.8481779572e-001  -1.1919421259e-002   1.0001414420e+000  -1.9404294767e-003  -8.8279874994e-005   3.6837935971e-004
  6.3666250000e+008  -4.8008545707e-004   4.9950937751e-004   9.8561071301e-001  -1.0344663678e-002   9.9994636239e-001  -2.0640957823e-003  -7.9081587008e-005   3.7244838797e-004
  6.4525000000e+008  -1.6065993528e-004   6.5340885792e-004   9.8529204550e-001  -1.0527852364e-002   9.9991571986e-001  -1.8006360038e-003   1.7039508469e-004   1.3015003796e-004
  6.5383750000e+008   7.8340587719e-005   4.3448293145e-004   9.8595104079e-001  -9.1668215257e-003   9.9979004942e-001  -1.3385238998e-003   1.7041171207e-004  -1.4457355257e-004
  6.6242500000e+008   4.0715774099e-004   3.3718690288e-004   9.8406073361e-001  -9.6225411046e-003   1.0003815998e+000  -2.2907709497e-003   2.2923801451e-004  -2.1645245723e-004
  6.7101250000e+008   4.5448080907e-004  -1.0952415271e-004   9.8603342439e-001  -7.9792607125e-003   9.9971866227e-001  -9.0401422344e-004   1.5938134017e-004  -5.6817723034e-004
  6.7960000000e+008   7.9365919926e-004  -5.6908217223e-004   9.8726131321e-001  -9.8160227139e-003   1.0004684154e+000  -1.5814376791e-003   7.9533937258e-005  -8.4632119795e-004
  6.8818750000e+008   2.9725535509e-004  -8.5765082239e-004   9.8954005015e-001  -8.2506573019e-003   1.0001857271e+000  -2.1761758307e-003   1.6380725758e-004  -9.9472716673e-004
  6.9677500000e+008   2.0394867325e-004  -9.7943850757e-004   9.9063811952e-001  -7.7532309694e-003   1.0002045027e+000  -2.2223603471e-003  -9.1649291626e-005  -1.1028386291e-003
  7.0536250000e+008  -2.2185381296e-004  -1.1058329505e-003   9.8887181940e-001  -8.7565114108e-003   1.0001308290e+000  -2.0553493639e-003  -2.5890399955e-004  -1.3340461342e-003
  7.1395000000e+008  -5.7340727436e-004  -1.0730348314e-003   9.8979207012e-001  -8.3051962896e-003   1.0005438231e+000  -1.9127261828e-003  -4.5451614364e-004  -1.3007094525e-003
  7.2253750000e+008  -1.0041514399e-003  -9.1758955292e-004   9.8749229810e-001  -8.8434561991e-003   1.0000870822e+000  -2.1456968213e-003  -6.1048537221e-004  -1.2262267585e-003
  7.3112500000e+008  -1.0701321210e-003  -6.2318575514e-004   9.8906145247e-001  -9.0233676502e-003   1.0003885321e+000  -1.2266630298e-003  -7.2458114945e-004  -1.0741819059e-003
  7.3971250000e+008  -1.1074754751e-003  -9.4798906502e-005   9.8815235534e-001  -1.0106601384e-002   9.9951699267e-001  -2.5709175881e-003  -1.0043086319e-003  -8.1954576468e-004
  7.4830000000e+008  -1.0921118295e-003   4.6600861683e-004   9.8952163057e-001  -8.1350627802e-003   9.9902345585e-001  -1.6679757640e-003  -9.5922056349e-004  -9.0296724733e-004
  7.5688750000e+008  -8.7478745026e-004   6.9618644451e-004   9.9008651650e-001  -9.0653388234e-003   9.9927562198e-001  -2.3119623554e-003  -1.1608998829e-003  -4.2833993485e-004
  7.6547500000e+008  -2.4395281076e-004   8.6088246333e-004   9.8959245858e-001  -1.0499759520e-002   9.9945365545e-001  -1.7558709118e-003  -1.2176318070e-003  -2.3299455206e-004
  7.7406250000e+008   6.6400717465e-006   8.0361112583e-004   9.8934929929e-001  -8.7580384653e-003   9.9982266634e-001  -1.6563501287e-003  -9.7909244870e-004   1.5053429955e-004
  7.8265000000e+008   3.7492347511e-004   6.7912448689e-004   9.8931985361e-001  -8.3951209121e-003   9.9937537405e-001  -1.4978153746e-003  -7.9440184870e-004   4.7445796210e-004
  7.9123750000e+008   6.3942519254e-004   4.4931181404e-004   9.9055487787e-001  -7.5970373386e-003   1.0001418225e+000  -1.7242775971e-003  -9.2863978986e-004   4.7454499758e-004
  7.9982500000e+008   8.7030522516e-004   3.1603150855e-004   9.9006120121e-001  -7.8271099353e-003   1.0000557129e+000  -1.2568144011e-003  -6.4234244358e-004   7.6831155669e-004
  8.0841250000e+008   1.1497676819e-003   1.0509573202e-004   9.8975920648e-001  -9.0824040551e-003   1.0000720925e+000  -2.1226376723e-003  -5.7167676883e-004   8.6709089354e-004
  8.1700000000e+008   1.2001898854e-003  -4.6040327323e-004   9.9096770086e-001  -8.4359278210e-003   1.0001297940e+000  -1.7779045883e-003  -4.3627588366e-004   9.6000987475e-004
  8.2558750000e+008   1.1831052744e-003  -5.9118342761e-004   9.9171734542e-001  -8.4583363169e-003   1.0001651503e+000  -2.4743665735e-003  -4.7034043254e-004   1.2641618784e-003
  8.3417500000e+008   8.9903587354e-004  -1.1620918885e-003   9.9078826560e-001  -8.3060737183e-003   1.0014112451e+000  -2.1631481687e-003  -3.0654868456e-004   1.3920081685e-003
  8.4276250000e+008   5.0180838094e-004  -1.3284745590e-003   9.9061882578e-001  -8.6126702177e-003   9.9937955717e-001  -1.9699111887e-003   4.6446213192e-006   1.2446254048e-003
  8.5135000000e+008  -2.0863367637e-005  -1.3209509855e-003   9.9190676355e-001  -9.0063934933e-003   1.0006831853e+000  -2.3372757480e-003   3.3064946339e-004   1.4049952901e-003
  8.5993750000e+008  -3.3843844858e-004  -1.2220426642e-003   9.9115745519e-001  -7.2397529811e-003   1.0001380986e+000  -3.2482227383e-003   2.9657289082e-004   1.2090974783e-003
  8.6852500000e+008  -3.5237551340e-004  -1.0564869509e-003   9.8868830012e-001  -9.6410086190e-003   9.9963794256e-001  -2.1710292872e-003   6.5410008001e-004   8.4726606799e-004
  8.7711250000e+008  -5.1858845951e-004  -6.5942225033e-004   9.8861006395e-001  -1.0190678713e-002   1.0003578020e+000  -2.6765517156e-003   5.2373541510e-004   4.3849329788e-004
  8.8570000000e+008  -3.8129589493e-004  -4.8009162623e-004   9.9008299922e-001  -8.0837098629e-003   1.0002265039e+000  -2.3439496365e-003   4.8593454835e-004   1.5780500911e-004
  8.9428750000e+008  -4.2238778812e-004  -2.8589866136e-004   9.9020855412e-001  -9.6697892645e-003   1.0001334098e+000  -2.6234911209e-003   2.9566162139e-004  -1.3307165207e-004
  9.0287500000e+008  -3.8173765541e-006  -2.9662278443e-004   9.9016828164e-001  -9.2355912375e-003   9.9947969872e-001  -3.1112064090e-003   1.8038436393e-004  -3.5236424255e-004
  9.1146250000e+008   2.3404536862e-004  -2.9426229443e-004   9.8820752462e-001  -1.0526242833e-002   9.9885531477e-001  -3.0753427132e-003  -3.4970123556e-004  -4.9325603953e-004
  9.2005000000e+008   2.2486808462e-004  -4.5846794415e-004   9.8727029978e-001  -8.2115158392e-003   9.9916030788e-001  -1.7769156522e-003  -5.5538915836e-004  -5.5536794531e-004
  9.2863750000e+008   5.2995886744e-004  -5.7721923747e-004   9.9003627769e-001  -9.7821103688e-003   9.9966374548e-001  -3.1555374872e-003  -8.4296878650e-004  -7.2980787134e-004
  9.3722500000e+008   3.4625414186e-004  -7.7789405866e-004   9.9047918569e-001  -8.7824355681e-003   9.9847527372e-001  -2.8104227418e-003  -9.6865541790e-004  -8.2739698671e-004
  9.4581250000e+008   3.5690687885e-004  -1.1195431365e-003   9.9030020593e-001  -7.5100999112e-003   9.9891563275e-001  -1.9887351293e-003  -1.3399233004e-003  -6.1879741601e-004
  9.5440000000e+008   9.2058402538e-006  -1.2456549413e-003   9.8980728122e-001  -8.9791847853e-003   9.9962732423e-001  -1.9804433876e-003  -1.3719006539e-003  -4.7930021065e-004
  9.6298750000e+008  -2.1083982455e-004  -1.3191258414e-003   9.9255685332e-001  -7.4049324395e-003   1.0006105747e+000  -2.7629810742e-003  -1.5241923411e-003  -3.2457100561e-004
  9.7157500000e+008  -5.1611471114e-004  -1.2707057706e-003   9.9283482486e-001  -7.3461658261e-003   1.0004219419e+000  -2.2763866755e-003  -1.5325408385e-003  -3.2586455337e-004
  9.8016250000e+008  -8.9109943282e-004  -1.0398763608e-003   9.9286528936e-001  -8.5380730974e-003   9.9962004375e-001  -4.4340039252e-003  -1.5472063564e-003  -5.5341270223e-005
  9.8875000000e+008  -1.2185560839e-003  -7.3337222743e-004   9.9191308439e-001  -7.9518809862e-003   9.9870821158e-001  -2.1857470733e-003  -1.5104165290e-003   1.6477957769e-004
  9.9733750000e+008  -1.1863312438e-003  -3.8657033394e-004   9.9122882320e-001  -8.5183052394e-003   9.9898564322e-001  -2.4073706026e-003  -1.3203444263e-003   1.9338479437e-005
  1.0059250000e+009  -1.0206535153e-003  -4.2067718910e-005   9.9121505141e-001  -8.0814549161e-003   1.0001971127e+000  -2.4641157288e-003  -9.2165131439e-004   2.2135081144e-004
  1.0145125000e+009  -9.2593616406e-004   2.8967479662e-004   9.9245083703e-001  -9.7518307728e-003   9.9937724183e-001  -2.1842656631e-003  -6.9355009725e-004   2.1127566344e-004
  1.0231000000e+009  -5.4981966071e-004   4.9591401292e-004   9.9047724217e-001  -8.6507899726e-003   9.9963296037e-001  -3.1434024505e-003  -3.6412880896e-004   2.7772929181e-004
  1.0316875000e+009  -2.5396423700e-004   6.8380290151e-004   9.9148267683e-001  -9.3816679594e-003   9.9984068888e-001  -3.2256831215e-003  -1.3794621741e-004   2.0220043578e-004
  1.0402750000e+009   1.8019953280e-004   7.5208242705e-004   9.8986188594e-001  -9.0648420448e-003   9.9978700219e-001  -2.2209086333e-003   1.5363962816e-004   1.2862427561e-004
  1.0488625000e+009   5.1736208513e-004   4.9470714425e-004   9.9151352368e-001  -8.0677441539e-003   9.9913880646e-001  -2.6823202177e-003   5.3849007518e-004  -1.9882574332e-004
  1.0574500000e+009   6.5354230124e-004   1.5740214728e-004   9.9290652109e-001  -7.7074666472e-003   9.9949111690e-001  -2.5736419928e-003   7.1304304550e-004  -3.2499911957e-004
