# Hz S RI R 50.000000
! Metas.Vna.Tools, 2.8.8664.20301
! Metas.Vna.Data, 2.8.8664.20285
! Created: UTC 2024.02.11 10:08:40
! FREQ                re:S1,1             im:S1,1             re:S2,1             im:S2,1             re:S1,2             im:S1,2             re:S2,2             im:S2,2          
  1.3000000000e+008  -1.6818430473e-004  -1.4186993208e-003   9.8682125438e-001  -8.3682543098e-003   1.0005771786e+000   1.7667111276e-004   1.0975405890e-003   4.8202739919e-004
  1.3858750000e+008  -4.7892104730e-004  -1.0612863584e-003   9.8759164893e-001  -7.6192155393e-003   1.0009991077e+000   3.3222780260e-004   1.4502752757e-003  -3.2067645028e-004
  1.4717500000e+008  -1.2830389350e-003  -1.3002691745e-003   9.8733522624e-001  -9.3709502142e-003   1.0001351622e+000   2.3092773849e-004   9.0524413937e-004   2.2505644718e-004
  1.5576250000e+008  -1.6396394669e-003   2.0088044187e-004   9.8710903498e-001  -8.7396937435e-003   1.0006715847e+000   7.7910939904e-005   1.1602922102e-003  -9.3018496771e-004
  1.6435000000e+008  -5.7574260077e-004   8.5365342610e-004   9.8630215238e-001  -8.1197380540e-003   1.0003421678e+000  -3.0063003173e-004   9.0981675097e-004  -1.5507201512e-004
  1.7293750000e+008  -7.6548876241e-004   3.5670468411e-004   9.8792744733e-001  -7.7208265776e-003   1.0006270637e+000  -3.6970750189e-005   6.9874929491e-004  -1.2367212843e-003
  1.8152500000e+008  -2.3751776870e-004   5.1607299173e-004   9.8595213747e-001  -8.1065029229e-003   1.0004817484e+000  -2.6139297415e-004   7.2545825854e-004  -7.8902529029e-004
  1.9011250000e+008  -8.6505242099e-004   6.0411749162e-004   9.8827900304e-001  -9.3593488929e-003   1.0011994985e+000  -3.6046293602e-004   3.9843827276e-004  -1.5073356650e-003
  1.9870000000e+008  -4.0989516989e-004   6.4690234175e-004   9.8776497161e-001  -8.7699640397e-003   1.0011152266e+000  -2.0580681930e-004   1.9369052344e-004  -4.7473714586e-004
  2.0728750000e+008   1.7767247742e-004   3.6880319528e-005   9.8696939086e-001  -8.4116740497e-003   1.0004169191e+000  -4.5215427108e-004  -2.9831275176e-004  -4.2367815279e-004
  2.1587500000e+008   9.1344420037e-005  -2.5381488938e-004   9.8799469639e-001  -8.0554627053e-003   9.9980443768e-001  -1.3761294751e-004  -3.7393169370e-004  -5.2168620684e-005
  2.2446250000e+008   2.6578838954e-004  -3.7085242499e-004   9.8687485931e-001  -8.2966876955e-003   1.0007990381e+000  -5.1850546824e-004  -1.8857293869e-004   3.1325359902e-004
  2.3305000000e+008   2.5261383963e-004  -1.6662957708e-004   9.8652560394e-001  -9.1813324585e-003   1.0008710412e+000  -6.9177387986e-004  -3.4732800518e-004   2.5239315254e-004
  2.4163750000e+008  -1.9076997231e-004  -3.0486162848e-004   9.8722494673e-001  -1.0608991755e-002   1.0000939510e+000  -7.4351527879e-004  -8.8112038872e-004   2.7234089093e-005
  2.5022500000e+008  -2.9339756153e-004  -5.8739928489e-004   9.8629201558e-001  -8.3742982636e-003   1.0003027072e+000  -5.1926466247e-004  -7.6766207992e-004   7.5967289845e-004
  2.5881250000e+008  -4.8820319782e-004  -7.5361375797e-004   9.8431548129e-001  -9.0855549787e-003   1.0009820300e+000  -5.9617540747e-004  -5.5418880025e-004   5.8309347735e-004
  2.6740000000e+008  -7.5193457994e-004  -5.1393656880e-004   9.8607728100e-001  -9.7046299183e-003   1.0009162067e+000  -1.3353080674e-003  -6.1161978746e-004   3.8339834709e-004
  2.7598750000e+008  -2.9358824307e-004  -3.0939645297e-004   9.8601934389e-001  -9.1663156621e-003   1.0007876874e+000  -1.0538001470e-003  -2.8264862158e-004   5.2146978326e-004
  2.8457500000e+008  -6.4258868802e-004   1.2982415104e-004   9.8549665474e-001  -9.5572852340e-003   1.0012978328e+000  -1.0083282675e-005  -3.1041103528e-004   5.3799182345e-004
  2.9316250000e+008  -6.3444969676e-004  -3.4142890906e-004   9.8733801375e-001  -8.3055743752e-003   1.0004677432e+000  -1.2371734777e-003  -4.8780699811e-004   5.2116636649e-004
  3.0175000000e+008  -1.2164691366e-003  -5.2053464915e-006   9.8690539482e-001  -1.0583466662e-002   1.0006987434e+000  -1.6831661431e-004  -4.3539911944e-004   4.5503032645e-004
  3.1033750000e+008  -8.9782665970e-004   1.8836356035e-004   9.8635709292e-001  -8.5685062432e-003   1.0013618334e+000  -9.9854217580e-004  -7.8100578936e-004   3.6517470992e-004
  3.1892500000e+008  -5.9617774300e-004   5.3902327966e-005   9.8915081886e-001  -8.6509923269e-003   1.0005725934e+000  -6.5587107619e-004  -7.6341955743e-004   2.9435002361e-004
  3.2751250000e+008  -5.6834172757e-004  -9.3623962559e-005   9.8823792521e-001  -9.1642192323e-003   1.0003095673e+000  -2.0216014715e-003  -5.9686336293e-004   4.2193215158e-004
  3.3610000000e+008  -8.5521050739e-004  -1.8604038428e-005   9.8578309703e-001  -8.9956245343e-003   1.0014209256e+000  -7.3234789582e-004  -4.5954378009e-004   6.9794211588e-005
  3.4468750000e+008  -9.0359648361e-004   7.7674828504e-005   9.8401099608e-001  -1.0273042154e-002   1.0008698075e+000  -5.9013332945e-004  -6.3546918990e-004   1.6180345953e-004
  3.5327500000e+008  -8.1845102299e-004   1.7582054396e-004   9.8371383133e-001  -1.0656784212e-002   1.0000808639e+000  -1.2551064724e-003  -4.2366367228e-004   2.5325483288e-004
  3.6186250000e+008  -6.7531845346e-004   3.4862378954e-004   9.8380204986e-001  -1.0763223982e-002   1.0008044047e+000  -8.4101388856e-004  -3.9765052792e-004   3.0777611166e-004
  3.7045000000e+008  -6.1247878436e-004   5.2759979483e-004   9.8323284012e-001  -1.0072475562e-002   1.0007145075e+000  -9.5564331212e-004  -6.1928415212e-004   5.1191878104e-005
  3.7903750000e+008  -1.8755680659e-004   6.7695515101e-004   9.8340402500e-001  -1.0674679886e-002   1.0006088684e+000  -1.4175461818e-003  -5.0783452263e-004  -6.4697468203e-005
  3.8762500000e+008  -2.2847623059e-004   5.8762173645e-004   9.8569242402e-001  -8.3485540931e-003   1.0000686769e+000  -9.2668518320e-004  -4.5608438580e-004   3.0729560360e-004
  3.9621250000e+008  -1.7581746017e-004   2.4679173217e-004   9.8510607962e-001  -8.9228156684e-003   1.0007239789e+000  -1.5749270903e-003  -4.6937609786e-004   4.3667920911e-004
  4.0480000000e+008   2.5104129099e-004   1.5648552442e-004   9.8519552363e-001  -9.9823321381e-003   1.0003803051e+000  -1.3677498367e-003  -5.7495449683e-005   3.7817148848e-004
  4.1338750000e+008   4.8156458111e-004   3.4714931793e-004   9.8368417634e-001  -1.0145847970e-002   1.0009925639e+000  -1.2736568612e-003  -1.6746965481e-004   2.8956045940e-004
  4.2197500000e+008   1.2186791504e-004  -1.8755457410e-004   9.8487501588e-001  -9.3825225479e-003   1.0006072615e+000  -1.1242553962e-003   2.9871590842e-005   6.8731063502e-004
  4.3056250000e+008   3.2087911085e-004  -1.4597926081e-004   9.8488501084e-001  -9.9747368060e-003   1.0005406900e+000  -1.5423373399e-003   4.1196396464e-004   3.2080024961e-004
  4.3915000000e+008   1.8839317656e-004  -2.9521316197e-004   9.8558403421e-001  -8.7254757336e-003   1.0003039954e+000  -1.4898038982e-003   7.5065406865e-004   2.4418454874e-004
  4.4773750000e+008   1.6076181395e-004  -4.9426322110e-004   9.8557091003e-001  -1.1001202968e-002   1.0004748940e+000  -1.7464932045e-003   6.6349979219e-004  -1.1106060988e-005
  4.5632500000e+008  -1.9523612268e-004  -6.6590101388e-004   9.8358790691e-001  -9.6680425255e-003   1.0002196319e+000  -1.4908111722e-003   5.1829123580e-004   3.3068639744e-004
  4.6491250000e+008  -2.7390735959e-004  -3.7201847977e-004   9.8353838086e-001  -1.1235906627e-002   1.0002397382e+000  -1.5919189056e-003   5.0914917118e-004  -4.6846215327e-005
  4.7350000000e+008  -4.7089918641e-004  -2.8224255893e-004   9.8346934914e-001  -1.0448925203e-002   1.0001358723e+000  -1.5348449464e-003   4.3494791581e-004   2.8893001589e-005
  4.8208750000e+008  -3.3825360350e-004  -1.7517762522e-004   9.8095130586e-001  -1.1158004737e-002   1.0000279110e+000  -1.2882896117e-003   7.2209375771e-004   8.4391850907e-005
  4.9067500000e+008  -2.7082891298e-004  -2.1396577480e-004   9.7888123659e-001  -1.2504913918e-002   1.0001630891e+000  -1.7621089134e-003   4.4267457071e-004  -8.9133976241e-005
  4.9926250000e+008  -2.3498569749e-004  -2.5466074602e-004   9.8044643442e-001  -1.1502747129e-002   1.0000200839e+000  -1.2329565821e-003   4.5757549911e-004   4.8891765982e-005
  5.0785000000e+008  -4.3813712160e-004  -9.6761618049e-005   9.8009472530e-001  -1.1280825021e-002   9.9971150252e-001  -7.8710570823e-004   4.4483141841e-004   3.8944655884e-004
  5.1643750000e+008  -3.9169000360e-004   1.6867570400e-004   9.7895344736e-001  -1.0500104998e-002   1.0003271400e+000  -1.4271928797e-003   6.2032545255e-004  -3.5595120638e-005
  5.2502500000e+008  -1.3970367943e-004   3.4107211196e-004   9.8021183092e-001  -1.1141692770e-002   1.0009636751e+000  -9.1396867692e-004   1.7406831163e-004  -2.2065327531e-004
  5.3361250000e+008   3.7079786171e-004   2.0543495880e-004   9.8128715155e-001  -1.1771434737e-002   9.9992231394e-001  -1.9574415635e-003   8.1274271869e-005  -5.9220066352e-004
  5.4220000000e+008   4.6320798245e-004  -3.7600493779e-005   9.7987297597e-001  -1.2285202371e-002   1.0009798715e+000  -1.9369552427e-003  -7.3600502816e-004  -2.1730699809e-004
  5.5078750000e+008   4.9248229253e-004  -6.1637865693e-004   9.7949613070e-001  -1.2951662236e-002   1.0004248566e+000  -2.3957109390e-003  -8.4139944349e-004  -2.6531090861e-004
  5.5937500000e+008   4.3414061362e-004  -6.0472645866e-004   9.7872541219e-001  -1.1037106698e-002   1.0000522382e+000  -2.0098578876e-003  -8.3015476226e-004   4.6002163749e-005
  5.6796250000e+008   4.2835452315e-004  -7.9385660248e-004   9.8233151192e-001  -1.1663163230e-002   1.0001866896e+000  -1.4759510982e-003  -1.1856498362e-003   3.8876886601e-004
  5.7655000000e+008  -9.4522159995e-005  -1.0145158185e-003   9.8322000677e-001  -1.3776990095e-002   1.0002883166e+000  -1.3398971083e-003  -9.6934935893e-004   6.8950098851e-004
  5.8513750000e+008  -3.1399884610e-004  -9.9231554257e-004   9.8231175197e-001  -1.1897124865e-002   9.9946425346e-001  -2.0587705587e-003  -9.0459077918e-004   6.7399698680e-004
  5.9372500000e+008  -5.3006192721e-004  -9.3301228465e-004   9.8012625512e-001  -1.0953893849e-002   9.9996482880e-001  -2.4597031912e-003  -8.0487394815e-004   9.0500967804e-004
  6.0231250000e+008  -9.8245312313e-004  -7.7227613617e-004   9.7754502845e-001  -1.2139903936e-002   1.0000801983e+000  -1.8938996107e-003  -3.4416246821e-004   9.3170075032e-004
  6.1090000000e+008  -8.9021537820e-004  -5.6106498056e-004   9.8039303974e-001  -1.2962843893e-002   1.0002302493e+000  -1.8405339791e-003  -5.8532307263e-004   8.9306663099e-004
  6.1948750000e+008  -1.0742210992e-003  -1.1850569558e-004   9.8137379496e-001  -1.1403387311e-002   1.0002599863e+000  -1.8661574564e-003  -3.8806628429e-004   6.7015821979e-004
  6.2807500000e+008  -8.6861854712e-004  -7.4791170354e-005   9.8054049075e-001  -1.3451223306e-002   1.0002963730e+000  -1.7391402414e-003  -9.4473299920e-005   4.4693047314e-004
  6.3666250000e+008  -6.8349924170e-004   5.0256462895e-004   9.8203817470e-001  -1.2122122084e-002   9.9980436334e-001  -2.9042123462e-003  -1.0402604353e-004   2.3946570885e-004
  6.4525000000e+008  -3.8240326663e-005   4.5381655981e-004   9.8204997076e-001  -1.1970240881e-002   1.0001957520e+000  -1.9916581531e-003   1.6626633350e-004  -1.1449090715e-004
  6.5383750000e+008   1.3923472891e-004   3.7598939952e-004   9.8280445198e-001  -1.1181786410e-002   9.9988325580e-001  -1.8137977221e-003   2.9164855405e-004  -2.6590822944e-004
  6.6242500000e+008   4.5083589618e-004   3.2554706070e-004   9.7930031394e-001  -1.1630345594e-002   1.0005708504e+000  -2.3830632614e-003   2.0143696513e-004  -3.6688150500e-004
  6.7101250000e+008   4.5961037593e-004  -1.1879017130e-004   9.8158140892e-001  -9.6449285389e-003   9.9983260354e-001  -1.3305262266e-003   1.2361223998e-004  -5.6557204673e-004
  6.7960000000e+008   9.2462180858e-004  -5.2165678892e-004   9.8017200577e-001  -1.2208393097e-002   1.0001840247e+000  -2.1064546569e-003   4.3595745256e-006  -9.1807431259e-004
  6.8818750000e+008   3.5409352610e-004  -7.5703475852e-004   9.8116656236e-001  -1.0729779624e-002   1.0001889414e+000  -2.7388436666e-003  -1.0981807566e-004  -1.0920069558e-003
  6.9677500000e+008   3.4174310161e-004  -1.0784216398e-003   9.8132506959e-001  -1.0916319379e-002   1.0000908973e+000  -2.2316000850e-003  -2.8467843540e-004  -1.1466379495e-003
  7.0536250000e+008  -3.4040218998e-006  -1.2120012429e-003   9.8024971362e-001  -1.2231239884e-002   9.9996470944e-001  -2.1375710267e-003  -3.9854385742e-004  -1.3104611390e-003
  7.1395000000e+008  -4.1472793421e-004  -1.1641863181e-003   9.7971708937e-001  -1.1481537984e-002   9.9973315604e-001  -2.3987567654e-003  -5.6007268378e-004  -1.1790408581e-003
  7.2253750000e+008  -1.0440991486e-003  -1.0872667696e-003   9.7933692017e-001  -1.2528123873e-002   9.9960291277e-001  -2.5245235191e-003  -6.4952042472e-004  -1.2094783065e-003
  7.3112500000e+008  -1.0932163887e-003  -7.0496956139e-004   9.7888894094e-001  -1.3080653207e-002   1.0001240411e+000  -1.7212052177e-003  -8.6004509929e-004  -9.9386651620e-004
  7.3971250000e+008  -1.1912030585e-003  -2.6733361717e-004   9.7937899688e-001  -1.3730760182e-002   9.9957867456e-001  -2.5046586231e-003  -1.0793272104e-003  -7.1675519608e-004
  7.4830000000e+008  -1.1426743357e-003   3.7635889905e-004   9.7880535607e-001  -1.1731286950e-002   9.9919813608e-001  -1.6272283731e-003  -1.0407760741e-003  -6.4352434865e-004
  7.5688750000e+008  -8.6434855943e-004   6.1895087322e-004   9.7943626893e-001  -1.2439743455e-002   9.9950624128e-001  -1.8697781173e-003  -1.3391545598e-003  -3.8016554558e-004
  7.6547500000e+008  -3.6361169220e-004   8.4607339065e-004   9.7967483535e-001  -1.2937879278e-002   9.9919975142e-001  -2.1271764488e-003  -1.2420999716e-003  -1.2487824538e-004
  7.7406250000e+008   5.9028040049e-005   1.0497655196e-003   9.7880665191e-001  -1.3095609745e-002   9.9914792197e-001  -2.5196944873e-003  -8.7657647025e-004   8.5506830499e-005
  7.8265000000e+008   5.5366685208e-004   6.0552183244e-004   9.7958095197e-001  -1.1782324165e-002   1.0001096139e+000  -1.1141937367e-003  -7.8872989596e-004   4.1251365147e-004
  7.9123750000e+008   9.2215169093e-004   4.0380820158e-004   9.8079284674e-001  -1.1933376438e-002   9.9985941296e-001  -2.3227756881e-003  -7.8321527570e-004   5.8806442440e-004
  7.9982500000e+008   7.9588282232e-004   1.5008463469e-004   9.7968879597e-001  -1.1784816195e-002   1.0002584205e+000  -1.1242564541e-003  -5.5079341113e-004   7.2033656732e-004
  8.0841250000e+008   1.1092789698e-003  -1.2016169868e-004   9.8036500892e-001  -1.2813323957e-002   9.9913009797e-001  -1.9827701866e-003  -5.1982404571e-004   8.7217473901e-004
  8.1700000000e+008   1.1352231425e-003  -5.0929524000e-004   9.8147865281e-001  -1.0712838069e-002   1.0000603317e+000  -2.1829843427e-003  -4.8432586345e-004   8.8553049561e-004
  8.2558750000e+008   1.0531140841e-003  -8.3417085855e-004   9.8268237211e-001  -1.0864021071e-002   1.0008321318e+000  -2.6596458903e-003  -4.2555433599e-004   1.0257488140e-003
  8.3417500000e+008   8.7475153295e-004  -1.2223192382e-003   9.8292053438e-001  -1.0760986467e-002   1.0010823447e+000  -2.3378511826e-003  -3.2845791353e-004   1.1793076943e-003
  8.4276250000e+008   3.8096158887e-004  -1.3670095687e-003   9.8272704222e-001  -1.2224992483e-002   9.9958054362e-001  -3.5015022588e-003  -8.2825118403e-005   1.2364518282e-003
  8.5135000000e+008  -5.7802631389e-005  -1.2157796329e-003   9.8340417855e-001  -9.7578778203e-003   1.0003075898e+000  -1.8390740659e-003   2.2121534239e-004   1.3278921569e-003
  8.5993750000e+008  -2.8317734076e-004  -1.2235173804e-003   9.8365939052e-001  -1.1122530881e-002   1.0003295599e+000  -2.5977620290e-003   2.8477460555e-004   9.8806953657e-004
  8.6852500000e+008  -4.9993048280e-004  -8.9756700323e-004   9.8275104322e-001  -1.0884152642e-002   1.0002782524e+000  -1.5388781520e-003   5.3373630579e-004   8.7567955850e-004
  8.7711250000e+008  -5.4650880182e-004  -6.4520530824e-004   9.8306220275e-001  -1.2621647608e-002   1.0007546221e+000  -2.8392756377e-003   6.3777522273e-004   2.9738067316e-004
  8.8570000000e+008  -4.3176677529e-004  -5.2112551023e-004   9.8533155633e-001  -1.0532889874e-002   9.9940386036e-001  -3.1916347214e-003   5.0478786447e-004   1.5279395374e-004
  8.9428750000e+008  -3.4340085062e-004  -3.0177180794e-004   9.8402197451e-001  -1.1487143068e-002   1.0005747427e+000  -3.0250649186e-003   4.1458081129e-004  -9.9071438348e-005
  9.0287500000e+008  -7.4261651257e-005  -1.9081519976e-004   9.8500197273e-001  -1.1355519576e-002   9.9969248367e-001  -2.8798162947e-003   2.3955265992e-004  -3.2301445446e-004
  9.1146250000e+008   1.8029016900e-004  -2.2844643445e-004   9.8354613895e-001  -1.3352196109e-002   9.9869200373e-001  -3.1772338347e-003  -4.0200047109e-004  -4.8055632454e-004
  9.2005000000e+008   2.8457856570e-004  -3.8791034652e-004   9.8468828780e-001  -9.6079695462e-003   9.9885903278e-001  -2.0133514016e-003  -4.8279264791e-004  -5.7832534280e-004
  9.2863750000e+008   4.6089933605e-004  -5.6491243668e-004   9.8489751477e-001  -1.1512969189e-002   9.9939672962e-001  -3.0732880843e-003  -7.3113578617e-004  -6.8664999289e-004
  9.3722500000e+008   4.0698113393e-004  -8.8226142880e-004   9.8312273620e-001  -1.0037255961e-002   9.9940881338e-001  -2.4995656306e-003  -9.2397768248e-004  -7.1783465090e-004
  9.4581250000e+008   3.6249476316e-004  -1.1166417246e-003   9.8419474611e-001  -1.0429399759e-002   9.9973330842e-001  -3.0382276961e-003  -1.3781833358e-003  -5.1255962395e-004
  9.5440000000e+008  -6.0889306567e-005  -1.2804987817e-003   9.8156708299e-001  -1.0980555470e-002   9.9995700139e-001  -2.8676301471e-003  -1.4191488507e-003  -3.4583610279e-004
  9.6298750000e+008  -3.9273897041e-004  -1.3943355734e-003   9.8387073016e-001  -1.2093376265e-002   9.9977609408e-001  -3.2241872572e-003  -1.5557163589e-003  -2.1322688977e-004
  9.7157500000e+008  -6.2146183408e-004  -1.2756606743e-003   9.8536597759e-001  -1.1435168280e-002   1.0005347266e+000  -2.3707313005e-003  -1.6346317190e-003  -1.6791957621e-004
  9.8016250000e+008  -9.5040230678e-004  -1.0873481955e-003   9.8524617423e-001  -1.0444715523e-002   9.9950306121e-001  -4.4917023246e-003  -1.4229767864e-003   5.8388704648e-005
  9.8875000000e+008  -1.1473517116e-003  -8.1089601800e-004   9.8519300065e-001  -9.3520797599e-003   9.9900417361e-001  -2.5384634187e-003  -1.4701347999e-003   8.1215542353e-005
  9.9733750000e+008  -1.1550070922e-003  -3.3518464267e-004   9.8397734663e-001  -1.1041882521e-002   9.9984755455e-001  -2.2551193927e-003  -1.2917765834e-003   7.7806884585e-005
  1.0059250000e+009  -1.0009471835e-003   1.2343466845e-004   9.8611372732e-001  -1.0124854389e-002   1.0003767990e+000  -2.9160387312e-003  -9.2954140336e-004   2.3302951036e-004
  1.0145125000e+009  -8.3863262152e-004   4.7540083670e-004   9.8525032256e-001  -1.2096609019e-002   9.9928566798e-001  -2.3257777624e-003  -5.9616440592e-004   2.8700319023e-004
  1.0231000000e+009  -6.0403190444e-004   5.0417286506e-004   9.8424186470e-001  -1.1863788861e-002   9.9882818436e-001  -3.1184246345e-003  -3.7915172214e-004   3.2497970321e-004
  1.0316875000e+009  -2.8423726082e-004   7.8212032782e-004   9.8315830002e-001  -1.2539528150e-002   9.9930467787e-001  -3.5628677508e-003  -9.3270109427e-005   1.5416803475e-004
  1.0402750000e+009   2.1144692334e-004   8.2399493892e-004   9.8415654040e-001  -1.0934597413e-002   9.9993580563e-001  -2.7404214533e-003   1.1251154639e-004   3.1057536767e-005
  1.0488625000e+009   4.5700264975e-004   6.6858067545e-004   9.8615873830e-001  -1.0576354019e-002   9.9897638951e-001  -2.8899292163e-003   5.3151650016e-004  -1.5002056150e-004
  1.0574500000e+009   7.6499609695e-004   2.7703288178e-004   9.8428734856e-001  -1.0931873685e-002   9.9928586710e-001  -2.9715099521e-003   6.6846638880e-004  -3.4581513389e-004
