# Hz S RI R 50.000000
! Metas.Vna.Tools, 2.8.8664.20301
! Metas.Vna.Data, 2.8.8664.20285
! Created: UTC 2024.02.11 10:08:17
! FREQ                re:S1,1             im:S1,1             re:S2,1             im:S2,1             re:S1,2             im:S1,2             re:S2,2             im:S2,2          
  1.3000000000e+008   4.8911505128e-005  -1.5395422879e-003   9.9588512301e-001  -5.6228014919e-003   1.0001551852e+000  -1.3153466303e-003   9.3151739535e-004   3.5318695567e-004
  1.3858750000e+008  -1.5205031681e-003  -1.0908812361e-003   9.9736080472e-001  -3.7866833282e-003   1.0002554093e+000  -1.8663838862e-004   1.0147410611e-003  -2.7228437840e-005
  1.4717500000e+008  -1.7533149634e-003  -9.6636008075e-004   9.9820182437e-001  -5.5498806900e-003   1.0005754198e+000  -1.9225068088e-004   9.9900363055e-004   1.1137095656e-004
  1.5576250000e+008  -1.9780000885e-003   3.6462691569e-004   9.9756045140e-001  -5.2189040635e-003   1.0002851137e+000  -9.7148961614e-005   1.3210914030e-003  -8.2103556364e-004
  1.6435000000e+008  -1.0235962815e-003   7.7707446704e-004   9.9866120597e-001  -5.2052436777e-003   1.0004691351e+000  -7.2488323808e-004   1.3463748499e-003  -3.2669946653e-004
  1.7293750000e+008  -1.1836305089e-003   7.5826553184e-004   9.9775594181e-001  -3.5692354433e-003   1.0000586512e+000  -1.0469375431e-003   4.5367410243e-004  -9.8647349202e-004
  1.8152500000e+008  -6.1264850005e-004   2.2181133679e-004   9.9700891707e-001  -5.5342349023e-003   1.0005915767e+000  -8.5956969306e-004   6.4759758613e-004  -5.2974582026e-004
  1.9011250000e+008  -6.4580353133e-004   4.2685865800e-004   9.9799013418e-001  -5.2696731507e-003   1.0006604284e+000  -1.7770660444e-003   3.5260098771e-004  -1.0616328866e-003
  1.9870000000e+008  -1.8481735530e-004   9.3762836669e-004   9.9798114426e-001  -5.2664054365e-003   1.0005604489e+000  -1.1393091258e-003   3.3724648231e-004  -4.8087132240e-004
  2.0728750000e+008   4.8917997551e-004   9.5872385715e-005   9.9664717904e-001  -4.9895064928e-003   1.0003374042e+000  -1.2958566933e-003   2.7671162376e-004  -4.3730357962e-004
  2.1587500000e+008   2.4450160207e-004  -5.3594862095e-004   9.9777668745e-001  -5.5624203140e-003   1.0000854828e+000  -7.7943286553e-004  -8.3215899437e-004  -1.9629669005e-004
  2.2446250000e+008   2.9568824017e-004  -6.3178090207e-004   9.9574182988e-001  -4.9641441181e-003   1.0002565383e+000  -1.4789009609e-003  -3.0581175694e-004  -4.2324057201e-006
  2.3305000000e+008  -2.8283490775e-004  -2.4631732352e-004   9.9687661233e-001  -5.2267637628e-003   1.0003386893e+000  -1.9377428305e-003  -1.6595323183e-004  -1.7199951492e-004
  2.4163750000e+008   1.4463440675e-004  -4.7060865283e-004   9.9683915925e-001  -5.9183894573e-003   1.0002457064e+000  -1.8285838358e-003  -6.0943669095e-004   4.3954428325e-004
  2.5022500000e+008  -3.6684108157e-004  -4.8897481802e-004   9.9728296026e-001  -4.9700248901e-003   1.0000845759e+000  -2.0169794064e-003  -1.0270559580e-003   4.1806541020e-004
  2.5881250000e+008  -3.5268396466e-004  -8.0439213097e-004   9.9645841430e-001  -5.1906876878e-003   1.0000918658e+000  -1.7193175634e-003  -4.0427081660e-004   8.0038804421e-004
  2.6740000000e+008  -9.8705464690e-004  -7.0032792900e-004   9.9787796022e-001  -5.1554371213e-003   1.0010014071e+000  -2.2728745344e-003  -2.6453444998e-004   5.2167118903e-004
  2.7598750000e+008  -9.1302847046e-005  -3.0142765664e-004   9.9663684536e-001  -8.0775434443e-003   1.0004127598e+000  -1.0343966479e-003  -4.1596622559e-004   6.3211108783e-004
  2.8457500000e+008  -7.5449322320e-004  -2.9842673512e-004   9.9724447641e-001  -6.3380540417e-003   1.0001942010e+000  -1.7290258404e-003  -3.7357186600e-004   8.8715389186e-004
  2.9316250000e+008  -6.2904373515e-004  -2.4368016939e-004   9.9668647554e-001  -4.5485917507e-003   1.0006899378e+000  -1.9532628813e-003  -1.6989376497e-004   5.2876642111e-004
  3.0175000000e+008  -1.1820857111e-003   2.9860526945e-004   9.9722785093e-001  -6.3649153610e-003   1.0003411995e+000  -8.6917525384e-004  -5.0656589425e-004   3.3063035963e-004
  3.1033750000e+008  -8.2029956304e-004   1.5891612698e-004   9.9775979671e-001  -4.2755486072e-003   1.0010060256e+000  -1.8386102220e-003  -6.4190666108e-004   6.7569694586e-004
  3.1892500000e+008  -7.8432061970e-004  -5.8444370638e-005   9.9676719718e-001  -6.0865355391e-003   1.0002844891e+000  -1.4255431655e-003  -4.4390108651e-004   3.7054076683e-004
  3.2751250000e+008  -6.3167887029e-004   1.6929630821e-004   9.9750651473e-001  -7.1756912499e-003   9.9974171768e-001  -2.3160396181e-003  -6.4115303508e-004   3.7605858539e-004
  3.3610000000e+008  -8.0072974606e-004   1.0152239865e-004   9.9765352022e-001  -5.2697890527e-003   1.0013803494e+000  -2.2686432855e-003  -4.8876100305e-004   2.4415334340e-005
  3.4468750000e+008  -5.4690987662e-004   9.8599566657e-005   9.9701597305e-001  -5.6795764561e-003   1.0007183832e+000  -1.7053312645e-003  -3.9914151699e-004   3.0261551960e-004
  3.5327500000e+008  -2.8999854647e-004   1.7535296630e-004   9.9728498910e-001  -6.2627540625e-003   9.9954781284e-001  -2.6176070333e-003  -4.3491756590e-004   3.8313794703e-004
  3.6186250000e+008  -3.8298215201e-004   2.4344091200e-004   9.9723788951e-001  -6.7632579387e-003   1.0002386918e+000  -1.3463904972e-003  -6.0671788581e-004   3.0058948366e-004
  3.7045000000e+008  -7.3878578552e-004   5.3451204638e-004   9.9446281997e-001  -5.5647171372e-003   1.0004005731e+000  -1.7286404944e-003  -7.1204253039e-004   3.2977585208e-004
  3.7903750000e+008  -1.6271080301e-004   5.5272041086e-004   9.9496425558e-001  -5.3053742536e-003   1.0007575957e+000  -2.1607966348e-003  -6.3955736588e-004   7.2229174103e-005
  3.8762500000e+008  -1.9756644217e-004   4.5975291254e-004   1.0002023684e+000  -5.0268979955e-003   9.9976403329e-001  -2.0310872963e-003  -4.1955610167e-004   3.7051433011e-004
  3.9621250000e+008  -8.0902412996e-005   2.4048488708e-004   9.9763111465e-001  -4.8386265605e-003   1.0003683068e+000  -2.2868830633e-003  -4.1089484802e-004   6.0427079320e-004
  4.0480000000e+008   1.5332847960e-004   1.3047940804e-004   9.9828370460e-001  -5.8988330182e-003   1.0003326657e+000  -2.3075784332e-003  -1.3893685390e-004   2.2232035264e-004
  4.1338750000e+008   2.3417004191e-004   2.9795560159e-004   9.9758500696e-001  -4.9754283034e-003   1.0006813146e+000  -1.8947695733e-003  -2.7788322059e-005   3.5620468634e-004
  4.2197500000e+008  -3.2031131977e-005  -9.8056892448e-006   9.9722131166e-001  -5.7829294239e-003   1.0006305204e+000  -1.9296932836e-003  -8.3161883750e-005   6.5726730007e-004
  4.3056250000e+008   1.1712630865e-004   1.2908672498e-004   9.9768302417e-001  -5.1153649437e-003   1.0002396308e+000  -1.7049535299e-003   4.8245408133e-004   3.2590107830e-004
  4.3915000000e+008   1.2756375147e-004  -3.1583524301e-004   9.9926610194e-001  -4.5773971139e-003   1.0005130437e+000  -2.2801562350e-003   3.8740894810e-004   2.4238388473e-004
  4.4773750000e+008   7.9922484529e-005  -1.8472488754e-004   1.0000343382e+000  -5.5267023925e-003   1.0004237876e+000  -2.6232536351e-003   6.0549254874e-004   3.9017546601e-004
  4.5632500000e+008  -6.4388665367e-005  -2.1885617530e-004   9.9723310708e-001  -5.0981133008e-003   1.0002570558e+000  -2.4312735795e-003   5.9569832809e-004   2.9088837278e-005
  4.6491250000e+008  -2.6745362218e-004   6.2695967883e-005   9.9808714599e-001  -5.8170201048e-003   1.0000701934e+000  -2.5629302148e-003   5.2401991395e-004   2.8219695290e-004
  4.7350000000e+008  -4.2814250341e-004  -3.1825183218e-004   9.9796299139e-001  -6.2219629634e-003   1.0001655769e+000  -2.4940270992e-003   4.6007552432e-004   1.0611502470e-004
  4.8208750000e+008  -2.6820402103e-004  -7.3282232528e-005   9.9585388887e-001  -5.8518426987e-003   9.9994145793e-001  -2.0996991864e-003   7.5398100519e-004   1.5051096365e-004
  4.9067500000e+008  -8.3817860051e-005  -3.3184928715e-004   9.9424458328e-001  -7.1265509092e-003   1.0001837919e+000  -2.4541661218e-003   3.6958628910e-004   2.4419834639e-004
  4.9926250000e+008  -3.4533321387e-005  -4.1790170518e-004   9.9423048667e-001  -6.7093478020e-003   9.9963938259e-001  -2.2395732394e-003   5.9431917235e-004   1.5816518823e-004
  5.0785000000e+008  -3.4078605735e-004  -2.7460203275e-004   9.9402204462e-001  -6.2578689957e-003   9.9997987824e-001  -1.3933970689e-003   4.4292074561e-004   3.8094733293e-004
  5.1643750000e+008  -6.8333952910e-004   1.4989446603e-004   9.9391721889e-001  -5.9972005542e-003   1.0005084673e+000  -1.9314406970e-003   8.8845412476e-004   1.0396358857e-004
  5.2502500000e+008  -3.9487971453e-004   6.2052180784e-004   9.9601608981e-001  -4.5210538872e-003   1.0006902394e+000  -1.5812833155e-003   3.4587132705e-004  -4.1079451411e-004
  5.3361250000e+008   2.0920224762e-004   3.8485984807e-004   9.9611326645e-001  -6.4417923560e-003   1.0005326657e+000  -2.0827294280e-003   1.1775891064e-004  -6.8091996650e-004
  5.4220000000e+008   7.6509233937e-004   1.5271369588e-004   9.9513733775e-001  -7.6942471471e-003   1.0009744680e+000  -1.8665715469e-003  -8.6145532196e-004  -3.5211644811e-004
  5.5078750000e+008   5.9790176645e-004  -6.2950199815e-004   9.9496698659e-001  -7.7466308052e-003   1.0003079130e+000  -2.7996239757e-003  -6.9930623398e-004  -2.3758366677e-004
  5.5937500000e+008   4.9391929027e-004  -6.6016258081e-004   9.9385210939e-001  -6.2060235680e-003   1.0008410092e+000  -2.8742993547e-003  -8.1616286854e-004   1.7026899456e-005
  5.6796250000e+008   2.8618352695e-004  -8.5313912619e-004   9.9464494419e-001  -6.9378371591e-003   1.0000881707e+000  -2.7981367805e-003  -9.9896350012e-004   3.1368310232e-004
  5.7655000000e+008  -3.1596451734e-004  -1.1641603242e-003   9.9496168658e-001  -9.2153306661e-003   1.0005154216e+000  -3.3553528167e-003  -7.6133228609e-004   6.0680780690e-004
  5.8513750000e+008  -5.5200470219e-004  -8.1686909850e-004   9.9412582896e-001  -7.2783493002e-003   9.9986521533e-001  -2.7873703155e-003  -7.4209825559e-004   8.2691366081e-004
  5.9372500000e+008  -6.6807890425e-004  -8.7815494621e-004   9.9360147377e-001  -7.0104838051e-003   1.0004068376e+000  -3.2236999624e-003  -6.2923460397e-004   7.9926191508e-004
  6.0231250000e+008  -1.1584021321e-003  -5.6725025449e-004   9.9448545789e-001  -6.6120030945e-003   1.0003244044e+000  -2.8095187128e-003  -3.1526167119e-004   9.1752902414e-004
  6.1090000000e+008  -9.8702422672e-004  -2.5325732731e-004   9.9357598468e-001  -7.9716417788e-003   1.0003807819e+000  -2.4862608269e-003  -5.1592551121e-004   8.1460118658e-004
  6.1948750000e+008  -8.9350708424e-004   9.4948603270e-005   9.9489617716e-001  -6.7575030206e-003   9.9975139909e-001  -2.6483411175e-003  -2.7192151723e-004   5.9291478372e-004
  6.2807500000e+008  -7.2796516170e-004   7.6015182838e-005   9.9467757479e-001  -8.5136544856e-003   1.0008122448e+000  -2.6661885649e-003   6.7539086437e-005   2.8911525555e-004
  6.3666250000e+008  -5.3046211350e-004   4.4563079886e-004   9.9462913969e-001  -6.7495210071e-003   1.0005456768e+000  -3.4231636881e-003   7.2718180681e-005   3.6915580576e-004
  6.4525000000e+008   4.1700406228e-005   4.3833131072e-004   9.9274849833e-001  -6.2285289351e-003   1.0005938154e+000  -2.6913769742e-003   3.2537381223e-004   7.5646993808e-005
  6.5383750000e+008   2.3187158136e-004   3.0691673266e-004   9.9412869009e-001  -6.8018943121e-003   1.0002162188e+000  -2.2819891442e-003   2.1276828593e-004  -1.6271169577e-004
  6.6242500000e+008   2.3867437922e-004   1.3962293455e-004   9.9161102008e-001  -8.9107050867e-003   1.0009201633e+000  -3.6451130489e-003   1.9681234978e-004  -2.6788628977e-004
  6.7101250000e+008   3.5277932593e-004  -1.9370841470e-004   9.9414376935e-001  -6.6300070749e-003   1.0000765201e+000  -2.7726842526e-003   2.1284033095e-004  -5.4964180001e-004
  6.7960000000e+008   8.2407261560e-004  -4.8090044779e-004   9.9321737449e-001  -8.1844816163e-003   1.0001897575e+000  -3.0405812784e-003   2.0331910481e-004  -7.4424151307e-004
  6.8818750000e+008   3.1309453701e-004  -8.0794240571e-004   9.9187832529e-001  -8.0855411730e-003   9.9979768323e-001  -3.3057628583e-003  -3.1907566937e-005  -1.0342372914e-003
  6.9677500000e+008   1.8832933152e-004  -1.0068273368e-003   9.9294262481e-001  -7.9185287431e-003   9.9985705047e-001  -3.5437798267e-003  -1.6720446451e-004  -1.0342150509e-003
  7.0536250000e+008  -3.9923647530e-004  -1.0742570226e-003   9.9238871889e-001  -7.4463786206e-003   1.0000842009e+000  -3.2200528163e-003  -3.1807642963e-004  -1.2675656625e-003
  7.1395000000e+008  -5.4324923858e-004  -9.5402817426e-004   9.9145510874e-001  -7.3484419545e-003   1.0000154573e+000  -3.0675667346e-003  -5.1517118752e-004  -1.1772279179e-003
  7.2253750000e+008  -1.0116380131e-003  -7.7572833347e-004   9.9156174646e-001  -7.9626047194e-003   9.9978644835e-001  -2.9393270077e-003  -7.4267167661e-004  -1.1334120551e-003
  7.3112500000e+008  -1.0715851840e-003  -3.2125743720e-004   9.9377747578e-001  -6.6336267922e-003   9.9995453023e-001  -3.5174025458e-003  -8.5734614495e-004  -9.5967135799e-004
  7.3971250000e+008  -1.0959960903e-003   2.2914035238e-005   9.9526346016e-001  -8.9479189464e-003   9.9940613111e-001  -3.0352186764e-003  -1.0082995235e-003  -7.3045661678e-004
  7.4830000000e+008  -9.3351731538e-004   5.0324662542e-004   9.9450989761e-001  -6.0076864580e-003   9.9920453648e-001  -3.5772974056e-003  -9.9175786253e-004  -7.8095420409e-004
  7.5688750000e+008  -6.4263638731e-004   7.0076170825e-004   9.9354111432e-001  -6.6928205556e-003   9.9791055510e-001  -3.4464763843e-003  -1.0758355374e-003  -3.6316516936e-004
  7.6547500000e+008  -1.3193726925e-004   7.5436037189e-004   9.9402338396e-001  -7.8466846346e-003   9.9925136349e-001  -3.5311361557e-003  -1.2122114067e-003  -2.0366463839e-004
  7.7406250000e+008   1.3488608052e-004   7.7836765495e-004   9.9004442747e-001  -7.4670173624e-003   9.9969669016e-001  -3.3570417767e-003  -9.6045091310e-004   1.5169971675e-004
  7.8265000000e+008   3.7180996929e-004   4.6618852044e-004   9.9304200043e-001  -8.1049813323e-003   9.9975818024e-001  -2.9938925680e-003  -6.3919759566e-004   6.1055121049e-004
  7.9123750000e+008   6.7523934310e-004   2.3205561502e-004   9.9305789458e-001  -7.0322305323e-003   9.9963717162e-001  -2.7398329918e-003  -6.0601568925e-004   4.6597439334e-004
  7.9982500000e+008   6.0179037439e-004   1.4135531356e-004   9.9465917158e-001  -6.4669990839e-003   1.0003458393e+000  -2.5188063707e-003  -4.8143853851e-004   5.9904273191e-004
  8.0841250000e+008   7.9808646588e-004   2.7434690725e-004   9.9383928615e-001  -7.8476519379e-003   1.0005947865e+000  -2.4213262584e-003  -4.6321723878e-004   9.6643651189e-004
  8.1700000000e+008   1.0842140250e-003  -2.2277538704e-004   9.9510996157e-001  -5.9506539734e-003   1.0004983253e+000  -2.4925953076e-003  -4.7863622919e-004   8.1524469434e-004
  8.2558750000e+008   1.0927890157e-003  -2.4769646531e-004   9.9513862085e-001  -5.8491764842e-003   1.0005585312e+000  -3.1246037535e-003  -5.1832114609e-004   1.0192063697e-003
  8.3417500000e+008   9.5681773206e-004  -1.0052525760e-003   9.9339942112e-001  -7.1882359283e-003   1.0007516614e+000  -3.1875062477e-003  -3.7871373146e-004   1.2959125709e-003
  8.4276250000e+008   6.7395560097e-004  -1.0940684994e-003   9.9345223328e-001  -7.5194116640e-003   1.0002028810e+000  -3.6446158735e-003  -7.5098417991e-005   1.2315596277e-003
  8.5135000000e+008   1.6415584502e-004  -1.2982061492e-003   9.9418139823e-001  -7.1678077715e-003   1.0007003314e+000  -2.6626771804e-003   6.4920428707e-005   1.3974802292e-003
  8.5993750000e+008  -1.7105745907e-004  -1.3382392367e-003   9.9305888368e-001  -8.5382235816e-003   1.0001651982e+000  -3.9840564034e-003   3.8041877622e-004   1.2612404438e-003
  8.6852500000e+008  -5.0728389477e-004  -9.9870528635e-004   9.9194419565e-001  -8.0836099909e-003   9.9938631081e-001  -2.9246792468e-003   6.3080731175e-004   1.0558978971e-003
  8.7711250000e+008  -5.6242278239e-004  -6.7501417213e-004   9.9214322443e-001  -7.7990027334e-003   1.0004328963e+000  -3.4329500901e-003   6.0594735551e-004   6.3404449420e-004
  8.8570000000e+008  -5.7673943817e-004  -4.4667106564e-004   9.9350774689e-001  -7.4980731831e-003   9.9964952286e-001  -3.7875808994e-003   6.3632796840e-004   2.2466474008e-004
  8.9428750000e+008  -3.8689790423e-004  -2.3768132743e-004   9.9167224249e-001  -9.7694705417e-003   9.9997785224e-001  -3.7650360106e-003   2.1091222739e-004  -1.0559495918e-004
  9.0287500000e+008  -6.8218181262e-005  -1.7885485411e-004   9.9418618907e-001  -8.3985281568e-003   9.9927049583e-001  -4.4968364283e-003   2.4981492510e-004  -2.3652459817e-004
  9.1146250000e+008   1.1901912488e-004  -1.2737475595e-004   9.9352382579e-001  -7.6235491619e-003   9.9930753129e-001  -3.5869285641e-003  -9.2007318755e-006  -4.6082485783e-004
  9.2005000000e+008   2.7682320667e-004  -3.5391507726e-004   9.9585581614e-001  -6.6884374625e-003   9.9887280932e-001  -3.5351119259e-003  -4.9250372859e-004  -6.3339148686e-004
  9.2863750000e+008   4.4926397343e-004  -5.5949829514e-004   9.9485889152e-001  -6.9171893644e-003   9.9893842209e-001  -4.2144117190e-003  -7.5261121670e-004  -7.8529739658e-004
  9.3722500000e+008   3.8815638871e-004  -7.2728898354e-004   9.9454677928e-001  -7.2386157105e-003   9.9872142604e-001  -3.7483823293e-003  -9.9632294385e-004  -8.7015634875e-004
  9.4581250000e+008   4.4450061727e-004  -1.1304964055e-003   9.9295379653e-001  -7.1672861813e-003   9.9924507399e-001  -2.4204838154e-003  -1.2807144244e-003  -4.7507555913e-004
  9.5440000000e+008   6.5125230775e-005  -1.2059301490e-003   9.9121667664e-001  -8.6071553152e-003   1.0000106933e+000  -2.7917832983e-003  -1.3427299218e-003  -5.4635865778e-004
  9.6298750000e+008  -3.5459989486e-004  -1.2959426693e-003   9.9324314431e-001  -6.9545350679e-003   1.0000100582e+000  -4.2021307838e-003  -1.5088019043e-003  -3.6183982456e-004
  9.7157500000e+008  -6.4417867750e-004  -1.2325823422e-003   9.9419803235e-001  -7.4317861603e-003   1.0004414752e+000  -3.5570317296e-003  -1.4701667789e-003  -2.8029215005e-004
  9.8016250000e+008  -9.4427418135e-004  -9.3787047425e-004   9.9461198250e-001  -9.1546748978e-003   9.9950600464e-001  -4.6428471022e-003  -1.5875026391e-003   3.2953197584e-005
  9.8875000000e+008  -1.1691336278e-003  -7.0855764459e-004   9.9347229659e-001  -8.3237263858e-003   9.9925953127e-001  -4.0790421307e-003  -1.3355931292e-003   2.3237286264e-004
  9.9733750000e+008  -1.1425658207e-003  -4.2698337205e-004   9.9380886330e-001  -7.9052998067e-003   9.9934631279e-001  -3.1127782656e-003  -1.2583172845e-003   1.2840808739e-004
  1.0059250000e+009  -9.7418054651e-004   6.1944546627e-005   9.9467639493e-001  -8.4240025049e-003   1.0004214276e+000  -3.3074777588e-003  -9.3449256605e-004   2.4394950426e-004
  1.0145125000e+009  -8.7761853101e-004   3.9296695920e-004   9.9330897069e-001  -9.5091471212e-003   9.9937437240e-001  -3.9688066451e-003  -6.6033126859e-004   3.7017329581e-004
  1.0231000000e+009  -6.0519107981e-004   5.8318643054e-004   9.9412033499e-001  -8.0591100063e-003   9.9947082010e-001  -3.9634816675e-003  -4.2531342244e-004   4.5989241316e-004
  1.0316875000e+009  -3.6157314108e-004   7.7894556175e-004   9.9498018110e-001  -8.5718257739e-003   9.9960573050e-001  -4.6147265403e-003  -1.1507270612e-004   3.2534129369e-004
  1.0402750000e+009   1.4251869375e-004   8.0402074741e-004   9.9322849720e-001  -7.4603088876e-003   9.9960841167e-001  -3.0729896059e-003   2.3074189271e-004   1.0173843881e-004
  1.0488625000e+009   4.2287098132e-004   5.0515608640e-004   9.9309006376e-001  -7.7268210902e-003   9.9939590491e-001  -3.3581796644e-003   6.9259346128e-004  -6.0921991119e-005
  1.0574500000e+009   6.1864998692e-004   2.4989793546e-004   9.9295557889e-001  -8.6553997174e-003   9.9999018532e-001  -4.0268733705e-003   8.6043759913e-004  -2.5076687174e-004
