# Hz S RI R 50.000000
! Metas.Vna.Tools, 2.8.8664.20301
! Metas.Vna.Data, 2.8.8664.20285
! Created: UTC 2024.02.11 10:08:30
! FREQ                re:S1,1             im:S1,1             re:S2,1             im:S2,1             re:S1,2             im:S1,2             re:S2,2             im:S2,2          
  1.3000000000e+008   3.4266091498e-004  -1.4513770197e-003   9.9053615867e-001  -6.9784875461e-003   1.0007392050e+000  -4.3416086172e-004   1.0478498385e-003   4.8585815195e-004
  1.3858750000e+008  -9.0425352535e-004  -1.1531229218e-003   9.9164140063e-001  -5.6594413797e-003   1.0006505066e+000   3.8031925561e-004   1.0108183943e-003   2.4285288046e-004
  1.4717500000e+008  -1.6065765408e-003  -1.0878272300e-003   9.9108846021e-001  -6.8523664017e-003   1.0003073452e+000  -5.5277403092e-004   9.6430034288e-004  -3.9662073562e-004
  1.5576250000e+008  -1.4932302321e-003   1.5326551400e-004   9.9174903733e-001  -6.4596841498e-003   1.0003335765e+000   3.7227509330e-004   1.6862187040e-003  -8.6131505312e-004
  1.6435000000e+008  -1.3134920999e-003   9.5401450405e-004   9.9264527424e-001  -6.2084384479e-003   1.0010768880e+000   4.1880504987e-004   8.4290664568e-004  -4.7651871869e-004
  1.7293750000e+008  -1.0102824494e-003   5.4603912835e-004   9.9084640122e-001  -7.1272865370e-003   1.0004033642e+000  -3.1103636145e-004   4.0069766161e-004  -1.2488209409e-003
  1.8152500000e+008  -4.8980653120e-004   4.0233971904e-004   9.9310924421e-001  -6.5863004535e-003   9.9989379626e-001  -6.7118969393e-004   2.5939893339e-004  -7.3974183731e-004
  1.9011250000e+008  -6.2816125851e-004   4.4280469250e-004   9.9423809564e-001  -7.6565593341e-003   1.0009978688e+000  -8.5835911546e-005   3.3860563549e-004  -1.1548972644e-003
  1.9870000000e+008   1.2928117843e-004   7.6341941300e-004   9.9157704694e-001  -6.4728033971e-003   1.0012181137e+000  -9.2496353336e-004   5.3593423507e-004  -3.8095720087e-004
  2.0728750000e+008   7.2033302564e-004   1.1841488762e-004   9.9060358238e-001  -7.7537675277e-003   1.0006482250e+000  -1.5666773275e-004  -1.4383136415e-004  -2.7032846804e-004
  2.1587500000e+008   3.0519755762e-004  -6.2991062999e-005   9.9185608409e-001  -6.1965972814e-003   1.0002301702e+000  -3.1041557291e-004  -5.3547156592e-004   9.7983237558e-005
  2.2446250000e+008   1.5055806278e-004  -6.6667205090e-004   9.9093998071e-001  -6.9113148199e-003   1.0003683817e+000  -5.3937855213e-004  -2.9985950313e-004   2.1077737232e-004
  2.3305000000e+008   2.5058369011e-004  -1.1162411182e-005   9.9186646106e-001  -7.0590131843e-003   1.0004715263e+000  -9.8445365358e-004  -2.8833817509e-004   2.9701843771e-004
  2.4163750000e+008  -2.3010431957e-004  -7.2984676334e-004   9.9133584783e-001  -7.9149982881e-003   1.0001956565e+000  -1.6493092061e-003  -7.8621236331e-004   4.1087051978e-004
  2.5022500000e+008  -5.9426374466e-004  -5.6351133697e-004   9.9049412955e-001  -7.7688592484e-003   1.0005095910e+000  -4.7096413338e-004  -7.1049928161e-004   5.9371894328e-004
  2.5881250000e+008  -2.2502176073e-004  -5.5080063900e-004   9.9205058984e-001  -5.8521481201e-003   1.0003716651e+000  -1.1606666291e-003  -7.4220785017e-004   8.1663529659e-004
  2.6740000000e+008  -6.4413054358e-004  -5.4125834328e-004   9.9311064398e-001  -6.3379624429e-003   1.0013425190e+000  -1.6508333224e-003  -5.1653424206e-004   5.1532720599e-004
  2.7598750000e+008  -3.1326768069e-004  -3.5582676565e-004   9.9113361160e-001  -8.4085657982e-003   1.0003698457e+000  -6.9509482864e-004  -3.3408413300e-004   8.2151534554e-004
  2.8457500000e+008  -9.0031432380e-004   7.7492051806e-005   9.9218911690e-001  -7.7679259898e-003   1.0008044486e+000  -6.2371321197e-006  -3.1834103759e-004   6.9349998196e-004
  2.9316250000e+008  -5.5170038292e-004  -4.8392209802e-004   9.9197559429e-001  -5.8516688309e-003   1.0003534427e+000  -1.5243065898e-003  -1.8949462579e-004   5.1706623816e-004
  3.0175000000e+008  -9.4427907895e-004   5.0284657980e-004   9.9375773498e-001  -8.8473352459e-003   1.0004649850e+000  -8.2377509809e-004  -3.2894235653e-004   5.1934982235e-004
  3.1033750000e+008  -8.2065863107e-004   2.3473450913e-004   9.9145280876e-001  -8.2399973533e-003   1.0020345707e+000  -1.2804001489e-003  -6.2742313272e-004   2.5139975021e-004
  3.1892500000e+008  -8.6423891547e-004  -1.5148167125e-004   9.8976314416e-001  -8.1800032399e-003   9.9976192779e-001  -6.2348484583e-004  -6.9907469560e-004   2.1627124354e-004
  3.2751250000e+008  -7.3753824570e-004  -6.6705282112e-005   9.9194650378e-001  -9.2466492249e-003   1.0002001886e+000  -1.8924248154e-003  -7.8266746644e-004   2.3650870855e-004
  3.3610000000e+008  -7.5560546217e-004  -1.2520382211e-005   9.9178772170e-001  -7.5490436790e-003   1.0012306920e+000  -6.4724523668e-004  -9.5378278447e-004   1.4348083507e-004
  3.4468750000e+008  -8.4510661596e-004   2.2305956025e-004   9.9171767733e-001  -7.4949896663e-003   1.0008677695e+000  -1.8639670476e-004  -2.9497027690e-004  -1.0302643002e-004
  3.5327500000e+008  -2.8969440781e-004   1.8743069681e-004   9.9194299630e-001  -7.7392100773e-003   9.9968197150e-001  -1.7235503407e-003  -4.6110192906e-004   2.4612075311e-004
  3.6186250000e+008  -5.6178170387e-004   1.4993866803e-005   9.9294103520e-001  -7.6428848278e-003   1.0005189372e+000  -8.1635592362e-004  -7.6271249345e-004   4.4661340189e-004
  3.7045000000e+008  -7.0026671239e-004   5.5356908661e-004   9.9126900328e-001  -7.4262391271e-003   1.0010870020e+000  -1.3620117907e-003  -6.0418176767e-004   2.6901043386e-004
  3.7903750000e+008  -3.2107219001e-004   6.3162290240e-004   9.9160343949e-001  -7.3302133662e-003   1.0004332173e+000  -7.4011283032e-004  -4.1105062452e-004   5.5826823075e-005
  3.8762500000e+008  -5.8932835430e-004   4.7602383094e-004   9.9515959260e-001  -7.0624703024e-003   1.0005332478e+000  -8.4703798748e-004  -4.9812860786e-004   3.3621926212e-004
  3.9621250000e+008  -1.6948036737e-004   1.1249366119e-004   9.9221286038e-001  -7.0540785227e-003   1.0001944094e+000  -1.4213566329e-003  -6.9385946779e-004   6.1822953255e-004
  4.0480000000e+008   3.0154430654e-004   3.5969395850e-004   9.9379191212e-001  -7.6243819207e-003   1.0002618327e+000  -1.4394050502e-003  -1.4223359567e-004   2.9914164339e-004
  4.1338750000e+008   4.2971998480e-004   1.9410955065e-004   9.9319479865e-001  -6.8724707549e-003   1.0006787719e+000  -1.3287775194e-003   1.0161565585e-005   2.7504619269e-004
  4.2197500000e+008  -8.3716396867e-005  -1.6963549504e-004   9.9369745923e-001  -7.3801289646e-003   1.0007564112e+000  -1.5780046055e-003   2.0249849068e-004   7.2197629897e-004
  4.3056250000e+008   2.2127041190e-004   5.2023133543e-006   9.9266589473e-001  -7.6176850366e-003   1.0004778755e+000  -1.5220503751e-003   5.2225313290e-004   4.3761974544e-004
  4.3915000000e+008   1.0799995102e-004  -2.9862816603e-004   9.9468825664e-001  -6.6558168605e-003   1.0005684671e+000  -1.6733154464e-003   5.6599960813e-004   3.5788158259e-004
  4.4773750000e+008   2.2500743267e-004  -3.3215432857e-004   9.9387390993e-001  -6.9443161510e-003   1.0005452886e+000  -2.1116797343e-003   5.0025706234e-004   1.2802780962e-004
  4.5632500000e+008  -1.5106779908e-004  -3.3235248962e-004   9.9292075793e-001  -6.3954772667e-003   1.0004447086e+000  -1.9032767905e-003   6.7282091197e-004   2.9032116503e-004
  4.6491250000e+008  -4.8520384862e-004  -3.2286827419e-004   9.9294475830e-001  -8.1074516173e-003   1.0002666789e+000  -1.9319805950e-003   7.3773813770e-004   2.0811870572e-004
  4.7350000000e+008  -6.2662356752e-004  -3.3854019162e-004   9.9271744121e-001  -7.4316844382e-003   1.0005480273e+000  -1.6514141642e-003   7.1153321396e-004   1.2103702928e-007
  4.8208750000e+008  -3.1111390999e-004   6.7137163140e-005   9.9076835017e-001  -8.6165124713e-003   9.9992754701e-001  -1.3609768552e-003   7.8181006504e-004   1.9242575094e-005
  4.9067500000e+008  -1.8868266487e-005  -3.0417367742e-004   9.8962176818e-001  -8.4229354785e-003   9.9967616453e-001  -1.8146485409e-003   3.3509635345e-004   1.6565366120e-004
  4.9926250000e+008  -1.3348662870e-004  -3.2949620481e-004   9.8986257306e-001  -7.9742144015e-003   9.9988602777e-001  -1.5924729738e-003   5.7662182694e-004   9.2532485598e-005
  5.0785000000e+008  -5.0577052904e-004  -2.5299948430e-004   9.8959983644e-001  -7.7988367961e-003   9.9996279655e-001  -1.1469630144e-003   5.2915022019e-004   4.0664795089e-004
  5.1643750000e+008  -3.6795898928e-004  -5.6798268937e-005   9.8946932704e-001  -7.4081273410e-003   1.0005655711e+000  -1.5218779151e-003   8.9649129435e-004  -8.9427625176e-005
  5.2502500000e+008  -2.5756035058e-004   4.4472005982e-004   9.9067278119e-001  -6.9061899806e-003   1.0008373893e+000  -1.0086052383e-003   2.6148745867e-004  -3.6707594920e-004
  5.3361250000e+008   4.1647856304e-004   4.7623520898e-004   9.9245471009e-001  -7.9116462323e-003   1.0004463866e+000  -1.6869260618e-003   1.2215112155e-004  -7.3993167996e-004
  5.4220000000e+008   7.4208517517e-004  -1.0003933672e-004   9.9160998557e-001  -8.5181090725e-003   1.0009214201e+000  -1.5521121651e-003  -9.1512794762e-004  -5.4042275296e-004
  5.5078750000e+008   6.0526958505e-004  -6.2464472333e-004   9.9088117359e-001  -1.0388971275e-002   1.0005920373e+000  -2.0159084219e-003  -9.6672050016e-004  -2.3193254675e-004
  5.5937500000e+008   3.6256437347e-004  -7.9359807471e-004   9.8918506183e-001  -8.3996101479e-003   1.0007201075e+000  -1.9697746371e-003  -1.0205733238e-003   8.2347848376e-005
  5.6796250000e+008   3.5828243471e-004  -9.0648895725e-004   9.9264834701e-001  -8.7281436046e-003   1.0002434031e+000  -1.7852733451e-003  -1.0113435656e-003   3.5788819752e-004
  5.7655000000e+008  -2.2025586108e-004  -9.5165332819e-004   9.9084754490e-001  -8.5349521080e-003   1.0006338423e+000  -2.4754677937e-003  -8.6305465243e-004   7.5489325023e-004
  5.8513750000e+008  -4.1568748549e-004  -8.3185483572e-004   9.9151191918e-001  -8.3796581976e-003   9.9951694374e-001  -1.4389477286e-003  -9.4285591567e-004   8.9777185399e-004
  5.9372500000e+008  -5.0849666968e-004  -8.6106052165e-004   9.8856486522e-001  -8.8703728127e-003   9.9983163013e-001  -2.8077242454e-003  -6.2718303335e-004   9.9774126640e-004
  6.0231250000e+008  -1.0121030664e-003  -5.5867655137e-004   9.9050434792e-001  -7.6611759188e-003   1.0004579499e+000  -1.5315042017e-003  -4.4161200578e-004   9.3723996847e-004
  6.1090000000e+008  -8.6949211836e-004  -3.7326933963e-004   9.9096908909e-001  -1.0269340066e-002   1.0002711429e+000  -1.8845977484e-003  -4.9189318203e-004   1.0559934293e-003
  6.1948750000e+008  -8.5832174348e-004   5.3868146902e-005   9.9130474903e-001  -7.2609336351e-003   9.9989852579e-001  -1.7857550788e-003  -3.4533046008e-004   7.6856257726e-004
  6.2807500000e+008  -7.2809480720e-004   7.7628851637e-005   9.9132228756e-001  -9.4686424486e-003   1.0000044353e+000  -1.5487356825e-003  -6.3091003612e-005   5.3576972132e-004
  6.3666250000e+008  -5.0827897883e-004   6.1467457492e-004   9.9126309232e-001  -8.1442117545e-003   1.0000501361e+000  -1.9077481717e-003   6.6444389523e-005   4.5256823675e-004
  6.4525000000e+008  -1.7947566520e-004   4.8859217379e-004   9.8967511569e-001  -8.2432331350e-003   1.0000774816e+000  -2.3454859157e-003   2.5279582849e-004   5.7908929067e-005
  6.5383750000e+008   1.5022356528e-004   3.3187287703e-004   9.9057265364e-001  -8.0114867571e-003   1.0003825409e+000  -1.8947601010e-003   3.6818463968e-004  -1.0556465063e-004
  6.6242500000e+008   4.6687407288e-004   1.5706476757e-004   9.8888481616e-001  -7.5870700693e-003   1.0003208405e+000  -2.7492409870e-003   4.0749360447e-004  -3.7000698210e-004
  6.7101250000e+008   4.2655096910e-004  -1.2049938783e-004   9.9295748263e-001  -6.9773435592e-003   1.0001485152e+000  -1.9249345801e-003   3.9582046642e-004  -6.8881871041e-004
  6.7960000000e+008   6.4814557518e-004  -3.5295539486e-004   9.8955197251e-001  -8.4338244479e-003   1.0004576366e+000  -2.4667403451e-003   2.5750866563e-004  -1.1073438232e-003
  6.8818750000e+008   3.2851100021e-004  -7.9598583871e-004   9.8995155468e-001  -8.3612115127e-003   9.9995332645e-001  -2.7206149489e-003   1.0815765518e-004  -1.1635516625e-003
  6.9677500000e+008   1.3229103015e-004  -1.0049981123e-003   9.8933179008e-001  -8.0157472539e-003   9.9979402087e-001  -2.0025489887e-003  -1.5722735240e-004  -1.2161322411e-003
  7.0536250000e+008  -2.2850679600e-004  -1.2835959034e-003   9.8932385454e-001  -8.5820465662e-003   1.0000336209e+000  -2.2438757767e-003  -3.2487834546e-004  -1.3954046968e-003
  7.1395000000e+008  -7.4679121432e-004  -1.0936378927e-003   9.9017590537e-001  -8.2409832386e-003   9.9998806319e-001  -2.3755745200e-003  -6.6561870948e-004  -1.3537096694e-003
  7.2253750000e+008  -9.7871553111e-004  -9.6617552440e-004   9.8998479462e-001  -8.9080760075e-003   1.0001873491e+000  -2.2088076513e-003  -7.4870277014e-004  -1.4839417020e-003
  7.3112500000e+008  -1.0480431135e-003  -5.1492223974e-004   9.8882309934e-001  -9.2744943427e-003   1.0004108292e+000  -2.0601622088e-003  -1.0587786543e-003  -9.6440058774e-004
  7.3971250000e+008  -1.0971103181e-003  -7.7128115615e-005   9.9048291193e-001  -8.8206687657e-003   9.9991663094e-001  -2.7434746757e-003  -1.2589887772e-003  -8.5904733922e-004
  7.4830000000e+008  -1.0673175676e-003   4.1589746059e-004   9.8979478340e-001  -9.0397911880e-003   9.9965784696e-001  -1.7426856890e-003  -1.0934534307e-003  -6.1975905053e-004
  7.5688750000e+008  -8.2068233303e-004   7.1069069609e-004   9.9041901969e-001  -8.8938371393e-003   9.9960643886e-001  -3.2360937080e-003  -1.1757351502e-003  -2.5916967193e-004
  7.6547500000e+008  -1.0446716191e-004   9.0953031973e-004   9.9134166952e-001  -8.4000538036e-003   9.9932407593e-001  -2.4518758102e-003  -1.1292241840e-003  -8.8542823183e-005
  7.7406250000e+008   7.9523955612e-005   7.8352493126e-004   9.9020169213e-001  -9.2696613542e-003   9.9991607214e-001  -2.7366688720e-003  -9.6185228606e-004   2.6284258343e-004
  7.8265000000e+008   3.6624560623e-004   7.2113768971e-004   9.9082709329e-001  -8.2066991227e-003   1.0000074317e+000  -3.1329998195e-003  -8.2478013845e-004   5.6649076731e-004
  7.9123750000e+008   6.4159778066e-004   3.9039017132e-004   9.9117508857e-001  -8.6085603586e-003   9.9931056320e-001  -1.8755018164e-003  -7.5231841955e-004   6.4804945083e-004
  7.9982500000e+008   6.9160846383e-004   2.9072808911e-004   9.9174737873e-001  -7.2270391677e-003   1.0003567966e+000  -2.0386219589e-003  -5.0362541919e-004   9.1810216263e-004
  8.0841250000e+008   1.0470106097e-003   1.3841658842e-004   9.9156651119e-001  -7.9828176982e-003   9.9945579983e-001  -2.1863006289e-003  -4.0705799157e-004   9.1607920934e-004
  8.1700000000e+008   1.0462227913e-003  -1.6378628159e-004   9.9312866214e-001  -7.4049700366e-003   1.0002139697e+000  -2.8692731854e-003  -3.9629581129e-004   9.9932794235e-004
  8.2558750000e+008   1.0646013858e-003  -5.4181560107e-004   9.9313879672e-001  -7.3692256111e-003   1.0014163698e+000  -2.7197127237e-003  -5.6198879917e-004   1.2648330505e-003
  8.3417500000e+008   1.0017666250e-003  -1.1408710557e-003   9.9308906183e-001  -7.5468428487e-003   1.0011747726e+000  -2.4102277719e-003  -3.0132100987e-004   1.3650613084e-003
  8.4276250000e+008   5.6815822646e-004  -1.2580863841e-003   9.9050988406e-001  -7.4387607415e-003   9.9935268644e-001  -3.3982008065e-003  -7.9505009665e-006   1.2731428019e-003
  8.5135000000e+008   6.1928437207e-005  -1.3320421672e-003   9.9315909520e-001  -7.4382446094e-003   1.0000488333e+000  -2.0877741212e-003   2.6309450425e-004   1.5711295978e-003
  8.5993750000e+008  -1.7591359580e-004  -1.2357914151e-003   9.9233688417e-001  -7.7756102136e-003   9.9943536601e-001  -2.9559357236e-003   3.9053264908e-004   1.2117004918e-003
  8.6852500000e+008  -5.8036952045e-004  -8.7666212730e-004   9.8963327319e-001  -8.1801055509e-003   9.9973393619e-001  -2.0278455831e-003   6.9485330126e-004   9.3204536564e-004
  8.7711250000e+008  -5.5657201234e-004  -6.5051815399e-004   9.9095132519e-001  -9.4829011100e-003   9.9986342983e-001  -3.7460381834e-003   6.1145957893e-004   2.7852728407e-004
  8.8570000000e+008  -4.2950203007e-004  -3.9326796623e-004   9.9382658364e-001  -7.5708464585e-003   9.9909057460e-001  -3.5004479721e-003   5.3351025104e-004   1.0568213234e-004
  8.9428750000e+008  -4.3908323445e-004  -3.1273971460e-004   9.9120165984e-001  -9.9790064868e-003   1.0000044071e+000  -3.3244816554e-003   2.2638995342e-004  -4.0928318981e-004
  9.0287500000e+008   2.6877127336e-005  -2.5141182522e-004   9.9140426659e-001  -8.4458329076e-003   9.9990661161e-001  -3.3867868152e-003   8.4850744654e-005  -4.3493220289e-004
  9.1146250000e+008   2.8104942726e-004  -1.6602651754e-004   9.9076795956e-001  -8.5968780238e-003   9.9839184962e-001  -3.6087376254e-003  -3.5407154453e-004  -4.6936114564e-004
  9.2005000000e+008   1.9364525432e-004  -3.4016698028e-004   9.9288931490e-001  -7.0622986101e-003   9.9883034832e-001  -2.2176026240e-003  -5.9052540972e-004  -6.5446176190e-004
  9.2863750000e+008   4.5999681178e-004  -5.3395590758e-004   9.9185638538e-001  -8.6489722653e-003   9.9995284476e-001  -2.6872903529e-003  -9.0997848169e-004  -6.0128122277e-004
  9.3722500000e+008   4.7400594194e-004  -7.9974448932e-004   9.9062835421e-001  -7.9300887800e-003   9.9953736004e-001  -2.4251447891e-003  -1.1695514770e-003  -6.4585893689e-004
  9.4581250000e+008   3.2665312078e-004  -9.2850199238e-004   9.9094249560e-001  -7.4089683502e-003   9.9933697115e-001  -3.0878648691e-003  -1.3863480914e-003  -5.3985352968e-004
  9.5440000000e+008  -9.7475281781e-005  -1.2980948691e-003   9.8943643130e-001  -8.5397202460e-003   1.0005558171e+000  -2.4592644375e-003  -1.4606981225e-003  -4.1987113984e-004
  9.6298750000e+008  -3.1275397723e-004  -1.3266713681e-003   9.9255917265e-001  -7.4022930922e-003   1.0000318297e+000  -3.1455636435e-003  -1.7419214146e-003  -3.2773554553e-004
  9.7157500000e+008  -5.9083319872e-004  -1.3012605560e-003   9.9236094402e-001  -9.0272625421e-003   1.0003036345e+000  -3.0389112469e-003  -1.5501071400e-003  -1.3251032855e-004
  9.8016250000e+008  -8.8038344367e-004  -1.0172690309e-003   9.9388130720e-001  -8.5610256841e-003   9.9958964690e-001  -3.6412173595e-003  -1.5470595393e-003   2.1272663844e-004
  9.8875000000e+008  -1.1235609620e-003  -7.3453750150e-004   9.9227937602e-001  -7.6728244853e-003   9.9994628968e-001  -2.5752133273e-003  -1.3559660954e-003   2.8898750468e-004
  9.9733750000e+008  -1.1347610065e-003  -4.0866313370e-004   9.9245527254e-001  -8.6873347412e-003   9.9945169789e-001  -2.7094989186e-003  -1.2436379978e-003   1.9170704692e-004
  1.0059250000e+009  -1.1086130132e-003  -9.2053611878e-005   9.9248804893e-001  -8.7162844483e-003   9.9989996421e-001  -3.2040865226e-003  -7.6689248664e-004   3.1606984782e-004
  1.0145125000e+009  -8.6483534229e-004   2.6616158339e-004   9.9241415762e-001  -1.0339511337e-002   9.9994261193e-001  -2.8526986972e-003  -3.8808835729e-004   3.2982305866e-004
  1.0231000000e+009  -5.7132837275e-004   4.2581306139e-004   9.9049605504e-001  -9.1573043194e-003   9.9889032926e-001  -3.6602513603e-003  -2.7462389759e-004   2.4436540266e-004
  1.0316875000e+009  -3.3990897251e-004   6.3912156848e-004   9.9267777379e-001  -9.2154730202e-003   9.9957776113e-001  -2.8173704591e-003   8.7517766554e-005   2.3466768011e-004
  1.0402750000e+009   1.7171227849e-004   6.7942485633e-004   9.9157301993e-001  -8.8027982856e-003   9.9943993989e-001  -2.3243908075e-003   4.5713276557e-004   1.2818369432e-005
  1.0488625000e+009   3.9656520413e-004   6.2118722467e-004   9.9281596259e-001  -8.4555440660e-003   9.9954319597e-001  -2.8673382266e-003   6.8500862183e-004  -1.2892314768e-004
  1.0574500000e+009   6.2814986780e-004   2.3506581541e-004   9.9135720341e-001  -7.6234503941e-003   9.9955806385e-001  -3.3355561415e-003   7.8494868543e-004  -4.4209516613e-004
