# Hz S RI R 50.000000
! Metas.Vna.Tools, 2.8.8664.20301
! Metas.Vna.Data, 2.8.8664.20285
! Created: UTC 2024.02.11 10:08:42
! FREQ                re:S1,1             im:S1,1             re:S2,1             im:S2,1             re:S1,2             im:S1,2             re:S2,2             im:S2,2          
  1.3000000000e+008  -5.1241159855e-004  -1.4484017350e-003   9.9491882259e-001  -5.3778319546e-003   1.0009380879e+000   2.9836666524e-004   5.4274500575e-004   1.1430561975e-003
  1.3858750000e+008  -5.1028984326e-004  -8.0229785225e-004   9.9532131717e-001  -4.9916594144e-003   1.0005324984e+000   4.8507137860e-004   1.4558349836e-003  -1.1869594526e-004
  1.4717500000e+008  -1.8047707409e-003  -7.6787305537e-004   9.9587199067e-001  -6.1062638619e-003   9.9997095600e-001   5.0383946377e-004   1.2308913324e-003  -4.3155875659e-004
  1.5576250000e+008  -1.2037493518e-003  -1.3342342626e-004   9.9569347309e-001  -5.2497827213e-003   1.0005710671e+000   5.3306956439e-004   1.1342979263e-003  -7.8945297475e-004
  1.6435000000e+008  -8.6466056990e-004   7.9746037507e-004   9.9646722374e-001  -4.3593984555e-003   1.0007515589e+000   6.2458336507e-005   6.7263725079e-004  -5.5866416409e-004
  1.7293750000e+008  -9.5730694077e-004   1.2677128202e-003   9.9558229320e-001  -5.0098519702e-003   1.0005287967e+000   8.2527594387e-005   7.1522251190e-004  -7.5874735805e-004
  1.8152500000e+008  -4.8042733429e-004   6.5399933472e-004   9.9587470449e-001  -4.9081820832e-003   1.0003351116e+000  -4.5618480919e-004   4.7925255091e-004  -1.0363185551e-003
  1.9011250000e+008  -5.8398660100e-004   7.2149904290e-004   9.9690992476e-001  -5.6694210226e-003   1.0009088461e+000  -2.0091224979e-004   3.1003135544e-004  -1.2791642484e-003
  1.9870000000e+008  -2.7070773049e-004   8.8631370628e-004   9.9526395765e-001  -6.1177144636e-003   1.0007561286e+000  -3.2750784509e-004   1.7561939597e-004  -3.9416170529e-004
  2.0728750000e+008   4.1982745718e-004   8.8641516702e-005   9.9547509886e-001  -4.8620386443e-003   1.0003557903e+000  -1.4095360621e-004  -1.5625433378e-004  -6.4251876064e-004
  2.1587500000e+008   1.1442421762e-004  -4.9364914328e-004   9.9650045103e-001  -5.6732705385e-003   9.9987514032e-001   1.4611372160e-004  -6.3542499216e-004  -5.8604725577e-005
  2.2446250000e+008   1.9561763224e-004  -3.7679230980e-004   9.9581335656e-001  -5.3228051668e-003   9.9985402083e-001  -5.7084210441e-004  -3.7124181574e-004  -7.9012618024e-005
  2.3305000000e+008   3.2664035266e-004  -6.8923485108e-005   9.9603242715e-001  -5.4296220684e-003   1.0003293787e+000   1.4804120163e-004  -6.7848318807e-004   1.2444159951e-004
  2.4163750000e+008  -3.9530424138e-004  -2.4785979794e-004   9.9541652132e-001  -6.5390182585e-003   1.0002718164e+000  -6.8930453257e-004  -8.5219613263e-004   2.5229247145e-004
  2.5022500000e+008  -5.3143918225e-004  -5.3201478446e-004   9.9443653238e-001  -6.2770671971e-003   1.0002709442e+000  -3.8281812329e-004  -8.7471513442e-004   6.1701190503e-004
  2.5881250000e+008  -7.1018843559e-004  -7.8862253489e-004   9.9412780963e-001  -4.9655319147e-003   1.0006370595e+000  -1.0766108631e-003  -5.4340076790e-004   7.9173401177e-004
  2.6740000000e+008  -8.0856471066e-004  -6.4523310503e-004   9.9303471145e-001  -7.0299471546e-003   1.0001664422e+000  -1.1892088847e-003  -4.8845824720e-004   4.8114981676e-004
  2.7598750000e+008  -3.5171215829e-004  -2.3677137471e-004   9.9235872256e-001  -7.9570618506e-003   1.0004510253e+000  -1.0127254563e-004  -3.6152243541e-004   5.4621104770e-004
  2.8457500000e+008  -6.3822013653e-004  -4.8976373785e-004   9.9439743266e-001  -5.6231601978e-003   1.0006270613e+000  -5.0156634598e-005  -1.2857189515e-004   6.6582032161e-004
  2.9316250000e+008  -7.1211930368e-004  -4.0668855892e-004   9.9498102086e-001  -6.7253980246e-003   1.0000249376e+000  -9.7239955459e-004  -2.8161169591e-004   3.4339448859e-004
  3.0175000000e+008  -1.0141060836e-003   7.1874140977e-005   9.9318307987e-001  -7.6655286934e-003   9.9989729198e-001  -3.9588071686e-004  -6.3049669563e-004   4.5922959468e-004
  3.1033750000e+008  -9.6884335905e-004   3.8505235359e-004   9.9466514159e-001  -5.5396973372e-003   1.0011988258e+000  -1.0902368727e-003  -6.8496549912e-004   6.7512765759e-004
  3.1892500000e+008  -9.4952475574e-004  -2.6406442738e-004   9.9353902647e-001  -7.3024281472e-003   1.0003873226e+000   3.2799367697e-005  -6.0881550091e-004   2.3360868273e-004
  3.2751250000e+008  -5.3469968286e-004  -1.0209561597e-004   9.9351081155e-001  -8.2468780527e-003   1.0000390798e+000  -1.2100626109e-003  -7.1749073972e-004   2.8081020883e-004
  3.3610000000e+008  -7.4812136674e-004  -7.5481111139e-005   9.9297361552e-001  -5.3791727459e-003   1.0009204498e+000  -1.1486424778e-003  -7.6587212961e-004   1.9567980148e-004
  3.4468750000e+008  -6.4372844383e-004   3.1737080772e-004   9.9309662341e-001  -6.5978199608e-003   1.0004866319e+000  -9.9629584948e-004  -5.4012012264e-004   2.3823705039e-004
  3.5327500000e+008  -6.9710391500e-004   1.2575755410e-004   9.9383395216e-001  -7.5861260488e-003   9.9944927404e-001  -1.7712517089e-003  -6.0022207666e-004   1.6560606121e-004
  3.6186250000e+008  -4.4109241620e-004   3.0940637663e-004   9.9528280235e-001  -6.5468281852e-003   1.0005166410e+000  -1.2480502517e-003  -4.9761798162e-004   2.6291666539e-004
  3.7045000000e+008  -7.8695186785e-004   4.2371073576e-004   9.9246024850e-001  -6.8022186574e-003   1.0008515835e+000  -1.1931118365e-003  -7.9953726382e-004   9.2153526318e-005
  3.7903750000e+008  -8.4331466008e-005   5.1976181940e-004   9.9520260674e-001  -6.8328758811e-003   1.0001639794e+000  -1.0897897048e-003  -5.2496816639e-004   2.1971449117e-004
  3.8762500000e+008  -3.3688484428e-004   2.3406640362e-004   9.9694307435e-001  -4.9644374618e-003   9.9976243497e-001  -8.7271024267e-004  -6.0749017071e-004   5.1978105833e-004
  3.9621250000e+008  -1.5811612690e-004   2.6236626815e-004   9.9476719358e-001  -6.1410575853e-003   1.0004736155e+000  -8.1830451484e-004  -5.4950654865e-004   5.9528230259e-004
  4.0480000000e+008   1.9661988622e-004   2.3699148233e-004   9.9591640778e-001  -6.2693063684e-003   1.0003735783e+000  -1.1356674477e-003  -1.1593805767e-004   4.0490137379e-004
  4.1338750000e+008   3.5045043893e-004   3.2728203500e-005   9.9530411192e-001  -4.5006183717e-003   1.0009300082e+000  -9.7361494511e-004  -8.5807745345e-005   6.0539498369e-004
  4.2197500000e+008   1.2320129302e-004  -1.3892925276e-004   9.9535553956e-001  -6.2844168332e-003   1.0008974533e+000  -1.2363311039e-003   8.2324133065e-006   6.8129584525e-004
  4.3056250000e+008   1.3639694249e-004   8.6305651256e-005   9.9574209011e-001  -5.7526742329e-003   1.0005093254e+000  -1.4091488404e-003   4.4154368665e-004   5.2544531049e-004
  4.3915000000e+008  -3.8014383492e-005  -1.5516175726e-004   9.9734033094e-001  -5.2927209980e-003   1.0003719904e+000  -1.4557616840e-003   4.9570592293e-004   2.4110155688e-004
  4.4773750000e+008   2.0008438583e-004  -1.7805836433e-004   9.9824684788e-001  -4.8423508887e-003   1.0004161308e+000  -1.6688447746e-003   7.6871092601e-004   4.0293745305e-004
  4.5632500000e+008  -1.5842851024e-004  -3.6345663745e-004   9.9571709915e-001  -4.9329543127e-003   1.0005165583e+000  -1.3824096149e-003   7.3345794440e-004   3.6162858791e-004
  4.6491250000e+008  -1.1990058542e-004  -3.9102217732e-004   9.9714073736e-001  -6.3171538325e-003   9.9983805861e-001  -1.4464124529e-003   7.5331102887e-004   1.6817540148e-004
  4.7350000000e+008  -4.3204090342e-004  -3.5783568835e-004   9.9591709895e-001  -6.9896205773e-003   1.0004372455e+000  -1.2644361095e-003   6.5220210523e-004   1.6250086348e-004
  4.8208750000e+008  -4.2610088261e-004  -6.8157417249e-005   9.9354378974e-001  -6.4398658019e-003   9.9987562790e-001  -1.1531358962e-003   9.5745028005e-004   1.4660200617e-004
  4.9067500000e+008  -7.9863831120e-005  -3.5523179125e-004   9.9313610635e-001  -6.9973518294e-003   1.0000850324e+000  -1.5037590744e-003   5.6429199032e-004   1.4740594806e-004
  4.9926250000e+008  -1.9884346897e-004  -2.5882854809e-004   9.8680009921e-001  -8.0814524695e-003   1.0003095008e+000  -1.7567936841e-003   6.1652855250e-004   4.9939069501e-005
  5.0785000000e+008  -5.7282395905e-004  -1.2027881345e-004   9.9356685447e-001  -6.5978653883e-003   1.0000076533e+000  -8.6795651249e-004   6.5595602150e-004   8.1485805228e-005
  5.1643750000e+008  -5.4957468085e-004   1.0504043389e-004   9.9342969297e-001  -5.6838220897e-003   1.0004287487e+000  -1.2969655414e-003   8.5139319335e-004  -2.6612959895e-004
  5.2502500000e+008  -2.8739774476e-004   4.9215775555e-004   9.9258247179e-001  -5.5831977403e-003   1.0006607338e+000  -6.8968248305e-004   2.4371835806e-004  -5.4177301121e-004
  5.3361250000e+008   4.3017239942e-004   2.5984953138e-004   9.9305935650e-001  -7.1777638995e-003   1.0005763728e+000  -1.6968709729e-003  -1.2644640422e-004  -6.4535581641e-004
  5.4220000000e+008   7.0565671079e-004   1.3900194031e-004   9.8901583618e-001  -9.3366178783e-003   1.0008880536e+000  -1.5125516423e-003  -8.5105275330e-004  -2.9479608081e-004
  5.5078750000e+008   6.1168625083e-004  -3.6965480000e-004   9.9116236626e-001  -7.8011912041e-003   1.0006934489e+000  -2.2932692353e-003  -1.0814212981e-003  -3.9726489856e-004
  5.5937500000e+008   5.5764339456e-004  -7.0803667904e-004   9.9231222740e-001  -8.0653586050e-003   1.0002717315e+000  -1.6787243666e-003  -8.8223322837e-004   2.4292160339e-004
  5.6796250000e+008   2.7298668713e-004  -7.6633023850e-004   9.9360114434e-001  -7.2422078533e-003   1.0007179454e+000  -2.0377234248e-003  -9.9969400729e-004   5.7716373630e-004
  5.7655000000e+008  -1.9401630726e-004  -1.0818612964e-003   9.9153758037e-001  -9.1961293139e-003   1.0002837006e+000  -2.3242498261e-003  -8.9363583718e-004   7.2267850288e-004
  5.8513750000e+008  -3.8058367441e-004  -9.1091288543e-004   9.9101392773e-001  -8.2162370333e-003   9.9930888609e-001  -1.4674677464e-003  -8.9325346114e-004   7.9867119094e-004
  5.9372500000e+008  -5.6665371478e-004  -8.7622549973e-004   9.9173892033e-001  -7.6287336004e-003   1.0003671449e+000  -2.3614284418e-003  -7.6011665914e-004   1.0038648680e-003
  6.0231250000e+008  -9.3452281866e-004  -5.5544021594e-004   9.9316462336e-001  -6.1333697814e-003   9.9987245617e-001  -1.7274036825e-003  -4.7691061347e-004   1.0038796621e-003
  6.1090000000e+008  -8.1178299096e-004  -4.0037333973e-004   9.9182030523e-001  -8.0821825932e-003   9.9999398904e-001  -2.0080392680e-003  -5.4001213354e-004   9.8343759148e-004
  6.1948750000e+008  -8.4386127980e-004  -9.3897290711e-005   9.9140442883e-001  -7.0448558249e-003   9.9999254644e-001  -1.9183141718e-003  -3.8548560153e-004   7.8784437787e-004
  6.2807500000e+008  -7.7392241391e-004  -1.5598031881e-004   9.9231161866e-001  -9.1211693951e-003   1.0001242876e+000  -1.7604135038e-003   9.5027420927e-005   5.6764368981e-004
  6.3666250000e+008  -4.1783941615e-004   5.5365786593e-004   9.9320676096e-001  -6.7588874788e-003   1.0000193350e+000  -2.1846033163e-003   8.7057292527e-005   4.5622553368e-004
  6.4525000000e+008  -9.8467400931e-005   5.2671732081e-004   9.9181856558e-001  -5.9874040555e-003   1.0001223336e+000  -1.7399097896e-003   2.5595758831e-004   8.6877942657e-005
  6.5383750000e+008   1.6254809416e-004   3.0226306216e-004   9.9245863264e-001  -6.7410724897e-003   1.0000523701e+000  -1.1893357466e-003   3.3779261423e-004  -1.8540941906e-004
  6.6242500000e+008   3.2553124445e-004   2.5409813336e-004   9.9005251910e-001  -8.3542695033e-003   1.0000914070e+000  -2.4839674236e-003   4.0966332365e-004  -2.4903484221e-004
  6.7101250000e+008   3.2773913252e-004  -9.9556456919e-005   9.9207231223e-001  -6.7344095990e-003   9.9991477307e-001  -1.8754625360e-003   3.5509415963e-004  -4.6966184162e-004
  6.7960000000e+008   6.9291603632e-004  -4.3533390078e-004   9.9339250865e-001  -7.6029602608e-003   9.9986980228e-001  -2.1709890323e-003   3.5653324250e-004  -1.0900989924e-003
  6.8818750000e+008   2.6674125920e-004  -8.9971943844e-004   9.9303129243e-001  -6.0310251091e-003   9.9994543229e-001  -2.2806016835e-003   1.5424924788e-004  -1.0477201362e-003
  6.9677500000e+008   1.1995220613e-004  -1.0575338942e-003   9.9319635569e-001  -6.2971248875e-003   1.0001163325e+000  -2.0219052524e-003  -6.2329873474e-005  -1.2937078087e-003
  7.0536250000e+008  -2.1279694144e-004  -1.0722815818e-003   9.9474868672e-001  -7.6348539936e-003   9.9946157519e-001  -2.0434470553e-003  -2.1756837019e-004  -1.3729005822e-003
  7.1395000000e+008  -6.0665305572e-004  -1.0284921354e-003   9.9406794887e-001  -7.3512330118e-003   1.0000610841e+000  -2.4215917563e-003  -4.9610730278e-004  -1.4361014823e-003
  7.2253750000e+008  -1.0019446856e-003  -7.8952492814e-004   9.9254240558e-001  -7.0807045571e-003   9.9989784127e-001  -2.3184494351e-003  -7.6071188059e-004  -1.3151754606e-003
  7.3112500000e+008  -1.1480442870e-003  -5.1000865903e-004   9.9294549924e-001  -6.6745348335e-003   1.0009781963e+000  -2.2643292618e-003  -9.3897233692e-004  -1.0058144865e-003
  7.3971250000e+008  -1.0374135821e-003  -1.5063691296e-004   9.9297770540e-001  -8.6786565472e-003   1.0000944969e+000  -2.2221237934e-003  -1.1049647423e-003  -8.7078961653e-004
  7.4830000000e+008  -1.0086063180e-003   4.4228597449e-004   9.9342250386e-001  -6.7118335131e-003   9.9942897777e-001  -2.0108820933e-003  -1.0915716116e-003  -7.2170573213e-004
  7.5688750000e+008  -8.3512175992e-004   5.9288736690e-004   9.9226555627e-001  -8.0857835846e-003   9.9930561254e-001  -2.6337710131e-003  -1.2532450415e-003  -3.1555833922e-004
  7.6547500000e+008  -2.6929493493e-004   8.0982903855e-004   9.9178648711e-001  -8.2216000961e-003   9.9912556200e-001  -3.1348399006e-003  -1.2154155489e-003  -1.3916179605e-004
  7.7406250000e+008   2.7853511932e-005   7.2952240518e-004   9.8932465948e-001  -8.4234832729e-003   1.0002068506e+000  -1.7226871708e-003  -8.3655755257e-004   1.3684992413e-004
  7.8265000000e+008   2.6301329536e-004   6.8101496663e-004   9.9033220468e-001  -7.7258870496e-003   9.9961275201e-001  -1.5505808058e-003  -8.0226417314e-004   5.3019666438e-004
  7.9123750000e+008   5.3765981639e-004   4.7959205981e-004   9.9125582611e-001  -7.3117056378e-003   9.9977756642e-001  -1.8642218556e-003  -6.7448212519e-004   6.3344914444e-004
  7.9982500000e+008   7.3631215113e-004   5.3027708675e-004   9.9178343140e-001  -6.5126978183e-003   1.0011270724e+000  -1.1176418394e-003  -5.2854214727e-004   8.2544557752e-004
  8.0841250000e+008   1.1141887408e-003   7.6013100259e-005   9.9088741414e-001  -8.5175315395e-003   9.9993281796e-001  -1.5226701405e-003  -5.6108582427e-004   1.0117042922e-003
  8.1700000000e+008   1.3173080491e-003  -2.4510369087e-004   9.9228688851e-001  -7.5088894252e-003   1.0001458608e+000  -2.0994630242e-003  -4.6400469784e-004   1.0505431082e-003
  8.2558750000e+008   1.2235784026e-003  -6.6153551940e-004   9.9224006842e-001  -7.5060661204e-003   1.0007056237e+000  -2.9002002132e-003  -5.4336716799e-004   1.1690213909e-003
  8.3417500000e+008   9.5630805309e-004  -1.1274339235e-003   9.9265986567e-001  -7.9650012726e-003   1.0008406970e+000  -2.9076160632e-003  -1.7567219810e-004   1.3821016973e-003
  8.4276250000e+008   5.2414033105e-004  -1.3521912877e-003   9.9122675318e-001  -8.0378294648e-003   9.9948166014e-001  -2.9705242018e-003   4.5972972414e-005   1.3226763969e-003
  8.5135000000e+008   4.8595430960e-005  -1.2542932052e-003   9.9228566381e-001  -7.0660060791e-003   1.0009242945e+000  -2.9570903445e-003   3.1739860348e-004   1.4233046277e-003
  8.5993750000e+008  -2.3325167119e-004  -1.3205918382e-003   9.9158043677e-001  -7.4503997299e-003   1.0000735692e+000  -2.9453981863e-003   3.1764917825e-004   1.2018829963e-003
  8.6852500000e+008  -4.3079194145e-004  -9.6718895373e-004   9.9088829440e-001  -8.3141878153e-003   9.9920513723e-001  -2.2080396319e-003   6.8414844925e-004   9.4547354045e-004
  8.7711250000e+008  -5.4657748524e-004  -7.4004908796e-004   9.9229290151e-001  -7.5312302725e-003   1.0001972313e+000  -2.8715934488e-003   6.6601733592e-004   4.6527312341e-004
  8.8570000000e+008  -4.2047242691e-004  -4.5713926177e-004   9.9388587462e-001  -8.4241204823e-003   9.9975222725e-001  -2.8123902733e-003   6.8371982157e-004   5.2503394105e-005
  8.9428750000e+008  -3.1636122710e-004  -2.3741727929e-004   9.9111338675e-001  -8.6088604884e-003   1.0006043429e+000  -3.3364544229e-003   3.1908835986e-004  -2.3547440440e-004
  9.0287500000e+008   2.5269759454e-005  -2.6980206731e-004   9.9341661132e-001  -8.2286943491e-003   9.9942799238e-001  -3.5314531610e-003   6.0019807988e-005  -5.6582930155e-004
  9.1146250000e+008   2.6377115779e-004  -2.2236033373e-004   9.9089746982e-001  -8.5849072661e-003   9.9828966456e-001  -3.0966598103e-003  -5.0605819939e-004  -5.0795219037e-004
  9.2005000000e+008   2.3537041959e-004  -3.8663977485e-004   9.9066488915e-001  -8.2592262478e-003   9.9882069175e-001  -1.7356423380e-003  -6.9445974586e-004  -5.7659750974e-004
  9.2863750000e+008   4.8778632853e-004  -4.9103138014e-004   9.9086086918e-001  -7.9819170629e-003   9.9934709131e-001  -2.5957728188e-003  -8.1386534791e-004  -7.3719467922e-004
  9.3722500000e+008   4.6190067468e-004  -8.3364616739e-004   9.9176169295e-001  -7.1193896667e-003   9.9866087091e-001  -2.5342852854e-003  -1.1461689757e-003  -7.8558746222e-004
  9.4581250000e+008   2.9716304003e-004  -1.1633477156e-003   9.9099177605e-001  -7.4074393797e-003   9.9950383587e-001  -2.8594822154e-003  -1.4444708119e-003  -5.5382699986e-004
  9.5440000000e+008  -1.2700530765e-005  -1.2152565289e-003   9.9014385559e-001  -8.8435526888e-003   1.0000328127e+000  -2.5752013368e-003  -1.5359392868e-003  -3.4738432275e-004
  9.6298750000e+008  -2.7071816787e-004  -1.3332929732e-003   9.9259498271e-001  -6.8791714427e-003   1.0000866516e+000  -2.6421669928e-003  -1.6173616655e-003  -2.6042083120e-004
  9.7157500000e+008  -5.1470011135e-004  -1.3256641563e-003   9.9254898083e-001  -8.1099627381e-003   1.0001168871e+000  -2.7565437158e-003  -1.5812740135e-003  -1.0980160539e-004
  9.8016250000e+008  -8.5926878960e-004  -1.0717125680e-003   9.9204959414e-001  -7.3213324002e-003   9.9926263153e-001  -3.4339622113e-003  -1.5415921486e-003   5.0684989891e-005
  9.8875000000e+008  -1.1366403417e-003  -7.8815188798e-004   9.9156513613e-001  -7.8541256757e-003   9.9900721423e-001  -2.9239227357e-003  -1.3563516722e-003   2.7903339938e-004
  9.9733750000e+008  -1.1259674908e-003  -4.5770129023e-004   9.9169006260e-001  -9.0293550231e-003   9.9964724717e-001  -2.6434411884e-003  -1.1920173030e-003   1.6322458555e-004
  1.0059250000e+009  -1.0073622654e-003  -3.1951499068e-005   9.9260344218e-001  -6.8532298628e-003   9.9981049921e-001  -2.3701856006e-003  -7.4551769624e-004   1.8203075295e-004
  1.0145125000e+009  -8.8307082111e-004   3.1140102767e-004   9.9165911586e-001  -1.0084945005e-002   9.9932191380e-001  -2.7553315836e-003  -4.4556274398e-004   3.6312083643e-004
  1.0231000000e+009  -6.1940658149e-004   4.2954697505e-004   9.9177366285e-001  -7.3801029877e-003   9.9929339248e-001  -2.7462758048e-003  -3.3109278560e-004   2.1869233139e-004
  1.0316875000e+009  -2.6908677130e-004   7.6357290190e-004   9.9120481573e-001  -9.2787279822e-003   9.9880934201e-001  -2.9218169469e-003  -3.4641545180e-006   1.6554222950e-004
  1.0402750000e+009   1.9578056578e-004   7.4253827111e-004   9.9145996856e-001  -9.1285872490e-003   9.9959314698e-001  -2.0443461742e-003   4.1777865822e-004   5.0934682281e-006
  1.0488625000e+009   3.7938376476e-004   4.3918365367e-004   9.9277041941e-001  -7.5175955736e-003   9.9869940160e-001  -2.4192531663e-003   6.3532506872e-004  -2.4463143837e-004
  1.0574500000e+009   6.3416311295e-004   2.0414059708e-004   9.9220116258e-001  -7.7642037415e-003   9.9973334637e-001  -2.2559293622e-003   8.0725430475e-004  -3.8378526227e-004
