# Hz S RI R 50.000000
! Metas.Vna.Tools, 2.8.8664.20301
! Metas.Vna.Data, 2.8.8664.20285
! Created: UTC 2024.02.11 10:08:20
! FREQ                re:S1,1             im:S1,1             re:S2,1             im:S2,1             re:S1,2             im:S1,2             re:S2,2             im:S2,2          
  1.3000000000e+008  -3.6095875697e-004  -1.1548940581e-003   9.9189128529e-001  -6.5216359868e-003   1.0007912815e+000  -5.8605429699e-004   1.1214095734e-003   5.3861434070e-004
  1.3858750000e+008  -4.7226997204e-004  -1.6813282895e-003   9.9186368440e-001  -6.2726255991e-003   1.0001960125e+000  -4.1996698841e-004   1.2190960980e-003   2.8011744763e-004
  1.4717500000e+008  -1.8227424238e-003  -8.2385917654e-004   9.9249310528e-001  -7.3964061768e-003   1.0007771117e+000  -5.2428141833e-004   3.8876212614e-004   6.1149087242e-006
  1.5576250000e+008  -1.2445858087e-003   1.5927390434e-004   9.9255861510e-001  -6.4757020162e-003   1.0007736461e+000  -4.0025778402e-004   1.4143373352e-003  -7.3934773303e-004
  1.6435000000e+008  -1.2196588286e-003   4.9319786141e-004   9.9270754454e-001  -5.6435111454e-003   1.0005622521e+000  -2.5468701145e-004   8.9682470520e-004  -7.1212695296e-004
  1.7293750000e+008  -1.1619642484e-003   8.1195780545e-004   9.9243867760e-001  -5.0656864637e-003   1.0006000927e+000  -8.4249018092e-004   6.8266415728e-004  -1.1666970407e-003
  1.8152500000e+008  -3.3121816286e-004   4.8416429207e-004   9.9098231920e-001  -6.8185185777e-003   1.0000925769e+000  -1.3086798035e-003   7.9523965118e-004  -3.0822659936e-004
  1.9011250000e+008  -3.2520240711e-004   8.4157971799e-004   9.9376862857e-001  -7.5713354350e-003   1.0004867223e+000  -1.3831373065e-003  -1.8153440002e-004  -1.3051722800e-003
  1.9870000000e+008  -5.3194201417e-005   9.5039283354e-004   9.9423689900e-001  -5.7599959416e-003   1.0003816166e+000  -9.5259448257e-004   1.7033402086e-004  -3.4350357918e-004
  2.0728750000e+008   1.0166071859e-004   3.8130447639e-004   9.9076620745e-001  -6.3484519852e-003   1.0006758012e+000  -1.1494176467e-003   2.5142650399e-004  -2.9661892968e-004
  2.1587500000e+008   3.6028116131e-004  -3.2515024750e-004   9.9551583308e-001  -7.0146274244e-003   9.9999005121e-001  -2.7094185319e-004  -5.7735505630e-004   4.4479914255e-004
  2.2446250000e+008   1.6692065024e-004  -4.4982588279e-004   9.9523678501e-001  -6.6277390157e-003   1.0001520612e+000  -1.2012888121e-003  -3.9126560514e-004   2.3060360241e-004
  2.3305000000e+008   2.8188735788e-004   1.1551011092e-004   9.9238304939e-001  -5.9891919715e-003   1.0010683641e+000  -9.5193730616e-004  -3.1441959301e-004   1.4694397769e-005
  2.4163750000e+008  -1.3648448564e-004  -3.4800982474e-004   9.9421196779e-001  -6.3082681061e-003   1.0003802538e+000  -1.4804911876e-003  -5.7865111277e-004   2.3128885993e-004
  2.5022500000e+008  -4.9551110940e-004  -4.9418823201e-004   9.9185865004e-001  -5.9344518420e-003   1.0005217940e+000  -1.4125951111e-003  -1.0246663822e-003   7.4188447259e-004
  2.5881250000e+008  -4.7991193142e-004  -7.3632252625e-004   9.9077385025e-001  -6.7607050295e-003   1.0010266209e+000  -1.8057328432e-003  -5.5468878394e-004   6.2781132298e-004
  2.6740000000e+008  -7.3337709187e-004  -2.4724364249e-004   9.9214897842e-001  -7.1148824213e-003   9.9990582774e-001  -2.0968220501e-003  -4.9736741050e-004   1.7988412872e-004
  2.7598750000e+008  -2.6431712215e-004  -3.4757085451e-004   9.9193056105e-001  -6.7810629817e-003   1.0002715997e+000  -1.5169408019e-003  -2.6269859640e-004   5.9129396762e-004
  2.8457500000e+008  -6.4145479544e-004  -1.3967558391e-004   9.9143684170e-001  -5.9052093308e-003   1.0006415963e+000  -8.2539863597e-004  -4.7028032379e-004   8.5518961094e-004
  2.9316250000e+008  -4.3601731765e-004  -4.8464985380e-004   9.9186336478e-001  -5.4451260643e-003   1.0004417080e+000  -2.6588179854e-003  -4.8899813453e-004   5.0506076741e-004
  3.0175000000e+008  -9.6693014117e-004   2.4097045849e-004   9.9223292094e-001  -8.1476442731e-003   1.0004710376e+000  -7.8475054562e-004  -6.8125693912e-004   5.4435946527e-004
  3.1033750000e+008  -9.9627809812e-004   1.1758618384e-004   9.9192721149e-001  -5.9289787553e-003   1.0015455179e+000  -1.3182486711e-003  -8.1205358691e-004   7.0805493681e-004
  3.1892500000e+008  -1.0000908724e-003   1.4673844109e-004   9.9360178264e-001  -6.6338954740e-003   1.0009102138e+000  -1.3320552196e-003  -6.9208247453e-004   2.4251027814e-004
  3.2751250000e+008  -9.7010083727e-004   1.1264008878e-004   9.9357070821e-001  -8.1866128762e-003   1.0007948176e+000  -2.3867639665e-003  -7.7391743859e-004   1.5654280854e-004
  3.3610000000e+008  -9.8704173203e-004   2.7465754761e-004   9.9185016150e-001  -6.0989253132e-003   1.0007917657e+000  -1.9815801369e-003  -5.7946345710e-004   3.3489720743e-004
  3.4468750000e+008  -7.2993820768e-004   8.4323162032e-005   9.9311942785e-001  -6.6662526262e-003   1.0007372599e+000  -1.3814308769e-003  -5.9204104556e-004   1.5744980184e-005
  3.5327500000e+008  -6.0424089381e-004   2.1376464642e-004   9.9293188203e-001  -7.2567416740e-003   9.9920089962e-001  -2.5250748947e-003  -6.5622053697e-004   8.2339361936e-005
  3.6186250000e+008  -4.1033792274e-004   3.6225680794e-004   9.9293324388e-001  -7.0414662713e-003   1.0002515947e+000  -1.2927640945e-003  -5.0570233995e-004   3.6097723555e-004
  3.7045000000e+008  -5.9499666127e-004   6.2445841254e-004   9.9238339952e-001  -7.1183470178e-003   1.0006825019e+000  -1.6922517355e-003  -4.9243082918e-004   7.0209036123e-005
  3.7903750000e+008  -1.8530198787e-004   8.2825668534e-004   9.9097259704e-001  -5.7338229434e-003   1.0003116866e+000  -1.7980715083e-003  -2.8124713203e-004  -1.2689899661e-004
  3.8762500000e+008  -3.5041977128e-004   6.6177511093e-004   9.9346689595e-001  -6.7239340989e-003   9.9992236694e-001  -2.3020844878e-003  -4.8213133353e-004   3.6694389322e-004
  3.9621250000e+008  -8.0696099995e-005   1.6534099216e-004   9.9397834086e-001  -6.6953113437e-003   1.0007278124e+000  -2.2245453505e-003  -4.8253758386e-004   2.5111254159e-004
  4.0480000000e+008   3.4574691727e-004   1.9974521471e-004   9.9502959700e-001  -6.8148041092e-003   1.0004252012e+000  -2.1406309759e-003   1.0159897255e-004   8.7723757501e-005
  4.1338750000e+008   3.3267113633e-004   1.6291658992e-004   9.9444753326e-001  -5.7258799389e-003   1.0007886039e+000  -2.2315777554e-003   1.7754303904e-004   3.9952121609e-004
  4.2197500000e+008   6.5731219900e-005  -1.5704011529e-006   9.9429805938e-001  -7.1836054704e-003   1.0008265731e+000  -1.9304893145e-003   8.3289508675e-005   4.9129451257e-004
  4.3056250000e+008   5.4298354108e-005  -4.7362479844e-005   9.9538991072e-001  -6.1511956724e-003   1.0007928218e+000  -2.1890174438e-003   3.9616634715e-004   4.3004187223e-004
  4.3915000000e+008  -9.5840044009e-005  -4.4641580631e-004   9.9616946092e-001  -5.4072363600e-003   1.0002603484e+000  -2.5968251812e-003   3.6161434034e-004   3.8314243185e-004
  4.4773750000e+008   1.3272890051e-004  -2.5277133506e-004   9.9501396429e-001  -6.7342207959e-003   1.0008043396e+000  -2.3778892838e-003   3.9183795051e-004   2.4564657592e-004
  4.5632500000e+008  -5.7440052012e-005  -5.3856236382e-004   9.9243193109e-001  -6.6590539610e-003   1.0003698306e+000  -2.4275095790e-003   4.6808784777e-004   2.1313607653e-004
  4.6491250000e+008  -5.9905011869e-004  -1.7979236740e-004   9.9444486712e-001  -6.9767872758e-003   1.0001583010e+000  -2.1667135634e-003   5.7058232084e-004   1.5362002380e-004
  4.7350000000e+008  -5.3113179576e-004  -1.4740086892e-004   9.9333119304e-001  -6.7543054379e-003   1.0003112941e+000  -1.9620862613e-003   5.3827575627e-004   7.9963546602e-005
  4.8208750000e+008  -3.2668695516e-004  -2.5167591414e-005   9.9401509592e-001  -6.4390049444e-003   9.9963259893e-001  -1.9967631893e-003   5.0790405166e-004   1.6304812546e-004
  4.9067500000e+008   1.4264359150e-004  -2.9912778914e-004   9.9359409802e-001  -6.8665385164e-003   1.0001485062e+000  -2.3477010526e-003   4.1820689408e-004   1.0658423985e-004
  4.9926250000e+008  -8.2671277045e-005  -4.0144134843e-004   9.9364239853e-001  -5.7714132034e-003   1.0000100610e+000  -2.0096599592e-003   6.8170540805e-004   3.3016015103e-006
  5.0785000000e+008  -4.3184252002e-004  -2.6475009270e-004   9.9340169761e-001  -5.7520807708e-003   9.9975951434e-001  -1.4423606193e-003   5.9614193677e-004   3.6061897300e-004
  5.1643750000e+008  -6.0333806554e-004   4.7217668709e-005   9.9284787910e-001  -5.5033696579e-003   1.0003080872e+000  -2.0038856265e-003   8.5608377525e-004  -4.1183075035e-005
  5.2502500000e+008  -3.3088047538e-004   4.7336703922e-004   9.9395248470e-001  -5.5753642941e-003   1.0008163899e+000  -1.4900907694e-003   2.6779838934e-004  -5.0499089397e-004
  5.3361250000e+008   1.1814995337e-004   3.7483646643e-004   9.9430964103e-001  -6.8100455313e-003   1.0007866921e+000  -2.2050127852e-003   1.0477354242e-004  -7.8305039504e-004
  5.4220000000e+008   6.6286141764e-004   8.1766479779e-006   9.9408297074e-001  -6.7128919964e-003   1.0010370185e+000  -2.5488827272e-003  -8.6401378856e-004  -5.1292857345e-004
  5.5078750000e+008   6.9723816344e-004  -6.0375955628e-004   9.9504466416e-001  -8.0199692223e-003   1.0002905541e+000  -2.7364995034e-003  -8.6557386293e-004  -4.8402477012e-004
  5.5937500000e+008   5.2689175088e-004  -7.9218737672e-004   9.9330312164e-001  -5.8799919466e-003   1.0001843769e+000  -2.9706956679e-003  -1.0457152134e-003  -2.4525551199e-005
  5.6796250000e+008   4.9852895827e-004  -1.0371253519e-003   9.9474125192e-001  -6.5923009288e-003   1.0005473372e+000  -2.5480441331e-003  -1.0004366432e-003   3.5918093486e-004
  5.7655000000e+008  -3.7259732881e-004  -9.4440777890e-004   9.9477994887e-001  -8.3479381416e-003   1.0006038901e+000  -3.0334221751e-003  -8.2887314791e-004   7.4372609047e-004
  5.8513750000e+008  -5.0041601609e-004  -9.4764402531e-004   9.9496891595e-001  -7.5684549162e-003   9.9955938104e-001  -3.1346249623e-003  -9.1324996827e-004   9.9423389447e-004
  5.9372500000e+008  -7.5440308950e-004  -8.5934146554e-004   9.9242407401e-001  -7.1820958600e-003   1.0000929606e+000  -2.9180253092e-003  -6.4607260683e-004   1.0282298889e-003
  6.0231250000e+008  -1.0640525383e-003  -4.5528731859e-004   9.9164893779e-001  -5.1888400001e-003   9.9981146102e-001  -2.4608933425e-003  -4.1968131733e-004   1.0773033128e-003
  6.1090000000e+008  -9.8045425194e-004  -2.3819066152e-004   9.9152825921e-001  -8.3325552197e-003   9.9991585991e-001  -1.7305969454e-003  -5.0361479458e-004   9.9743108758e-004
  6.1948750000e+008  -1.0177612822e-003  -5.2928456431e-005   9.9047557242e-001  -7.0875698417e-003   9.9969272586e-001  -2.4242292456e-003  -4.4035266229e-004   7.6148317679e-004
  6.2807500000e+008  -7.1228853835e-004   1.6285215340e-004   9.9198402474e-001  -7.6748035130e-003   1.0003509360e+000  -2.5368675380e-003   6.3562659821e-005   4.9125685604e-004
  6.3666250000e+008  -4.0814859702e-004   4.8350263046e-004   9.9411715451e-001  -8.2817372071e-003   1.0003509558e+000  -3.7767287077e-003   1.6652605477e-005   3.4874584335e-004
  6.4525000000e+008  -9.6282149197e-005   4.8079059612e-004   9.9209318708e-001  -7.3699933193e-003   1.0005294778e+000  -2.4818532630e-003   2.8780227390e-004   8.5175005738e-005
  6.5383750000e+008   1.1920615219e-004   2.6637719105e-004   9.9234849953e-001  -8.1956384929e-003   1.0004561506e+000  -2.6505362255e-003   1.9259333355e-004  -1.3731134507e-004
  6.6242500000e+008   4.7630554746e-004   8.0128872269e-005   9.8962777316e-001  -6.1231388733e-003   1.0009918627e+000  -3.5120486394e-003   3.9987061480e-004  -3.6437924557e-004
  6.7101250000e+008   4.9927901896e-004  -1.4048800029e-004   9.8939447196e-001  -7.7916741268e-003   9.9989732821e-001  -2.4776506290e-003   2.9957688877e-004  -7.7752401281e-004
  6.7960000000e+008   7.6703195943e-004  -5.6122567724e-004   9.8911853571e-001  -7.6156760163e-003   1.0007770668e+000  -2.7032162326e-003   2.8770365426e-004  -8.2680395724e-004
  6.8818750000e+008   3.3112040859e-004  -9.3317866316e-004   9.9079526994e-001  -7.6456335747e-003   1.0001860387e+000  -3.2317764895e-003   2.3976378394e-004  -1.2040250499e-003
  6.9677500000e+008   3.3487750713e-005  -1.0329416898e-003   9.8921496350e-001  -8.9541491844e-003   1.0006896306e+000  -2.9118255542e-003  -2.3638009818e-004  -1.2054671903e-003
  7.0536250000e+008  -2.3062150732e-004  -1.0188902912e-003   9.9001553189e-001  -8.4577505710e-003   1.0000036942e+000  -3.2629894382e-003  -3.8554517280e-004  -1.3363539838e-003
  7.1395000000e+008  -6.9695031746e-004  -1.0370720379e-003   9.8954340532e-001  -8.2184029177e-003   1.0000832242e+000  -2.6807153503e-003  -5.4559551494e-004  -1.4401684423e-003
  7.2253750000e+008  -1.1959361993e-003  -9.1445851474e-004   9.8901653969e-001  -7.5206152659e-003   9.9974090913e-001  -3.1013926267e-003  -7.8117359894e-004  -1.2749315214e-003
  7.3112500000e+008  -1.0761383078e-003  -3.9691258870e-004   9.8943844260e-001  -8.9367366440e-003   9.9979195066e-001  -2.4871673474e-003  -9.3960594824e-004  -9.5415738502e-004
  7.3971250000e+008  -1.0407648260e-003  -9.8124894634e-006   9.9027679759e-001  -8.7868036517e-003   1.0003262571e+000  -3.8904092414e-003  -1.0997409949e-003  -7.3190862167e-004
  7.4830000000e+008  -8.1348226261e-004   5.6775175162e-004   9.8960201512e-001  -7.5998673624e-003   9.9994556024e-001  -2.8691628332e-003  -1.0506618708e-003  -7.3277442429e-004
  7.5688750000e+008  -7.6881183256e-004   5.7126472140e-004   9.8669093189e-001  -9.2461902061e-003   9.9968821260e-001  -3.7197378906e-003  -1.2332181194e-003  -2.9265314950e-004
  7.6547500000e+008  -1.0067979703e-004   7.7560929507e-004   9.8777464703e-001  -9.5569772865e-003   9.9893194452e-001  -3.6702039728e-003  -1.2325476410e-003   5.8712494442e-005
  7.7406250000e+008   2.0908754380e-004   9.8640779034e-004   9.8694885692e-001  -9.9001510377e-003   1.0002310589e+000  -3.1969002748e-003  -8.6270103817e-004   2.9041792969e-004
  7.8265000000e+008   4.7592641376e-004   4.5444068289e-004   9.8847452059e-001  -9.6515010466e-003   9.9972235494e-001  -3.3908398639e-003  -8.1561009598e-004   6.4593190948e-004
  7.9123750000e+008   7.2587716220e-004   3.0030717918e-004   9.8782590592e-001  -7.6320625376e-003   9.9918440846e-001  -2.4399803060e-003  -5.9095712119e-004   6.0419175667e-004
  7.9982500000e+008   6.8610802774e-004   7.1579403283e-005   9.8618349169e-001  -9.0170411350e-003   1.0002333588e+000  -2.7048635575e-003  -3.3960428577e-004   7.4757323038e-004
  8.0841250000e+008   1.1077397082e-003   4.3610017284e-005   9.8697566787e-001  -8.9381375006e-003   1.0004095198e+000  -2.8058410930e-003  -4.1338795175e-004   8.0890757424e-004
  8.1700000000e+008   9.8319168827e-004  -2.6078255609e-004   9.8732877901e-001  -8.1213998335e-003   1.0004223742e+000  -2.6926483875e-003  -4.0694528375e-004   8.2712974835e-004
  8.2558750000e+008   1.1640907445e-003  -4.5574231347e-004   9.9403185823e-001  -5.7970199542e-003   1.0004998243e+000  -3.9263478401e-003  -5.9082373795e-004   9.6395077479e-004
  8.3417500000e+008   9.9488806127e-004  -9.6264407249e-004   9.9303838633e-001  -6.5865533637e-003   1.0012468681e+000  -3.6543249661e-003  -3.9583873775e-004   1.3929849078e-003
  8.4276250000e+008   6.1794775067e-004  -1.1295810005e-003   9.9230629417e-001  -6.3045869513e-003   9.9971038359e-001  -4.1367676723e-003  -1.5576232632e-004   1.4402180511e-003
  8.5135000000e+008   1.1722192002e-004  -1.2199540692e-003   9.9264143395e-001  -7.5679738493e-003   1.0007619224e+000  -3.3076256428e-003   1.4808060164e-004   1.5308195229e-003
  8.5993750000e+008  -1.0240632315e-004  -1.2872315200e-003   9.9365236405e-001  -6.7535517913e-003   9.9989801141e-001  -4.6102292488e-003   4.2480116122e-004   1.3679741246e-003
  8.6852500000e+008  -4.7030386502e-004  -8.1111910935e-004   9.9279989202e-001  -8.6419557394e-003   1.0006564200e+000  -3.2409898547e-003   7.0091944004e-004   9.4418511945e-004
  8.7711250000e+008  -5.4395432947e-004  -6.0761211502e-004   9.9197798062e-001  -8.9254241217e-003   9.9985174659e-001  -3.1553830864e-003   6.7310011166e-004   4.5518152363e-004
  8.8570000000e+008  -2.9925370270e-004  -4.1793672372e-004   9.9430818924e-001  -6.5860575555e-003   9.9965772770e-001  -3.7852508232e-003   8.0638919976e-004   2.5996253705e-004
  8.9428750000e+008  -1.8491434248e-004  -1.7721782505e-004   9.8767839841e-001  -1.0453662065e-002   9.9972486517e-001  -3.6588095205e-003   2.4196046521e-004  -1.3656803670e-004
  9.0287500000e+008   6.5513355952e-005  -2.1191974087e-004   9.8695766363e-001  -8.9399773756e-003   9.9962398770e-001  -4.3156048500e-003  -4.9391224510e-005  -4.2885382790e-004
  9.1146250000e+008   2.9225441025e-004  -2.4663023906e-004   9.8888546519e-001  -8.5786276935e-003   9.9910318452e-001  -3.9033265481e-003  -3.1125591712e-004  -4.7139272848e-004
  9.2005000000e+008   2.3440427890e-004  -4.3998736883e-004   9.9147403042e-001  -7.7598750681e-003   9.9896460270e-001  -2.7877113290e-003  -5.2453374146e-004  -6.0348151106e-004
  9.2863750000e+008   4.9974549604e-004  -5.8631195179e-004   9.8868935884e-001  -8.1569416321e-003   9.9958577666e-001  -3.3549876986e-003  -8.0942361716e-004  -5.5105889604e-004
  9.3722500000e+008   4.1518699111e-004  -8.2108029202e-004   9.9071360618e-001  -7.1219949882e-003   9.9826008141e-001  -4.1096229898e-003  -1.0651770007e-003  -7.6837231497e-004
  9.4581250000e+008   3.3033850896e-004  -1.0430456577e-003   9.8835092470e-001  -7.2951302599e-003   9.9979333219e-001  -2.9588529369e-003  -1.3419529572e-003  -4.3787065999e-004
  9.5440000000e+008  -1.1719629381e-004  -1.2511054474e-003   9.8805779918e-001  -8.4541373225e-003   9.9915950155e-001  -2.9716560808e-003  -1.3532839655e-003  -3.9137059202e-004
  9.6298750000e+008  -3.9484285696e-004  -1.2714970760e-003   9.8990923577e-001  -6.9909176009e-003   1.0007370477e+000  -3.8375945658e-003  -1.5260773556e-003  -2.3151012882e-004
  9.7157500000e+008  -5.9937449532e-004  -1.2656916502e-003   9.9086369927e-001  -9.0907705859e-003   1.0002581700e+000  -3.9883388176e-003  -1.4957797469e-003  -7.3852597361e-005
  9.8016250000e+008  -9.5443380267e-004  -9.9446726523e-004   9.8987152109e-001  -8.8104622153e-003   9.9997407334e-001  -3.8141166773e-003  -1.5510687029e-003   7.3579821077e-005
  9.8875000000e+008  -1.2108901846e-003  -6.1297972275e-004   9.9007258426e-001  -7.6430815920e-003   9.9980118970e-001  -3.2075084962e-003  -1.4265269692e-003   2.0152617504e-004
  9.9733750000e+008  -1.0985610808e-003  -3.7858343063e-004   9.8971682792e-001  -9.0043589086e-003   9.9976141878e-001  -3.4546315159e-003  -1.1531529070e-003   2.0609867223e-004
  1.0059250000e+009  -1.0489683803e-003   8.0038382433e-005   9.8959840411e-001  -7.9387780019e-003   9.9989731070e-001  -3.9900622722e-003  -7.7931292086e-004   3.1897135194e-004
  1.0145125000e+009  -8.5441368040e-004   4.9362700497e-004   9.8951527014e-001  -1.1111298796e-002   9.9944029121e-001  -3.8985034013e-003  -4.2320415927e-004   3.9007955558e-004
  1.0231000000e+009  -5.2458687648e-004   5.3908569591e-004   9.8832981360e-001  -7.8652186407e-003   9.9941551801e-001  -4.0829559465e-003  -3.1289273771e-004   3.2977267696e-004
  1.0316875000e+009  -1.9278956137e-004   7.7968838126e-004   9.8949266886e-001  -1.0092116989e-002   9.9916310966e-001  -3.7759427801e-003   1.2930005181e-004   2.5301738770e-004
  1.0402750000e+009   2.5883530879e-004   6.3896627017e-004   9.8668648200e-001  -8.8931333235e-003   9.9913330600e-001  -3.5383765938e-003   3.7016072320e-004  -5.1134869252e-005
  1.0488625000e+009   5.1928064097e-004   5.9779049886e-004   9.8911038809e-001  -8.7916358751e-003   9.9887103679e-001  -3.7503363618e-003   7.2809107096e-004  -9.3208218032e-005
  1.0574500000e+009   7.7791214850e-004   1.8272835325e-004   9.8956690941e-001  -8.4537727128e-003   9.9958748318e-001  -4.0168380818e-003   9.2360044073e-004  -4.9213407861e-004
