# Hz S RI R 50.000000
! Metas.Vna.Tools, 2.8.8664.20301
! Metas.Vna.Data, 2.8.8664.20285
! Created: UTC 2024.02.11 10:08:12
! FREQ                re:S1,1             im:S1,1             re:S2,1             im:S2,1             re:S1,2             im:S1,2             re:S2,2             im:S2,2          
  1.3000000000e+008  -3.4650664675e-004  -1.7454391023e-003   9.9981897379e-001  -4.1970092898e-003   1.0004093804e+000  -2.0943379514e-003   8.6430637117e-004   2.6608745752e-004
  1.3858750000e+008  -5.0634946446e-004  -1.9224836460e-003   1.0014046263e+000  -3.5352615182e-003   1.0002675835e+000  -1.2244314318e-003   6.9353654218e-004  -2.3803334652e-004
  1.4717500000e+008  -1.6707358934e-003  -1.1952487309e-003   1.0003444927e+000  -4.8117832718e-003   1.0001221783e+000  -1.1749186664e-003   8.8537474735e-004   9.8227791740e-006
  1.5576250000e+008  -1.1937793402e-003   5.0454526818e-004   1.0003042298e+000  -3.9584106556e-003   1.0002819118e+000  -1.6054713472e-003   1.8229028071e-003  -8.3114667161e-004
  1.6435000000e+008  -6.4870864769e-004   4.8288861553e-004   9.9956788852e-001  -4.0843228018e-003   1.0004657793e+000  -1.7183290947e-003   6.7708005532e-004  -5.2343278770e-004
  1.7293750000e+008  -8.7390958709e-004   8.5372401814e-004   1.0005704608e+000  -3.2935185976e-003   1.0002575848e+000  -1.2880515598e-003   9.1794400450e-004  -9.9925293271e-004
  1.8152500000e+008  -3.8843172808e-004   4.6829483958e-004   9.9922531261e-001  -4.7738633986e-003   1.0004335906e+000  -2.3533061716e-003   3.2675380228e-004  -6.9401634747e-004
  1.9011250000e+008  -4.5076021754e-004   6.5015512206e-004   1.0005834209e+000  -5.6332807104e-003   1.0012493549e+000  -2.1705648542e-003   1.4515326430e-004  -1.2037225391e-003
  1.9870000000e+008   9.8507724413e-006   1.0639474727e-003   9.9994087684e-001  -4.9705088288e-003   1.0000978900e+000  -1.6028729357e-003   2.0307268054e-004  -5.1524217072e-004
  2.0728750000e+008   3.2444547494e-004   7.5425555318e-005   9.9555727991e-001  -6.3736173050e-003   1.0006981416e+000  -2.0527093973e-003   3.4299675732e-004  -8.9823764979e-005
  2.1587500000e+008  -8.9632839074e-005  -8.0882527681e-005   1.0002288914e+000  -4.2396241130e-003   9.9990536538e-001  -1.4580383359e-003  -2.2303070188e-004   1.2964606087e-005
  2.2446250000e+008   2.8994635165e-004  -2.7657144187e-004   9.9623749594e-001  -6.1094507040e-003   9.9994728502e-001  -1.3934471586e-003  -4.4834071153e-004   1.8691383137e-004
  2.3305000000e+008  -8.7895733812e-006  -1.6424280159e-004   9.9690605996e-001  -4.4896823264e-003   1.0009277995e+000  -1.7524429618e-003  -2.2391053793e-004  -1.6805859940e-004
  2.4163750000e+008  -6.5791484695e-005  -2.8625636006e-004   9.9791610749e-001  -6.4004457691e-003   1.0000688432e+000  -2.6676509345e-003  -3.9401011540e-004   2.2053156821e-004
  2.5022500000e+008  -4.1766722352e-004  -1.0697620983e-003   9.9627422901e-001  -5.2685703906e-003   1.0002399729e+000  -2.3361553608e-003  -7.3657551974e-004   4.3098859705e-004
  2.5881250000e+008  -6.7187898583e-004  -3.9489684778e-004   9.9482709816e-001  -5.1644908957e-003   9.9991875128e-001  -3.1534131792e-003  -2.4904956751e-004   5.9587639854e-004
  2.6740000000e+008  -9.3012298595e-004  -5.6779735175e-004   9.9604461812e-001  -6.3408895642e-003   1.0005327531e+000  -2.6958791892e-003  -4.1772051142e-004   4.4869649566e-004
  2.7598750000e+008  -5.6915820949e-004  -3.7918700382e-004   9.9590804258e-001  -7.3660004418e-003   1.0003981442e+000  -2.2250714496e-003  -2.2619928418e-004   7.8665140555e-004
  2.8457500000e+008  -6.1472638003e-004  -3.4302035479e-004   9.9587070987e-001  -5.5161841801e-003   1.0009094335e+000  -1.7793852506e-003  -4.0653553877e-004   5.6194748777e-004
  2.9316250000e+008  -6.0641305331e-004  -3.3988423697e-004   9.9751880027e-001  -5.9695959616e-003   1.0004450042e+000  -2.2308312108e-003  -4.8499266806e-004   2.5296793623e-004
  3.0175000000e+008  -1.1061098103e-003   3.1329383867e-004   9.9999338516e-001  -6.2083621578e-003   1.0003938038e+000  -2.1676798827e-003  -6.6967940244e-004   3.4924808287e-004
  3.1033750000e+008  -7.4328777977e-004   4.5163605164e-004   9.9965258602e-001  -4.0920174208e-003   1.0006713914e+000  -1.7719676737e-003  -7.6093795656e-004   4.1760250746e-004
  3.1892500000e+008  -1.0067426029e-003   2.3852922694e-004   1.0008094315e+000  -4.8832964798e-003   9.9995276784e-001  -1.3960393591e-003  -6.8491952072e-004   3.9496082605e-004
  3.2751250000e+008  -7.4198599390e-004   1.0479915686e-004   9.9993524252e-001  -6.1749953529e-003   1.0005095088e+000  -3.1702070688e-003  -6.0156225885e-004   1.8355227739e-004
  3.3610000000e+008  -7.6208425975e-004   1.6897545049e-004   9.9974325126e-001  -5.2949741752e-003   1.0006867307e+000  -2.5855369235e-003  -7.0646092419e-004  -2.1824135158e-005
  3.4468750000e+008  -6.0921431214e-004   6.0364560009e-004   1.0004561089e+000  -5.4669356026e-003   1.0001299223e+000  -2.7620516495e-003  -3.1327479410e-004   2.2680387307e-004
  3.5327500000e+008  -1.9123118743e-004   3.8393867259e-004   1.0011374463e+000  -5.9121380420e-003   1.0001223593e+000  -3.3023158348e-003  -6.3014640185e-004   6.3021814197e-005
  3.6186250000e+008  -3.7955211975e-004   3.6379011904e-004   1.0004560423e+000  -5.8547887066e-003   1.0009110996e+000  -2.6779805751e-003  -6.2707967606e-004   4.6280580214e-004
  3.7045000000e+008  -7.0391673259e-004   5.8416977145e-004   1.0013373411e+000  -5.7027628361e-003   1.0006582622e+000  -2.9422536914e-003  -7.2564441017e-004   2.8039385581e-004
  3.7903750000e+008  -1.8749398819e-004   5.1633501550e-004   9.9987928399e-001  -4.0820597765e-003   1.0009962328e+000  -2.6459046531e-003  -3.8766486699e-004   4.3370949726e-004
  3.8762500000e+008  -5.7621523301e-004   3.8507154669e-004   1.0025625346e+000  -5.0944340530e-003   1.0003159411e+000  -2.4695021274e-003  -3.4567321120e-004   6.6458283435e-004
  3.9621250000e+008   1.2078823271e-004   3.1455751702e-004   1.0004263225e+000  -4.7917992058e-003   1.0002609475e+000  -3.0907558155e-003  -6.4704777888e-004   4.6132435078e-004
  4.0480000000e+008   1.0190900894e-004   1.0445858335e-004   1.0024931474e+000  -4.8615222975e-003   1.0006147301e+000  -2.7047183960e-003  -8.6645804360e-005   1.9011312181e-004
  4.1338750000e+008  -2.7343139618e-005   3.2676796026e-004   1.0019132953e+000  -4.4692666450e-003   1.0009054460e+000  -2.7141520687e-003   6.2350667984e-005   4.9737533020e-004
  4.2197500000e+008  -2.0127958921e-004   7.6300213924e-006   1.0023613814e+000  -4.9260578476e-003   1.0006422592e+000  -2.7222395308e-003   2.7000928625e-004   6.2929551839e-004
  4.3056250000e+008   1.2857310947e-004   1.7785335502e-004   1.0012337981e+000  -4.4288110452e-003   1.0003817540e+000  -2.7561463942e-003   4.8692022389e-004   1.7153596511e-004
  4.3915000000e+008   2.4220564221e-005  -1.8903003174e-004   1.0036284078e+000  -3.9873302169e-003   1.0001464871e+000  -3.1720463769e-003   6.2926069753e-004   4.1065817431e-004
  4.4773750000e+008   1.0549212186e-004   1.6553745960e-006   1.0010341714e+000  -5.0706833493e-003   1.0003898358e+000  -2.9823920342e-003   5.7368083511e-004   1.1047729417e-004
  4.5632500000e+008  -2.2930410348e-004  -2.3534203848e-004   9.9929371653e-001  -4.7114659350e-003   1.0003519849e+000  -3.1819818059e-003   5.6950600537e-004   1.9805959395e-004
  4.6491250000e+008  -1.3705123415e-004   2.7003143994e-005   1.0014073771e+000  -5.7121905366e-003   1.0001113539e+000  -3.2544234703e-003   5.4060752228e-004   1.6948692474e-005
  4.7350000000e+008  -3.3517868744e-004  -2.7265812367e-004   1.0011587536e+000  -5.0210818490e-003   1.0003119177e+000  -3.1006049863e-003   5.5617149013e-004  -4.0272662451e-005
  4.8208750000e+008  -1.2468163061e-004   1.7814989200e-004   9.9650573775e-001  -5.2146591999e-003   9.9961788853e-001  -2.6263469872e-003   6.1032665693e-004   1.6561265561e-004
  4.9067500000e+008   2.4704938531e-004  -5.5310616335e-004   9.9774269674e-001  -6.3258414915e-003   9.9998111164e-001  -3.0415642061e-003   3.6310083559e-004  -1.1905765908e-005
  4.9926250000e+008  -1.1911804735e-005  -5.1628393809e-004   9.9645361324e-001  -6.4944775515e-003   9.9982803686e-001  -2.9292485007e-003   4.7776275334e-004   1.1270592583e-004
  5.0785000000e+008  -7.5517166865e-004  -5.8287303519e-004   9.9780315519e-001  -5.0233726296e-003   1.0000633042e+000  -2.1343084187e-003   5.3041273277e-004   3.2993840689e-004
  5.1643750000e+008  -9.2790241561e-004   1.3302371136e-004   9.9797036265e-001  -4.8188229151e-003   1.0006976386e+000  -2.5066164517e-003   7.7541652728e-004  -9.7539079309e-005
  5.2502500000e+008  -3.7272627992e-004   5.0697781632e-004   9.9959044353e-001  -5.0074125054e-003   1.0007176098e+000  -1.8795574333e-003   4.5352512470e-004  -3.4044636095e-004
  5.3361250000e+008   2.7751775336e-004   7.1661023942e-004   1.0017483895e+000  -4.9378868558e-003   1.0003988397e+000  -2.7752199564e-003   2.8137530956e-005  -8.2322269677e-004
  5.4220000000e+008   7.3570621063e-004   4.0498231381e-004   9.9937213831e-001  -6.3070014361e-003   1.0008715131e+000  -2.8084330262e-003  -9.3451885221e-004  -4.7337652902e-004
  5.5078750000e+008   6.2794626347e-004  -3.9503068087e-004   9.9974805389e-001  -5.9098682606e-003   1.0002270324e+000  -3.6278523857e-003  -9.8552888096e-004  -3.1955435786e-004
  5.5937500000e+008   4.3865210802e-004  -6.8019452423e-004   9.9799518674e-001  -5.9271223295e-003   1.0002356292e+000  -3.7014896932e-003  -1.2382297468e-003   7.9795729595e-005
  5.6796250000e+008   3.0635127783e-004  -7.6608388156e-004   1.0004629228e+000  -5.7866482467e-003   1.0003912504e+000  -2.9580227574e-003  -1.0826999426e-003   5.4718859251e-004
  5.7655000000e+008  -2.9445560002e-004  -1.1067266556e-003   1.0006713655e+000  -7.4584665421e-003   1.0008036193e+000  -3.7904597361e-003  -9.3039839260e-004   9.6706154370e-004
  5.8513750000e+008  -4.1219357610e-004  -7.9387852527e-004   9.9879966780e-001  -5.4624743626e-003   9.9968944651e-001  -3.3259454438e-003  -7.7213928502e-004   1.0053258129e-003
  5.9372500000e+008  -6.1660528260e-004  -9.0049205011e-004   9.9901901603e-001  -6.1075154379e-003   1.0000519609e+000  -3.9090970847e-003  -6.0612754085e-004   1.1440984796e-003
  6.0231250000e+008  -9.8999189347e-004  -5.8240004390e-004   1.0000311284e+000  -6.0698500504e-003   9.9974302355e-001  -3.6084012232e-003  -3.0849899004e-004   1.1358591879e-003
  6.1090000000e+008  -8.7069974893e-004  -3.2697415579e-004   1.0002292738e+000  -7.4635104832e-003   1.0002450670e+000  -3.3374652960e-003  -3.5097183564e-004   9.6676670157e-004
  6.1948750000e+008  -8.5304197223e-004  -5.7450703006e-005   9.9808151443e-001  -4.4429795182e-003   1.0001899223e+000  -3.6197800784e-003  -2.1050839035e-004   6.9473736065e-004
  6.2807500000e+008  -6.7445132933e-004   3.7306122070e-005   9.9916165101e-001  -7.7411647350e-003   1.0005011347e+000  -3.0118148247e-003   2.0947264446e-004   5.3741466689e-004
  6.3666250000e+008  -3.1495422692e-004   4.3180195670e-004   1.0009875919e+000  -6.4635539298e-003   1.0006175793e+000  -3.3205676963e-003   2.3710683867e-004   3.7786655653e-004
  6.4525000000e+008  -7.8695416196e-006   3.6613761261e-004   1.0006232375e+000  -3.7378442514e-003   1.0003111495e+000  -3.4138089766e-003   3.8653588347e-004   8.3589412994e-005
  6.5383750000e+008   1.3256672285e-004   2.0548304104e-004   1.0006941049e+000  -6.5478331392e-003   1.0004744136e+000  -2.8330763335e-003   5.9738211454e-004  -2.5238585127e-004
  6.6242500000e+008   2.5120545951e-004   1.8293762521e-004   9.9806248011e-001  -6.9591179485e-003   1.0007618762e+000  -3.5282629202e-003   4.1423465673e-004  -4.2858570304e-004
  6.7101250000e+008   2.7048660231e-004  -1.2702340899e-004   1.0005605537e+000  -4.4390168545e-003   9.9931833738e-001  -3.2361568695e-003   3.7537477902e-004  -6.3180679068e-004
  6.7960000000e+008   5.5790947230e-004  -5.1891032615e-004   9.9970534976e-001  -5.9472132560e-003   1.0004418588e+000  -3.5780532512e-003   2.9895127282e-004  -1.0726584222e-003
  6.8818750000e+008   7.0533523574e-005  -7.5462038840e-004   1.0005298371e+000  -6.1012504030e-003   9.9996856744e-001  -3.8704852503e-003   1.0619347981e-004  -1.1300756994e-003
  6.9677500000e+008   2.5774040246e-005  -9.9288405875e-004   1.0005880666e+000  -4.5497428952e-003   1.0001186458e+000  -3.5126661686e-003  -2.7324607598e-004  -1.1662436748e-003
  7.0536250000e+008  -3.0049275335e-004  -9.4718001035e-004   9.9944315907e-001  -5.8499773594e-003   1.0001617988e+000  -3.8503940068e-003  -1.5229060324e-004  -1.4144096542e-003
  7.1395000000e+008  -6.1866612285e-004  -8.7467165902e-004   1.0002188877e+000  -5.3590878962e-003   1.0003159032e+000  -3.9992407527e-003  -6.4806736076e-004  -1.2335364677e-003
  7.2253750000e+008  -9.4279315450e-004  -6.3229950829e-004   9.9841195934e-001  -5.9880284189e-003   1.0000285811e+000  -3.5814147977e-003  -8.9596963288e-004  -1.3563832136e-003
  7.3112500000e+008  -1.0155398223e-003  -4.3938339350e-004   9.9897178357e-001  -5.7619503853e-003   9.9979152618e-001  -3.1854395558e-003  -9.2645064708e-004  -1.0535970436e-003
  7.3971250000e+008  -9.5714550834e-004   6.3148006319e-005   9.9861683178e-001  -7.7394986514e-003   9.9962913759e-001  -3.7377679684e-003  -1.1087235638e-003  -6.6564632533e-004
  7.4830000000e+008  -7.5954898096e-004   3.9246780265e-004   9.9981600524e-001  -5.0217723448e-003   1.0002719615e+000  -3.5192701148e-003  -9.8819516464e-004  -6.3872744156e-004
  7.5688750000e+008  -6.9517394460e-004   6.4606504140e-004   9.9985469440e-001  -7.3609653362e-003   9.9896966317e-001  -3.7699065908e-003  -1.3048080908e-003  -2.7284751514e-004
  7.6547500000e+008  -1.0902699776e-004   7.2837381932e-004   9.9818868297e-001  -7.0226864754e-003   9.9919771478e-001  -4.2362528440e-003  -1.1161302881e-003   2.1221080237e-004
  7.7406250000e+008   1.2920803952e-004   7.5789780395e-004   9.9543695918e-001  -6.6080745478e-003   9.9993035424e-001  -4.0456348957e-003  -7.0281380047e-004   3.6932240059e-004
  7.8265000000e+008   2.9669684014e-004   5.6841377190e-004   9.9722075815e-001  -6.5474468141e-003   1.0000366164e+000  -3.5076197144e-003  -6.4351636185e-004   8.6115578884e-004
  7.9123750000e+008   5.1490431420e-004   2.3126171073e-004   9.9696108814e-001  -7.3350391775e-003   9.9942545506e-001  -2.4602382892e-003  -4.1471568457e-004   7.2843764837e-004
  7.9982500000e+008   2.9004657203e-004   1.4003066983e-004   9.9731679697e-001  -5.2916714014e-003   1.0001390829e+000  -2.8847967731e-003  -2.0758246353e-004   8.0947273813e-004
  8.0841250000e+008   7.1733679089e-004   2.9495958079e-004   9.9681705106e-001  -7.2887212439e-003   9.9915692964e-001  -3.5202879505e-003  -1.1097375022e-004   7.3829946834e-004
  8.1700000000e+008   1.0150376130e-003   1.0781727163e-004   9.9892202742e-001  -5.2971449820e-003   1.0002246927e+000  -3.2531788785e-003  -3.0759756504e-004   7.3738074580e-004
  8.2558750000e+008   1.1454100260e-003  -1.5637730284e-004   1.0002677031e+000  -5.5064275376e-003   1.0011949607e+000  -3.4163139050e-003  -3.7559159681e-004   9.9709785366e-004
  8.3417500000e+008   1.2277565817e-003  -8.5960906732e-004   1.0007187320e+000  -7.0956520849e-003   1.0011785021e+000  -3.5641998388e-003  -3.0242927328e-004   1.2595163063e-003
  8.4276250000e+008   9.2422400792e-004  -1.1057761728e-003   9.9846755392e-001  -6.1666753889e-003   1.0000970109e+000  -4.6167852093e-003  -1.6271833775e-005   1.3116726163e-003
  8.5135000000e+008   3.0802454478e-004  -1.3566523740e-003   9.9893893536e-001  -5.9410147597e-003   1.0009459315e+000  -3.2831155611e-003   2.4339241464e-004   1.4541460085e-003
  8.5993750000e+008   6.5219018704e-005  -1.4154257765e-003   9.9884096830e-001  -5.3724620207e-003   9.9979976768e-001  -4.1784423129e-003   3.0658808741e-004   1.1717611592e-003
  8.6852500000e+008  -4.9277915079e-004  -1.0574028051e-003   9.9741732928e-001  -7.9362660695e-003   9.9939371166e-001  -4.1746197282e-003   6.0170499428e-004   8.5146657608e-004
  8.7711250000e+008  -5.7650826759e-004  -8.4649848479e-004   9.9768919683e-001  -6.4027551444e-003   9.9984986108e-001  -4.1167121220e-003   6.1416202852e-004   3.7216258858e-004
  8.8570000000e+008  -5.0925082522e-004  -4.4962863634e-004   9.9958476716e-001  -6.5034273995e-003   9.9933758290e-001  -4.5724971707e-003   5.4106547530e-004   1.5487815539e-004
  8.9428750000e+008  -3.9386000163e-004  -1.3187695767e-004   9.9436208837e-001  -8.7229165755e-003   1.0002243504e+000  -4.8389951276e-003   2.4956423660e-004  -1.8377135435e-004
  9.0287500000e+008  -6.7365016332e-005  -1.1450011094e-004   9.9516090429e-001  -7.8772528382e-003   9.9901916435e-001  -4.8562353364e-003  -8.1294279230e-005  -3.8159772877e-004
  9.1146250000e+008   1.6320147285e-004  -8.1795401342e-005   9.9935326266e-001  -6.3702919189e-003   9.9897591696e-001  -4.1565978733e-003  -4.1125928185e-004  -4.2704860865e-004
  9.2005000000e+008   1.6668531828e-004  -1.8379102507e-004   9.9887897944e-001  -5.8955107661e-003   9.9942500676e-001  -3.5313573880e-003  -6.0047620433e-004  -6.0722323326e-004
  9.2863750000e+008   4.2732222716e-004  -3.4802017822e-004   1.0001643230e+000  -5.2707257012e-003   9.9948666352e-001  -4.1643225963e-003  -8.2922064890e-004  -6.1788805163e-004
  9.3722500000e+008   4.0120502565e-004  -6.7131862277e-004   1.0000639922e+000  -6.8383160388e-003   9.9894469620e-001  -4.2089501965e-003  -1.0619298161e-003  -7.3198045841e-004
  9.4581250000e+008   2.8576096625e-004  -9.3014908222e-004   9.9857425758e-001  -5.7872004902e-003   9.9949242627e-001  -3.7443418832e-003  -1.3368858478e-003  -6.3281990746e-004
  9.5440000000e+008   9.0319856616e-005  -1.2563180957e-003   9.9858800432e-001  -5.5684932787e-003   1.0000370518e+000  -3.5353946195e-003  -1.4928434953e-003  -3.6022901044e-004
  9.6298750000e+008  -2.9632609998e-004  -1.3205394107e-003   1.0006561850e+000  -6.0795019264e-003   9.9979275865e-001  -4.6166839734e-003  -1.6237137519e-003  -1.1959921083e-004
  9.7157500000e+008  -5.5848998590e-004  -1.2867307304e-003   9.9991140694e-001  -7.2460801651e-003   1.0003210461e+000  -4.3219556336e-003  -1.5666676313e-003  -1.2666200484e-004
  9.8016250000e+008  -7.9798122777e-004  -9.6100728054e-004   1.0008102200e+000  -5.4575433984e-003   9.9962334278e-001  -5.3254054036e-003  -1.3664193716e-003   1.2351919510e-004
  9.8875000000e+008  -1.1651042838e-003  -6.7526525801e-004   1.0010767573e+000  -5.1417646780e-003   9.9959644283e-001  -4.8745607305e-003  -1.4587186726e-003   2.7653860695e-004
  9.9733750000e+008  -1.1105916786e-003  -3.7804750584e-004   9.9961875846e-001  -6.7168106855e-003   1.0003590364e+000  -3.8217955158e-003  -1.2021787478e-003   2.3075523708e-004
  1.0059250000e+009  -1.0380118109e-003  -3.2183816884e-005   1.0007387546e+000  -7.1522461311e-003   1.0000819993e+000  -4.3415538908e-003  -6.5163593784e-004   3.7428277639e-004
  1.0145125000e+009  -9.6095126278e-004   3.4201964172e-004   9.9987679693e-001  -8.7029932161e-003   9.9959641762e-001  -3.5943202497e-003  -3.7723325566e-004   4.0518819889e-004
  1.0231000000e+009  -6.1300994891e-004   4.6075594248e-004   9.9996412277e-001  -4.9092666718e-003   9.9862987224e-001  -5.0173102618e-003  -1.5750629761e-004   3.3304116553e-004
  1.0316875000e+009  -3.7389751527e-004   8.9929924910e-004   9.9922531858e-001  -7.1859015681e-003   9.9915846510e-001  -5.3990135948e-003   8.8946710041e-005   2.9883033890e-004
  1.0402750000e+009   4.4331389690e-005   7.7506973927e-004   9.9955346067e-001  -6.2090955998e-003   9.9981950597e-001  -3.4873299614e-003   5.8740649266e-004  -2.4888615474e-005
  1.0488625000e+009   3.9341495300e-004   7.2347779096e-004   9.9980952555e-001  -5.7106090287e-003   9.9871740787e-001  -4.2418281721e-003   7.6407762755e-004  -1.4659470443e-004
  1.0574500000e+009   5.5309641212e-004   2.5176965597e-004   9.9946626172e-001  -6.5197774532e-003   9.9953807244e-001  -4.5392455879e-003   9.5865899343e-004  -4.2865114771e-004
