# Hz S RI R 50.000000
! Metas.Vna.Tools, 2.8.8664.20301
! Metas.Vna.Data, 2.8.8664.20285
! Created: UTC 2024.02.11 10:08:20
! FREQ                re:S1,1             im:S1,1             re:S2,1             im:S2,1             re:S1,2             im:S1,2             re:S2,2             im:S2,2          
  1.3000000000e+008   7.0427861150e-004  -1.7747494667e-003   9.9228627652e-001  -7.6446425715e-003   1.0002253099e+000  -8.5452316952e-004   1.2124963169e-003   8.6040292925e-004
  1.3858750000e+008  -1.3120029141e-003  -9.6116809505e-004   9.9260941547e-001  -6.8665740087e-003   1.0005149776e+000   8.9451555523e-005   1.2628994166e-003  -8.2645508967e-005
  1.4717500000e+008  -1.6965776382e-003  -5.3467180035e-004   9.9273772445e-001  -7.2328569149e-003   1.0005023190e+000  -2.2338818162e-005   1.1166418908e-003   3.0532524668e-004
  1.5576250000e+008  -8.1695526858e-004   1.9109656280e-004   9.9263507600e-001  -5.7400707787e-003   1.0004631537e+000  -4.0570705264e-004   1.4168867948e-003  -1.6199708590e-003
  1.6435000000e+008  -6.9655397680e-004   2.4467933104e-004   9.9302292551e-001  -5.9186679130e-003   1.0003754474e+000  -5.9969119786e-004   8.5340074063e-004  -1.9374133605e-004
  1.7293750000e+008  -9.8988580588e-004   9.4883333341e-004   9.9220255242e-001  -6.5982758075e-003   1.0006265553e+000  -6.2540300678e-004   4.4070219575e-004  -1.2024208469e-003
  1.8152500000e+008   4.7926282422e-005   4.0367379446e-004   9.9161015765e-001  -7.4252637392e-003   1.0000405802e+000  -1.1283482310e-003   4.0578029249e-004  -8.5133224198e-004
  1.9011250000e+008  -2.5866418395e-004   4.7814314476e-004   9.9357698432e-001  -8.0047231654e-003   1.0009249241e+000  -1.0956775631e-003   4.9463175543e-004  -6.3804160500e-004
  1.9870000000e+008  -1.9114175677e-004   8.5667889985e-004   9.9280702503e-001  -5.8153624253e-003   1.0006485325e+000  -1.4444995989e-003   2.0831936889e-004  -4.3331928035e-004
  2.0728750000e+008   2.0003889283e-004   2.6537480161e-004   9.9245235070e-001  -6.0256536850e-003   1.0008632877e+000  -1.4565274642e-003  -9.3814045396e-005  -6.3917902784e-004
  2.1587500000e+008   5.6527465066e-004  -1.8712953373e-004   9.9379288183e-001  -7.4407761665e-003   9.9973444374e-001  -7.0489681679e-004  -2.6013439908e-004   4.4770675032e-007
  2.2446250000e+008   2.0269001498e-004  -3.1784780146e-004   9.9257017754e-001  -6.6492655698e-003   1.0004835447e+000  -5.1083798041e-004  -3.5913106690e-004   8.7382949233e-005
  2.3305000000e+008  -5.5511817353e-005  -3.4120408354e-004   9.9237603085e-001  -6.5274263194e-003   1.0003861756e+000  -1.4717575376e-003  -4.9227549508e-004  -1.4875011465e-004
  2.4163750000e+008  -1.1819749212e-004  -5.8619668285e-004   9.9364563888e-001  -8.2778693424e-003   9.9952391815e-001  -1.4181206283e-003  -3.2535692333e-004   1.7165418198e-004
  2.5022500000e+008  -1.5420608993e-004  -6.5096777969e-004   9.9351416293e-001  -7.0362710157e-003   1.0000772407e+000  -1.0736978632e-003  -1.1067604913e-003   5.7617780008e-004
  2.5881250000e+008  -4.9203759169e-004  -6.0574756031e-004   9.9102833414e-001  -7.0394934832e-003   1.0002449741e+000  -1.4231517596e-003  -5.8700499486e-004   7.8607391377e-004
  2.6740000000e+008  -8.3709167113e-004  -5.9467763646e-004   9.9147990764e-001  -7.6480464910e-003   1.0008859284e+000  -1.9219554012e-003  -2.6034930507e-004   2.0366921531e-004
  2.7598750000e+008  -1.2919780450e-004  -2.8758100719e-004   9.9086902384e-001  -7.6029098031e-003   1.0000828912e+000  -1.9835081000e-003  -2.7710695343e-004   7.2164161013e-004
  2.8457500000e+008  -8.4931440891e-004  -2.0687759902e-004   9.9126763074e-001  -7.0342924030e-003   1.0003503172e+000  -5.0152525624e-004  -5.6156864933e-004   6.3649358947e-004
  2.9316250000e+008  -5.2525668787e-004  -6.1195224158e-004   9.9155841399e-001  -6.8643437556e-003   1.0006756319e+000  -1.3883103800e-003  -3.0504405796e-004   2.4931977331e-004
  3.0175000000e+008  -8.8892704321e-004   5.4364180085e-004   9.9270767322e-001  -9.0947789891e-003   9.9983142608e-001  -1.0166753603e-003  -4.5893437220e-004   5.3511576585e-004
  3.1033750000e+008  -1.0105363286e-003   1.9179181799e-004   9.9340679030e-001  -6.5391159113e-003   1.0017337019e+000  -1.7133669237e-003  -8.0783572458e-004   3.6559978442e-004
  3.1892500000e+008  -9.2588087567e-004   1.2249350350e-004   9.9420708177e-001  -7.5780473256e-003   1.0005850080e+000  -1.3015404964e-003  -7.6470545139e-004   3.1604054643e-004
  3.2751250000e+008  -5.6104481525e-004   4.4127488812e-005   9.9243485312e-001  -8.0794049820e-003   1.0006558921e+000  -1.4612224540e-003  -8.7973432059e-004   3.6680071589e-004
  3.3610000000e+008  -8.2184799565e-004  -5.7297033087e-005   9.9296782083e-001  -6.8164649300e-003   1.0011865036e+000  -2.1769740823e-003  -6.0331087788e-004   1.0431654695e-004
  3.4468750000e+008  -7.0131736363e-004   6.3737702467e-005   9.9082153615e-001  -7.5414412824e-003   1.0009255741e+000  -1.6233077264e-003  -5.9496625209e-004  -6.4082873109e-005
  3.5327500000e+008  -5.0312059154e-004   1.6278993116e-004   9.9104733014e-001  -8.7209844068e-003   9.9969320688e-001  -2.2981414454e-003  -7.7946633786e-004   1.4246565430e-004
  3.6186250000e+008  -4.5827707008e-004   3.7031365881e-004   9.9329811143e-001  -8.2586187918e-003   1.0008140014e+000  -1.7622935040e-003  -6.7472025914e-004   4.9227004333e-004
  3.7045000000e+008  -8.5149940811e-004   4.4814730286e-004   9.9267452789e-001  -8.1025131665e-003   1.0002203285e+000  -2.6757543674e-003  -7.0226553015e-004   1.8351755562e-004
  3.7903750000e+008  -1.5862189188e-004   5.3343835901e-004   9.9224686701e-001  -6.2458046806e-003   9.9975378727e-001  -2.0425676962e-003  -5.6794117546e-004   1.0554366598e-004
  3.8762500000e+008  -4.0473219934e-004   4.1746169326e-004   9.9640760722e-001  -6.6099253101e-003   1.0004435803e+000  -1.2184513100e-003  -6.2224293165e-005   4.7956561897e-004
  3.9621250000e+008   9.9436488952e-005   3.0094996782e-004   9.9280986068e-001  -7.7264876182e-003   1.0005365319e+000  -2.1670170406e-003  -4.0296115063e-004   5.3425638376e-004
  4.0480000000e+008   2.0542384801e-004   4.8118318874e-004   9.9374706090e-001  -7.5088620331e-003   1.0004156366e+000  -1.6795332954e-003  -2.1921125623e-004   2.3436255874e-004
  4.1338750000e+008   6.9489973206e-005   1.4782905617e-004   9.9151207516e-001  -6.6676890273e-003   1.0009354157e+000  -2.2374267743e-003  -7.6304246587e-005   4.8371933561e-004
  4.2197500000e+008   1.9802699204e-005  -1.1761040648e-004   9.9384111964e-001  -7.3414771539e-003   1.0009142600e+000  -1.6986212469e-003   1.6144890585e-004   5.0566900212e-004
  4.3056250000e+008   2.9974729936e-004   3.9319249662e-005   9.9385316007e-001  -7.2596119353e-003   1.0008618603e+000  -2.3958790858e-003   3.9981697062e-004   3.3411240830e-004
  4.3915000000e+008  -3.6755650053e-005  -1.7946865812e-004   9.9516303338e-001  -6.3993394429e-003   1.0003215364e+000  -2.2981791919e-003   4.9783442405e-004   3.1789869212e-004
  4.4773750000e+008   1.2410311992e-004  -4.1563202076e-004   9.9562410719e-001  -6.7837548948e-003   1.0004444781e+000  -2.5080469945e-003   6.8863751477e-004   2.4009139446e-004
  4.5632500000e+008  -5.1227107771e-005  -3.1508874022e-004   9.9298475291e-001  -6.6030072599e-003   1.0006710545e+000  -2.2576449860e-003   7.1922956015e-004   2.0784727072e-004
  4.6491250000e+008  -2.8800459294e-004  -2.6120253818e-004   9.9362803420e-001  -8.0657193780e-003   1.0000452331e+000  -2.1747478752e-003   5.1854084159e-004   3.7148314386e-005
  4.7350000000e+008  -4.6833814185e-004  -2.7626353072e-004   9.9176298739e-001  -7.6667291975e-003   1.0004158295e+000  -2.2873468718e-003   4.4066993229e-004  -2.9883298815e-005
  4.8208750000e+008  -3.3209965436e-004  -3.0464023085e-005   9.8929933621e-001  -8.5639539781e-003   9.9983986013e-001  -1.9485619216e-003   5.8962035059e-004  -1.4050114844e-004
  4.9067500000e+008   3.0761497776e-005  -4.1792920199e-004   9.8917081873e-001  -9.0744597097e-003   1.0002449205e+000  -2.1361865182e-003   3.0550405125e-004  -1.5900416755e-004
  4.9926250000e+008  -2.0870358922e-004  -3.5842647441e-004   9.8778992517e-001  -8.7681074227e-003   9.9976507153e-001  -1.9943361665e-003   5.3560401072e-004  -6.3760053826e-005
  5.0785000000e+008  -4.6308776382e-004  -4.0584139001e-004   9.8826782961e-001  -8.6722323726e-003   9.9983477253e-001  -1.5891489996e-003   3.8164554241e-004   4.1472534423e-004
  5.1643750000e+008  -3.9326850956e-004   7.8460869178e-005   9.8682799175e-001  -9.1641344332e-003   1.0002507293e+000  -1.8058134284e-003   4.9518391843e-004  -1.4335235773e-004
  5.2502500000e+008  -2.7289101042e-004   4.5895535604e-004   9.8906950353e-001  -8.3131706476e-003   1.0007023435e+000  -1.1774056434e-003   2.1669387640e-004  -2.8284460134e-004
  5.3361250000e+008   3.7365823756e-004   4.6669398298e-004   9.8989914995e-001  -9.2063161701e-003   1.0010093126e+000  -2.0031139491e-003  -2.6331969732e-005  -5.8417125954e-004
  5.4220000000e+008   7.2354874729e-004   2.0836532754e-004   9.9060192958e-001  -9.6704120973e-003   1.0005803567e+000  -1.9976164056e-003  -1.0303983190e-003  -4.1715224742e-004
  5.5078750000e+008   5.5379325222e-004  -4.6498122559e-004   9.9047184541e-001  -9.0361754041e-003   1.0003048144e+000  -2.5527013173e-003  -9.3216700494e-004  -2.9701961962e-004
  5.5937500000e+008   4.3681336071e-004  -6.5731995081e-004   9.9060626151e-001  -6.6079888451e-003   1.0004837613e+000  -2.5200617460e-003  -9.2830577247e-004   1.1597154979e-004
  5.6796250000e+008   2.9077058674e-004  -8.9677615751e-004   9.9206366656e-001  -7.9368642733e-003   1.0000553622e+000  -2.6617418514e-003  -1.2425001271e-003   5.9469001836e-004
  5.7655000000e+008  -1.2952130547e-004  -8.9597067425e-004   9.9294325045e-001  -8.6868980233e-003   1.0003412862e+000  -2.9214372936e-003  -8.8716722305e-004   8.4654142861e-004
  5.8513750000e+008  -4.1064039481e-004  -9.7104062041e-004   9.9280054143e-001  -9.5641948122e-003   9.9998907845e-001  -3.0243766041e-003  -8.5402633705e-004   8.8954905698e-004
  5.9372500000e+008  -5.3113575621e-004  -9.3154119124e-004   9.8968762223e-001  -8.7249401352e-003   1.0001295940e+000  -2.9743884331e-003  -7.5515984483e-004   1.0239632000e-003
  6.0231250000e+008  -1.0769216788e-003  -5.9708163925e-004   9.9112217133e-001  -6.9506492341e-003   1.0006113923e+000  -2.7143420380e-003  -4.3074272693e-004   1.1016895116e-003
  6.1090000000e+008  -8.5376352939e-004  -3.0972474465e-004   9.9140767600e-001  -8.5445876348e-003   9.9956720862e-001  -2.2992791046e-003  -4.2646787339e-004   1.0839379428e-003
  6.1948750000e+008  -8.2996753546e-004   1.1070350953e-005   9.9097797306e-001  -7.4533377164e-003   1.0000316674e+000  -2.8110146485e-003  -4.2535340042e-005   7.2984712609e-004
  6.2807500000e+008  -8.0992093998e-004   3.0775173006e-005   9.9239108118e-001  -9.1230242681e-003   1.0005046563e+000  -3.0593330757e-003   1.4011767063e-004   3.9071198447e-004
  6.3666250000e+008  -5.1211811098e-004   5.7810212130e-004   9.9347038992e-001  -7.4178029676e-003   1.0005328591e+000  -2.9320318048e-003   1.2329250756e-004   3.4194109954e-004
  6.4525000000e+008  -3.5888505297e-005   3.8557769540e-004   9.9326389105e-001  -7.7248805971e-003   1.0005479532e+000  -2.7069235873e-003   3.8524322819e-004  -8.6486892066e-005
  6.5383750000e+008   1.4962967432e-004   2.8140991776e-004   9.9202046072e-001  -7.4454249579e-003   1.0001472296e+000  -1.4299094944e-003   3.6759334987e-004  -2.2994404755e-004
  6.6242500000e+008   2.9932100183e-004   1.0097032844e-004   9.8945675627e-001  -8.3912236054e-003   1.0004762373e+000  -3.3394771977e-003   2.8313893757e-004  -3.8722109446e-004
  6.7101250000e+008   3.8361411965e-004  -1.2742654494e-004   9.9103465626e-001  -6.3131958297e-003   9.9990718202e-001  -1.9294267999e-003   1.7357315899e-004  -6.5426990280e-004
  6.7960000000e+008   7.8554610924e-004  -5.4716644788e-004   9.9066974553e-001  -8.2450091180e-003   1.0000241497e+000  -2.5921613440e-003   3.3914977120e-005  -1.0047938900e-003
  6.8818750000e+008   2.4907546618e-004  -6.8605152065e-004   9.9067097160e-001  -7.9786435757e-003   1.0005576903e+000  -3.4616725223e-003   9.0503367786e-005  -1.2157423983e-003
  6.9677500000e+008   2.3857949173e-004  -9.8533543514e-004   9.9098570558e-001  -8.9955427336e-003   9.9999833530e-001  -3.1044135746e-003  -1.6123766154e-004  -1.2282583374e-003
  7.0536250000e+008  -7.5715895365e-005  -9.8367170852e-004   9.9097512926e-001  -8.5190805482e-003   9.9982473874e-001  -3.2252266755e-003  -3.7954587469e-004  -1.2862681565e-003
  7.1395000000e+008  -5.2284471296e-004  -1.1008792050e-003   9.9053213668e-001  -7.9581089844e-003   9.9995400176e-001  -2.7903969152e-003  -6.6646828576e-004  -1.2364057821e-003
  7.2253750000e+008  -1.0024734696e-003  -8.6513603053e-004   9.9010527685e-001  -8.1848692265e-003   9.9998075230e-001  -3.3264218895e-003  -9.4969579145e-004  -1.2460256030e-003
  7.3112500000e+008  -1.0557425159e-003  -5.4838787170e-004   9.9056815898e-001  -8.5384857141e-003   9.9961809540e-001  -2.6712987782e-003  -1.1274378946e-003  -9.5490494745e-004
  7.3971250000e+008  -1.0243273002e-003   5.1121959743e-005   9.9127065407e-001  -8.6231521393e-003   9.9968061836e-001  -2.9553605601e-003  -1.3139286550e-003  -7.5069003449e-004
  7.4830000000e+008  -9.9828879413e-004   4.2531095250e-004   9.9107549192e-001  -8.5594438673e-003   9.9935703520e-001  -2.9648423264e-003  -1.0878940315e-003  -6.3654586392e-004
  7.5688750000e+008  -8.1669958420e-004   6.0256623189e-004   9.9062456433e-001  -8.8869916263e-003   9.9943802374e-001  -2.8147433663e-003  -1.3211002573e-003  -1.4292034430e-004
  7.6547500000e+008  -2.6662635654e-004   7.6915497798e-004   9.9134924222e-001  -9.8767546614e-003   9.9923337788e-001  -3.8437743761e-003  -1.2812603666e-003  -1.2119724440e-005
  7.7406250000e+008   6.1040628919e-005   7.2207632121e-004   9.8992001951e-001  -8.9012462298e-003   1.0004756285e+000  -4.0384745923e-003  -8.4278869672e-004   4.1864399884e-004
  7.8265000000e+008   3.6155228674e-004   5.2094713713e-004   9.9115241195e-001  -8.1510683576e-003   9.9982444956e-001  -2.9137057154e-003  -6.8094068674e-004   7.3294708512e-004
  7.9123750000e+008   6.8048501987e-004   3.9633540690e-004   9.9055079055e-001  -7.7223258450e-003   9.9933761736e-001  -2.0169171789e-003  -4.3358265516e-004   6.5343251755e-004
  7.9982500000e+008   6.6062585923e-004   3.2092280956e-004   9.9121036189e-001  -8.1405673747e-003   9.9965678258e-001  -2.0749533402e-003  -4.0074468004e-004   9.0276565741e-004
  8.0841250000e+008   8.7491614882e-004   1.0460038184e-004   9.8998745058e-001  -9.8285375217e-003   9.9931288063e-001  -2.8907077462e-003  -4.2888712850e-004   9.1536323960e-004
  8.1700000000e+008   1.1154684340e-003  -1.5927390047e-004   9.9155352373e-001  -8.4055048995e-003   9.9988090842e-001  -2.6928932378e-003  -3.7977132498e-004   8.4170368390e-004
  8.2558750000e+008   1.0810530453e-003  -4.6486649094e-004   9.9011590751e-001  -7.8571519630e-003   1.0001430010e+000  -2.7545115854e-003  -4.5637114152e-004   9.7530794897e-004
  8.3417500000e+008   1.1188641265e-003  -9.2691168814e-004   9.9152052908e-001  -7.9469850916e-003   1.0010065486e+000  -3.3683308647e-003  -2.4497262488e-004   1.1626357503e-003
  8.4276250000e+008   6.8646718429e-004  -1.2137512892e-003   9.8962701277e-001  -9.7679065292e-003   9.9980617224e-001  -3.4982911559e-003   7.6988589739e-005   1.0082057021e-003
  8.5135000000e+008   1.8143915550e-004  -1.3539411815e-003   9.9009749883e-001  -8.1526677373e-003   1.0008792413e+000  -2.8486359597e-003   2.2790238527e-004   1.2703154577e-003
  8.5993750000e+008  -7.8651479597e-005  -1.3004776281e-003   9.9105806113e-001  -8.4473678471e-003   1.0003674002e+000  -3.5338363260e-003   2.7538532120e-004   1.1063254433e-003
  8.6852500000e+008  -5.2351322944e-004  -1.0246137531e-003   9.8895812069e-001  -1.0483667114e-002   9.9990543039e-001  -2.2855646582e-003   4.1865727144e-004   6.9294936354e-004
  8.7711250000e+008  -5.2167873895e-004  -7.1153811672e-004   9.8875608724e-001  -9.3646241529e-003   1.0000633647e+000  -4.0353373224e-003   4.1152427372e-004   1.9924696578e-004
  8.8570000000e+008  -4.4002162863e-004  -3.9671544909e-004   9.9051987686e-001  -7.8768334006e-003   1.0000953133e+000  -3.8493868694e-003   3.7025345475e-004   7.4519629299e-005
  8.9428750000e+008  -3.7411670336e-004  -2.9135644406e-004   9.8992985265e-001  -9.0893395238e-003   1.0000443453e+000  -4.5440039549e-003   1.7071589417e-004  -4.1640995552e-004
  9.0287500000e+008  -9.4532044518e-005  -1.0502075399e-004   9.9166944740e-001  -1.0212727639e-002   9.9879339323e-001  -3.6953959288e-003  -9.5681860618e-005  -5.1692874721e-004
  9.1146250000e+008   1.3991677172e-004  -7.1392647743e-005   9.9220102642e-001  -8.1282973741e-003   9.9894239488e-001  -3.6539257100e-003  -4.8916310922e-004  -3.6284351708e-004
  9.2005000000e+008   1.8675061931e-004  -1.8290794059e-004   9.9212871215e-001  -6.5383255381e-003   9.9881485841e-001  -2.3522494751e-003  -7.5998595397e-004  -5.2214574615e-004
  9.2863750000e+008   4.8422733105e-004  -3.7604707740e-004   9.9309167026e-001  -8.1148892538e-003   9.9898342459e-001  -4.8280945001e-003  -9.7783846477e-004  -5.1284145733e-004
  9.3722500000e+008   4.8210797667e-004  -7.3165142176e-004   9.9495588886e-001  -7.2276777789e-003   9.9843900872e-001  -3.5595550573e-003  -1.1445796246e-003  -7.5545382852e-004
  9.4581250000e+008   3.1377864286e-004  -1.0671729487e-003   9.9401103376e-001  -6.3224308884e-003   1.0000717810e+000  -3.5323796544e-003  -1.3705872567e-003  -5.3741725231e-004
  9.5440000000e+008   7.0719141550e-005  -1.3060218472e-003   9.9343912129e-001  -7.5499215318e-003   1.0001935494e+000  -2.6765714418e-003  -1.3892395878e-003  -1.5154386661e-004
  9.6298750000e+008  -2.6222581128e-004  -1.3355808142e-003   9.9546005592e-001  -6.3941498583e-003   9.9908522992e-001  -4.1387052745e-003  -1.4534141211e-003  -1.1958966203e-004
  9.7157500000e+008  -4.3276702186e-004  -1.3100865591e-003   9.9395154661e-001  -8.8857729220e-003   1.0010303226e+000  -3.6075991203e-003  -1.4471413753e-003  -2.9032250011e-005
  9.8016250000e+008  -8.6444056272e-004  -1.0819213632e-003   9.9566542640e-001  -8.0324974501e-003   9.9944734101e-001  -5.1153503784e-003  -1.4822653719e-003   2.6860858403e-004
  9.8875000000e+008  -9.9454875021e-004  -7.1840251794e-004   9.9535478779e-001  -7.0307775080e-003   9.9921458679e-001  -3.6431211564e-003  -1.2055073052e-003   2.8535495899e-004
  9.9733750000e+008  -1.0878449726e-003  -4.4769066456e-004   9.9296125883e-001  -7.9757756719e-003   9.9927939339e-001  -2.5895036801e-003  -9.9797041398e-004   1.6110310736e-004
  1.0059250000e+009  -1.1321610832e-003   2.6085745838e-005   9.9373375471e-001  -6.6556503296e-003   1.0005977887e+000  -3.4546678575e-003  -7.1172204566e-004   3.2735771379e-004
  1.0145125000e+009  -9.6967626234e-004   3.7754655216e-004   9.9463743109e-001  -9.6041146214e-003   9.9944961252e-001  -4.1254168998e-003  -3.7131664980e-004   3.5021923496e-004
  1.0231000000e+009  -7.0731115948e-004   4.3593001648e-004   9.9313256587e-001  -7.4756869902e-003   9.9920375757e-001  -3.9929538158e-003  -2.0312246145e-004   3.3874727114e-004
  1.0316875000e+009  -4.0519277188e-004   7.1008413157e-004   9.9529780788e-001  -8.7899438258e-003   9.9927027231e-001  -4.0821187629e-003   3.4383447818e-005   9.7272432954e-005
  1.0402750000e+009   7.2116888585e-005   7.2958151433e-004   9.9421948957e-001  -8.2228582963e-003   9.9872031572e-001  -3.0965883026e-003   3.8508117611e-004  -1.4422099672e-004
  1.0488625000e+009   4.1573920956e-004   6.6025658201e-004   9.9493331159e-001  -7.1666933350e-003   9.9907542750e-001  -3.2864091674e-003   7.6112536381e-004  -1.8497693892e-004
  1.0574500000e+009   6.1937631794e-004   3.6675142073e-004   9.9343086241e-001  -7.9824370822e-003   9.9872666900e-001  -3.7824391088e-003   8.0912768986e-004  -5.9695363141e-004
