# Hz S RI R 50.000000
! Metas.Vna.Tools, 2.8.8664.20301
! Metas.Vna.Data, 2.8.8664.20285
! Created: UTC 2024.02.11 10:08:25
! FREQ                re:S1,1             im:S1,1             re:S2,1             im:S2,1             re:S1,2             im:S1,2             re:S2,2             im:S2,2          
  1.3000000000e+008   3.4804170379e-004  -1.8349289411e-003   9.8794651771e-001  -8.1196176518e-003   1.0001201889e+000   2.2069580462e-004   1.4721215330e-003   8.5205016524e-004
  1.3858750000e+008  -4.1131529096e-004  -1.6448705768e-003   9.9166711054e-001  -7.2267221903e-003   1.0005444403e+000   2.4763945447e-004   1.4050531426e-003  -1.0099990357e-004
  1.4717500000e+008  -1.7052866442e-003  -9.2556609453e-004   9.9277991716e-001  -6.2361815734e-003   1.0001195629e+000  -1.6658303810e-004   6.2727849556e-004  -3.2183319023e-004
  1.5576250000e+008  -1.0560946621e-003   1.4606506622e-004   9.9414484122e-001  -6.6991922064e-003   1.0001298326e+000  -1.1645426054e-004   1.4318328852e-003  -9.5544860064e-004
  1.6435000000e+008  -8.6760904725e-004   9.4572904560e-004   9.9272791075e-001  -5.5219280934e-003   1.0001540749e+000  -4.7813583204e-004   3.0787012967e-004  -4.4055812411e-004
  1.7293750000e+008  -6.8966796478e-004   6.8620986990e-004   9.9300035440e-001  -6.1819145341e-003   1.0003203826e+000  -3.2361575897e-004   1.0865127055e-003  -7.9932725772e-004
  1.8152500000e+008  -6.4621313079e-004   4.4115052696e-004   9.9241302779e-001  -6.6367735087e-003   1.0001628346e+000  -8.5724533500e-004   6.0973109214e-004  -3.4784155844e-004
  1.9011250000e+008  -9.6753286503e-004   9.7220461031e-004   9.9141519550e-001  -7.8734869095e-003   1.0011500548e+000  -5.8086915925e-004   5.8591964357e-004  -8.9608001969e-004
  1.9870000000e+008   7.7593313407e-005   9.6256383873e-004   9.8916765028e-001  -7.3945906362e-003   1.0001825355e+000  -8.5365318450e-004   8.2460261678e-005  -4.3659853117e-004
  2.0728750000e+008   2.6167458088e-004   2.3833741900e-004   9.9085034120e-001  -7.0305127739e-003   1.0004587400e+000  -9.3412659482e-004   2.3044583872e-004  -4.1869417348e-004
  2.1587500000e+008   2.3743784184e-004  -4.2550504586e-004   9.9051335232e-001  -8.7411093918e-003   9.9986945952e-001  -3.0403125760e-004  -1.7358694834e-004   1.6180669981e-004
  2.2446250000e+008   4.2415608837e-004  -6.2303632835e-004   9.9250920139e-001  -6.3925749862e-003   1.0005937963e+000  -6.2542467410e-004  -3.8346770156e-004   1.1985367640e-004
  2.3305000000e+008   9.6468515142e-005   7.3866799163e-005   9.9315248292e-001  -6.7029930772e-003   1.0007356925e+000  -9.2676602145e-004  -7.4864447385e-004   2.6314252014e-004
  2.4163750000e+008  -2.7585307894e-004  -4.6059951560e-004   9.9396730466e-001  -6.7381730556e-003   1.0003138321e+000  -1.2345042357e-003  -6.2660694514e-004   4.1350376094e-004
  2.5022500000e+008  -1.5779027036e-004  -1.0242835086e-003   9.9501519016e-001  -5.2517241821e-003   1.0000445233e+000  -1.5171810062e-003  -1.0870786208e-003   8.5571363444e-004
  2.5881250000e+008  -5.1119868316e-004  -6.0419113430e-004   9.9311714315e-001  -6.2543327706e-003   1.0002903850e+000  -1.5471052349e-003  -6.1054951354e-004   4.4385665674e-004
  2.6740000000e+008  -8.0426670106e-004  -5.3481223135e-004   9.9300567116e-001  -7.5576118355e-003   1.0005475933e+000  -1.8985520561e-003  -9.1187608862e-004   5.0234997862e-004
  2.7598750000e+008  -2.6055781494e-004  -2.8373234107e-004   9.9309523340e-001  -7.5794297916e-003   1.0000357692e+000  -6.9531986194e-004  -5.9310054256e-004   9.9895537598e-004
  2.8457500000e+008  -7.2835707714e-004  -2.7885881436e-004   9.9232719038e-001  -8.0568838407e-003   1.0003763788e+000  -1.0433020783e-003  -3.4586276308e-004   7.9947155918e-004
  2.9316250000e+008  -4.3231322154e-004  -4.1691278018e-004   9.9250983312e-001  -6.9768644672e-003   1.0004682023e+000  -2.0122749025e-003  -5.7558898995e-004   7.5686765508e-004
  3.0175000000e+008  -8.5363027509e-004   3.0698142628e-004   9.9289879565e-001  -8.8395207698e-003   1.0003959666e+000  -4.0293924658e-004  -5.2107801842e-004   5.2202781795e-004
  3.1033750000e+008  -7.1819242711e-004   9.6604269044e-005   9.9229028730e-001  -6.5830084441e-003   1.0014074822e+000  -1.6491007231e-003  -9.7156412348e-004   5.1521889801e-004
  3.1892500000e+008  -8.4296648260e-004   1.3542333291e-004   9.9171406093e-001  -6.6299174989e-003   1.0001987869e+000  -8.7327309907e-004  -6.1348143070e-004   1.8125616963e-004
  3.2751250000e+008  -7.5205525163e-004   9.3700753196e-005   9.9288884794e-001  -7.1798098414e-003   1.0002025322e+000  -1.2455843326e-003  -5.4152048701e-004   1.8702909734e-004
  3.3610000000e+008  -7.5473209749e-004   6.8066927681e-005   9.9339614987e-001  -7.0634967392e-003   1.0015884444e+000  -1.9594592685e-003  -6.7963196345e-004   3.6117030556e-004
  3.4468750000e+008  -9.6469822574e-004   3.2363580334e-004   9.9173775007e-001  -6.6451040484e-003   1.0007059337e+000  -1.1461687836e-003  -6.8434230686e-004   1.9333091496e-004
  3.5327500000e+008  -4.5667562554e-004   3.2328017537e-004   9.9286226076e-001  -8.3178331351e-003   9.9986442939e-001  -2.0720280574e-003  -5.6176740220e-004   3.5207352736e-004
  3.6186250000e+008  -4.2391572896e-004   1.5468749760e-004   9.9332929062e-001  -8.3188150503e-003   1.0010367391e+000  -1.0672548356e-003  -5.0902038364e-004   4.9357490622e-004
  3.7045000000e+008  -6.9446948284e-004   3.0945423829e-004   9.9306904338e-001  -7.6080812590e-003   1.0008955587e+000  -2.1839412677e-003  -6.5073100723e-004   2.1148181037e-004
  3.7903750000e+008  -3.1873988845e-004   5.8081380411e-004   9.9330702934e-001  -6.5475252480e-003   1.0006818456e+000  -1.6291493777e-003  -4.6087094667e-004   3.8115405881e-004
  3.8762500000e+008  -3.4676123550e-004   4.4960594428e-004   9.9468728811e-001  -6.5064355224e-003   1.0002484000e+000  -1.5274013239e-003  -4.7155483470e-004   3.2222859799e-004
  3.9621250000e+008  -2.0204062202e-004   3.4617860233e-004   9.9441803693e-001  -7.5162593983e-003   1.0000969100e+000  -1.4381269434e-003  -4.2183650351e-004   5.4747524468e-004
  4.0480000000e+008   3.3138771918e-004   3.7455199211e-004   9.9453961014e-001  -6.9013001209e-003   1.0005071673e+000  -1.8969004296e-003   5.6226117254e-005   4.2282271242e-004
  4.1338750000e+008   1.2009617268e-004   3.1511914457e-004   9.9430480432e-001  -5.7487922643e-003   1.0006718536e+000  -1.6108829338e-003   1.9943525902e-004   3.5774274544e-004
  4.2197500000e+008  -1.0018172285e-005  -3.1340111672e-004   9.9355066861e-001  -7.4139516882e-003   1.0007044304e+000  -1.8822500733e-003   3.0291379417e-004   5.7838389446e-004
  4.3056250000e+008   2.1842471851e-004  -1.3548965364e-004   9.9421711529e-001  -7.0831630281e-003   1.0005126561e+000  -1.8517557259e-003   4.2199859452e-004   3.9801288923e-004
  4.3915000000e+008   1.9908401508e-004  -1.6242523575e-004   9.9526400801e-001  -6.7032512271e-003   1.0001394539e+000  -2.0157376818e-003   5.2991280467e-004   2.0748269848e-004
  4.4773750000e+008   2.4257918208e-004  -3.7610517777e-004   9.9385547594e-001  -7.3998162637e-003   1.0006864845e+000  -2.4730606901e-003   7.3405479888e-004   2.2692523781e-004
  4.5632500000e+008  -1.7389189935e-005  -4.2903523545e-004   9.9271736165e-001  -7.0020575697e-003   1.0003333605e+000  -1.8970104744e-003   7.5199618744e-004   3.5116287832e-004
  4.6491250000e+008  -2.4579529183e-004  -3.1209935115e-004   9.9373177587e-001  -8.6050246654e-003   1.0002347630e+000  -2.2782672185e-003   8.0129465687e-004   1.2511215385e-004
  4.7350000000e+008  -5.8082609951e-004  -2.7151809072e-004   9.9381192145e-001  -6.6150905702e-003   1.0002276693e+000  -2.1533562027e-003   6.9615761366e-004   3.2389534714e-005
  4.8208750000e+008  -2.5525693500e-004  -1.2575310912e-004   9.9111422843e-001  -7.6939208867e-003   9.9977053152e-001  -1.8569037607e-003   6.5319851003e-004   1.6754800719e-004
  4.9067500000e+008  -2.3047141408e-005  -2.9610591069e-004   9.9063419532e-001  -8.2890628532e-003   1.0000909351e+000  -2.0180073245e-003   3.5750461207e-004   5.6312279976e-005
  4.9926250000e+008  -2.1439834776e-004  -3.6767966905e-004   9.9136196975e-001  -7.3786803023e-003   9.9991612958e-001  -1.9314407347e-003   5.6987616285e-004   1.5612406203e-005
  5.0785000000e+008  -5.0004186679e-004  -3.2214057424e-004   9.9055817286e-001  -7.1148960013e-003   1.0002615715e+000  -1.3508208295e-003   5.0169062763e-004   2.4125054746e-004
  5.1643750000e+008  -6.0773369174e-004   3.8756652427e-005   9.9030199287e-001  -7.1629575332e-003   1.0003744238e+000  -1.7071171442e-003   8.1732986049e-004  -1.4761947739e-004
  5.2502500000e+008  -3.8181458057e-004   5.7191271075e-004   9.9124529212e-001  -5.3643568894e-003   1.0005169509e+000  -1.2672693458e-003   1.8575076235e-004  -5.7112221017e-004
  5.3361250000e+008   4.0083376626e-004   4.5090791509e-004   9.9240664419e-001  -8.6283754494e-003   1.0005447298e+000  -1.7356624650e-003  -1.8838583028e-004  -7.1480402717e-004
  5.4220000000e+008   6.3251600580e-004   9.3594726699e-005   9.9282784523e-001  -8.6578042090e-003   1.0009698936e+000  -1.8050472184e-003  -9.9576350917e-004  -6.1760321020e-004
  5.5078750000e+008   6.7091859088e-004  -5.1069407806e-004   9.9061651642e-001  -9.0687910059e-003   1.0002048093e+000  -2.5962413299e-003  -9.0416217825e-004  -1.2674729995e-004
  5.5937500000e+008   4.0445253182e-004  -5.0543993745e-004   9.8957570566e-001  -9.0923304369e-003   1.0002519807e+000  -2.4256232701e-003  -1.0452348279e-003   2.2781849331e-004
  5.6796250000e+008   3.7987144129e-004  -9.7281919181e-004   9.9142175815e-001  -7.9690945447e-003   1.0003559623e+000  -1.7857643576e-003  -1.0908337684e-003   5.4282714607e-004
  5.7655000000e+008  -1.6364924485e-004  -1.0728060238e-003   9.9090239201e-001  -1.1378695334e-002   1.0003629473e+000  -2.8767422885e-003  -9.1554590752e-004   9.1603656967e-004
  5.8513750000e+008  -3.3658272692e-004  -8.8662793815e-004   9.8864684004e-001  -9.9811957519e-003   9.9963070448e-001  -2.7597670349e-003  -8.9836158372e-004   8.6812684146e-004
  5.9372500000e+008  -5.6883850120e-004  -8.8643303199e-004   9.8815142962e-001  -8.8355069283e-003   9.9973709376e-001  -2.7898538512e-003  -6.0370771305e-004   1.2064475969e-003
  6.0231250000e+008  -9.3308334993e-004  -6.2723670379e-004   9.8655928993e-001  -8.3133491774e-003   1.0008331662e+000  -2.1381286214e-003  -3.2460413710e-004   1.0154615833e-003
  6.1090000000e+008  -8.8734866275e-004  -5.0592574462e-004   9.8843739163e-001  -1.0691588964e-002   1.0004599859e+000  -1.8488617881e-003  -4.0283166074e-004   9.2811733739e-004
  6.1948750000e+008  -9.6404460541e-004  -1.0748015809e-004   9.8595010707e-001  -9.7107333149e-003   9.9959944143e-001  -2.1126689986e-003  -2.5734297868e-004   6.3295231258e-004
  6.2807500000e+008  -6.6860541887e-004  -2.8958661933e-005   9.8869949022e-001  -1.1206403852e-002   1.0000844684e+000  -2.1674276143e-003   7.3270550555e-005   4.8169182923e-004
  6.3666250000e+008  -4.8376274130e-004   4.4809479379e-004   9.8900658364e-001  -9.3993299756e-003   1.0002432032e+000  -3.0370176167e-003   6.4693978688e-005   4.1935200649e-004
  6.4525000000e+008  -5.1740484068e-005   4.3006394009e-004   9.8980750607e-001  -8.6743112734e-003   1.0003732642e+000  -2.4377170669e-003   2.3266066691e-004  -1.8075326753e-004
  6.5383750000e+008   1.2248447988e-004   3.8998652204e-004   9.8935364637e-001  -8.5987592028e-003   9.9986679016e-001  -2.2400868592e-003   4.7014774164e-004  -2.2776953691e-004
  6.6242500000e+008   4.0534044691e-004   2.1002762106e-004   9.8497126844e-001  -1.0083315458e-002   1.0001853708e+000  -3.2432399466e-003   3.9969786264e-004  -5.0783099432e-004
  6.7101250000e+008   4.5628296750e-004  -4.3009590747e-005   9.8533794969e-001  -9.2909615153e-003   1.0001732341e+000  -2.2050960264e-003   3.6405544977e-004  -7.3002431395e-004
  6.7960000000e+008   8.0829564743e-004  -5.6170938771e-004   9.8597497224e-001  -1.0051089598e-002   1.0000835056e+000  -2.5949340424e-003   9.6793783519e-005  -1.1507490745e-003
  6.8818750000e+008   3.9591159943e-004  -6.9399211529e-004   9.8655148007e-001  -9.8048551674e-003   1.0000911210e+000  -2.9945006065e-003  -2.9415338134e-005  -1.3074713959e-003
  6.9677500000e+008   3.7024437374e-004  -9.3916330098e-004   9.8647695085e-001  -9.7042220335e-003   1.0002245014e+000  -2.5797543597e-003  -2.8080103173e-004  -1.3961388065e-003
  7.0536250000e+008  -1.3601023709e-004  -1.1387380898e-003   9.8505659890e-001  -1.0724358274e-002   1.0001562794e+000  -3.0748359406e-003  -4.5641702850e-004  -1.3566521890e-003
  7.1395000000e+008  -5.1802695747e-004  -1.1106236237e-003   9.8675846218e-001  -9.1342302012e-003   1.0005708201e+000  -2.6721808309e-003  -7.7678579115e-004  -1.3909450396e-003
  7.2253750000e+008  -1.0320940403e-003  -9.9730264032e-004   9.8442145213e-001  -1.0109352678e-002   1.0002578529e+000  -2.9832523537e-003  -1.0633207219e-003  -1.4563691235e-003
  7.3112500000e+008  -8.8981559579e-004  -5.2238599519e-004   9.8987039050e-001  -8.2605099019e-003   1.0005925957e+000  -2.5351734140e-003  -1.1502201675e-003  -1.0556224815e-003
  7.3971250000e+008  -1.0717969424e-003  -4.7785336310e-005   9.9085120427e-001  -1.0298964844e-002   1.0000920635e+000  -2.9676939214e-003  -1.4026125264e-003  -7.9159066703e-004
  7.4830000000e+008  -9.5254794468e-004   5.1041472444e-004   9.9000692395e-001  -7.8339041762e-003   9.9969772897e-001  -2.5621339808e-003  -1.1263833217e-003  -7.5132432538e-004
  7.5688750000e+008  -7.6968822245e-004   6.3036121184e-004   9.8664335149e-001  -1.0064858383e-002   9.9910772409e-001  -3.3932086073e-003  -1.2159019695e-003  -2.6604657635e-004
  7.6547500000e+008  -2.1391456348e-004   8.4503030058e-004   9.8845720250e-001  -9.8422146617e-003   9.9976140624e-001  -2.9467712459e-003  -1.2607812380e-003  -6.7955087165e-005
  7.7406250000e+008   4.7245250465e-005   8.7148025233e-004   9.8988505594e-001  -8.7019100675e-003   9.9960222634e-001  -2.4355875866e-003  -9.6215009488e-004   2.8226269325e-004
  7.8265000000e+008   3.6261868346e-004   5.1057005003e-004   9.9035944757e-001  -8.4401046119e-003   9.9929496653e-001  -2.2779959297e-003  -8.2156001533e-004   7.5840729601e-004
  7.9123750000e+008   6.4531460836e-004   4.3311559358e-004   9.9062710942e-001  -7.8527136070e-003   9.9947325074e-001  -2.3137712358e-003  -7.6720068364e-004   5.7852514281e-004
  7.9982500000e+008   6.7393489060e-004   2.1821748408e-004   9.9086224886e-001  -8.4417244025e-003   1.0004269326e+000  -1.7060933333e-003  -5.4305208095e-004   7.6110140931e-004
  8.0841250000e+008   8.3199253139e-004   1.7188290190e-004   9.8956395985e-001  -8.7429303760e-003   9.9931365543e-001  -2.2514603353e-003  -6.7061713185e-004   8.0277809176e-004
  8.1700000000e+008   1.2084490885e-003  -2.5633665295e-004   9.9156476914e-001  -7.9997004663e-003   9.9985529238e-001  -2.2002998886e-003  -6.4872196610e-004   8.8134682294e-004
  8.2558750000e+008   1.1839458488e-003  -3.4847220363e-004   9.9175350030e-001  -7.6970299762e-003   1.0005184558e+000  -3.0499742513e-003  -5.8756984655e-004   1.1483374876e-003
  8.3417500000e+008   1.0748820116e-003  -1.0761677517e-003   9.9147588059e-001  -9.1602003762e-003   1.0009030623e+000  -2.6752979015e-003  -3.9407591565e-004   1.3503092832e-003
  8.4276250000e+008   6.3511291328e-004  -1.3906902550e-003   9.9084847401e-001  -8.2538719294e-003   9.9968281913e-001  -3.0368981407e-003  -1.2482526300e-004   1.4023992697e-003
  8.5135000000e+008   1.4053295697e-004  -1.2623310727e-003   9.9080206232e-001  -8.1843173084e-003   1.0013561867e+000  -3.2969541245e-003   3.0837594243e-004   1.4971852642e-003
  8.5993750000e+008  -1.7376432775e-004  -1.4057173442e-003   9.9027373027e-001  -8.4709852937e-003   9.9962608344e-001  -3.8924046499e-003   4.3589900613e-004   1.2354307089e-003
  8.6852500000e+008  -4.7962862334e-004  -1.0223718311e-003   9.8903091654e-001  -9.1703353707e-003   9.9973004786e-001  -3.0014519009e-003   6.9263105366e-004   8.2479142886e-004
  8.7711250000e+008  -5.8850833934e-004  -7.4901175959e-004   9.8784590187e-001  -9.7858488223e-003   1.0006553849e+000  -3.0727595113e-003   6.2231604974e-004   4.0084577673e-004
  8.8570000000e+008  -5.6801036952e-004  -4.4029874716e-004   9.9138117019e-001  -7.9032957280e-003   9.9965207369e-001  -3.4725215443e-003   4.4230963216e-004   5.6198690543e-005
  8.9428750000e+008  -3.8504682887e-004  -2.3284376431e-004   9.8856380387e-001  -9.5276172117e-003   1.0003423843e+000  -3.6082636100e-003   2.0529113282e-004  -2.4746075942e-004
  9.0287500000e+008  -7.5483541397e-005  -2.0649435805e-004   9.9070629530e-001  -9.7539577410e-003   9.9997184111e-001  -4.3493069724e-003   9.7922091458e-006  -4.4822430226e-004
  9.1146250000e+008   1.9564052782e-004  -1.5818402183e-004   9.9039960061e-001  -8.8967660458e-003   9.9876576018e-001  -3.8286379951e-003  -4.0695482742e-004  -4.9953376544e-004
  9.2005000000e+008   2.7335258045e-004  -2.4451455923e-004   9.9113604745e-001  -8.3286131586e-003   9.9896085254e-001  -2.8551583668e-003  -6.8651063465e-004  -6.0499203919e-004
  9.2863750000e+008   4.0836172999e-004  -3.9677592021e-004   9.9258860800e-001  -8.2526556577e-003   9.9868701135e-001  -3.7232006877e-003  -8.7903337910e-004  -5.4379043772e-004
  9.3722500000e+008   4.7067347373e-004  -7.1855782464e-004   9.9109404029e-001  -8.5031053996e-003   9.9898325737e-001  -3.6022471909e-003  -1.2066827679e-003  -6.5463748707e-004
  9.4581250000e+008   3.7641756251e-004  -9.5961066012e-004   9.8978431299e-001  -7.6734807779e-003   9.9965500540e-001  -3.4545163189e-003  -1.4492542293e-003  -4.8740629494e-004
  9.5440000000e+008   7.7206767589e-005  -1.3255490056e-003   9.8919705200e-001  -9.3617479150e-003   1.0002936946e+000  -3.4785880763e-003  -1.6616824886e-003  -3.2462656957e-004
  9.6298750000e+008  -1.2185023814e-004  -1.3778379182e-003   9.9265398386e-001  -8.0818659134e-003   9.9895794238e-001  -3.9687980390e-003  -1.5557071153e-003  -1.2782305171e-004
  9.7157500000e+008  -5.5588334367e-004  -1.3518033390e-003   9.9156762651e-001  -8.6312798557e-003   1.0008705160e+000  -3.7392393733e-003  -1.5073776306e-003  -1.4501947121e-004
  9.8016250000e+008  -8.6911555053e-004  -1.1250851769e-003   9.9168338321e-001  -9.4571701281e-003   9.9912135488e-001  -5.0556231661e-003  -1.4325012970e-003   1.8328033529e-004
  9.8875000000e+008  -1.1432608969e-003  -7.5759893364e-004   9.9033338747e-001  -9.1122490396e-003   1.0001293310e+000  -3.6161735633e-003  -1.3174825369e-003   2.2196166345e-004
  9.9733750000e+008  -1.2098004808e-003  -4.7397762239e-004   9.9051463390e-001  -8.8338858955e-003   9.9900803799e-001  -2.8756489952e-003  -1.0776939905e-003   1.7781229274e-004
  1.0059250000e+009  -1.0931556271e-003  -1.0243088325e-004   9.9165328372e-001  -8.8585867891e-003   9.9988364382e-001  -3.4787085394e-003  -7.3435995844e-004   2.6400804838e-004
  1.0145125000e+009  -9.9236196668e-004   2.7873526851e-004   9.9075318686e-001  -1.0085866132e-002   9.9952529362e-001  -3.4382040484e-003  -5.4493468378e-004   1.6034482695e-004
  1.0231000000e+009  -6.7513801914e-004   4.4127717942e-004   9.9019167327e-001  -7.0454660710e-003   9.9896724866e-001  -3.7220492360e-003  -2.3037207600e-004   1.6784088052e-004
  1.0316875000e+009  -4.0901188860e-004   7.6308932163e-004   9.9066513525e-001  -9.3800395908e-003   9.9932217275e-001  -4.3495963841e-003   6.8082242760e-005   4.1310500974e-005
  1.0402750000e+009   1.1866621037e-004   7.9856794989e-004   9.8974479736e-001  -9.3884460634e-003   1.0003077354e+000  -3.3883738489e-003   3.1034297758e-004  -1.8290323047e-004
  1.0488625000e+009   4.5284806675e-004   6.4798184227e-004   9.9072445676e-001  -8.7886744819e-003   9.9924802351e-001  -3.9871152124e-003   6.3129330265e-004  -4.0864034183e-004
  1.0574500000e+009   6.3395971182e-004   2.4476410030e-004   9.9087689676e-001  -8.5318543311e-003   9.9947696303e-001  -3.3734934326e-003   7.8626548178e-004  -5.0302775201e-004
