# Hz S RI R 50.000000
! Metas.Vna.Tools, 2.8.8664.20301
! Metas.Vna.Data, 2.8.8664.20285
! Created: UTC 2024.02.11 10:08:21
! FREQ                re:S1,1             im:S1,1             re:S2,1             im:S2,1             re:S1,2             im:S1,2             re:S2,2             im:S2,2          
  1.3000000000e+008   2.6411258854e-004  -2.0217845564e-003   9.9235292209e-001  -6.0200959877e-003   1.0004156415e+000  -1.7976333997e-004   1.2392784032e-003   9.9961019074e-004
  1.3858750000e+008  -6.7155604231e-004  -1.2774844928e-003   9.9275289282e-001  -6.1258414832e-003   1.0003900710e+000   4.1468581810e-004   7.0672380850e-004   4.5272963064e-005
  1.4717500000e+008  -1.7717119090e-003  -9.2055366626e-004   9.9065210075e-001  -6.9084573978e-003   1.0003065571e+000  -7.5724305877e-004   5.6080349596e-004  -1.3798957547e-004
  1.5576250000e+008  -8.1390205724e-004  -1.6446014494e-004   9.9075557920e-001  -7.1058565782e-003   1.0002261784e+000  -5.8635186864e-004   1.6127602973e-003  -1.1408696397e-003
  1.6435000000e+008  -1.0913982950e-003   6.9557203737e-004   9.9068444440e-001  -6.1953288304e-003   1.0005241158e+000  -4.9498340365e-004   6.3502590092e-004  -4.2114703235e-004
  1.7293750000e+008  -1.3536035754e-003   5.3091010150e-004   9.9346577782e-001  -5.9477277273e-003   1.0000149924e+000  -5.3487728709e-004   7.1744381534e-004  -1.2087062895e-003
  1.8152500000e+008  -3.1808543734e-004   5.0878713903e-004   9.9025443547e-001  -6.5930574453e-003   9.9963581041e-001  -5.4527787756e-004   1.8476798683e-004  -6.0009199744e-004
  1.9011250000e+008  -6.8309493062e-004   2.3353825711e-004   9.9211274548e-001  -7.8011291578e-003   1.0008710650e+000  -1.1180006700e-003   4.1985465354e-004  -9.1052545993e-004
  1.9870000000e+008  -2.1548325909e-005   1.0798245201e-003   9.9174949113e-001  -7.0927831374e-003   1.0002070362e+000  -4.8790109708e-004   3.1427395092e-004  -4.5108073812e-004
  2.0728750000e+008   4.9122913885e-004   1.0751762964e-004   9.9034651075e-001  -6.8114392979e-003   1.0008216702e+000  -1.3952334403e-003  -1.6338142749e-004  -9.3026808305e-005
  2.1587500000e+008   3.4739369101e-004  -1.4573784048e-004   9.8984656233e-001  -7.7836839175e-003   9.9979766920e-001  -8.7029218891e-004  -3.9009091906e-004   2.0425268627e-004
  2.2446250000e+008   2.8702087389e-004  -7.8353343107e-004   9.8957474563e-001  -7.1641166458e-003   1.0008132166e+000  -1.1762298755e-003  -3.9892795959e-004   1.3007549188e-004
  2.3305000000e+008   4.7666498730e-005  -3.1279511691e-004   9.8831867259e-001  -8.2933184908e-003   1.0002309450e+000  -7.6299899678e-004  -3.8795941248e-004  -1.3323805600e-004
  2.4163750000e+008  -2.9197055678e-004  -5.2456962149e-004   9.8724080305e-001  -9.6795144890e-003   1.0001013362e+000  -1.2601856890e-003  -7.9631692623e-004   3.1257079762e-004
  2.5022500000e+008  -1.1327041246e-004  -4.6657216852e-004   9.8833218301e-001  -7.1068345033e-003   9.9965911573e-001  -9.9765718973e-004  -1.1825880541e-003   6.6090713243e-004
  2.5881250000e+008  -3.5076073996e-004  -5.4609359137e-004   9.8773767366e-001  -8.0310484383e-003   1.0011328498e+000  -1.4833124125e-003  -7.4520962367e-004   6.4150958537e-004
  2.6740000000e+008  -6.4320916027e-004  -4.2004813242e-004   9.8921039321e-001  -9.6765593995e-003   1.0008927177e+000  -2.0329275588e-003  -7.5321144632e-004   4.5567733083e-004
  2.7598750000e+008  -2.9390894205e-004  -2.6762595322e-004   9.8822187717e-001  -8.9205880504e-003   1.0010862554e+000  -1.4800609944e-003  -4.9969239435e-004   9.6051265642e-004
  2.8457500000e+008  -8.6935716140e-004  -2.6248518453e-004   9.8852128100e-001  -7.7949626002e-003   1.0007931854e+000  -3.1585202730e-004  -1.4205273369e-004   7.5029843171e-004
  2.9316250000e+008  -6.1675873233e-004  -6.1092919021e-004   9.8771778153e-001  -7.4276865748e-003   1.0003595514e+000  -1.8725797121e-003  -1.6289964501e-004   5.5443242850e-004
  3.0175000000e+008  -7.8416362146e-004   2.0629530447e-004   9.8889755359e-001  -9.1305990354e-003   1.0000173599e+000  -6.0288238427e-004  -7.7807602154e-004  -5.1527634316e-005
  3.1033750000e+008  -8.0528104561e-004   1.4497091672e-004   9.8852842654e-001  -7.5787954600e-003   1.0009118805e+000  -1.5992863743e-003  -1.0726826679e-003   3.6271436365e-004
  3.1892500000e+008  -8.2519995624e-004  -8.4158430196e-005   9.8982789737e-001  -8.6564333267e-003   9.9943062659e-001  -3.1130705822e-005  -9.2667181646e-004   3.4458577936e-004
  3.2751250000e+008  -6.0339758406e-004  -1.7721381700e-005   9.8770632867e-001  -8.3588703700e-003   1.0006903520e+000  -1.9334415541e-003  -9.3688759069e-004   2.6437958006e-004
  3.3610000000e+008  -8.3151525000e-004   1.6806063731e-004   9.8930505191e-001  -7.9189641553e-003   1.0005820950e+000  -1.8162767997e-003  -7.0607375166e-004   1.2919378168e-004
  3.4468750000e+008  -6.9569076321e-004  -6.5073418501e-005   9.9022639662e-001  -6.5293183536e-003   1.0008140100e+000  -1.7496357011e-003  -6.0046852078e-004   2.3440233629e-004
  3.5327500000e+008  -6.1495897922e-004   2.7470721687e-004   9.8882322113e-001  -8.5418340711e-003   9.9987545919e-001  -2.5619981344e-003  -7.9161629882e-004   3.1334118465e-004
  3.6186250000e+008  -5.5324930207e-004   2.6582855893e-004   9.9016339121e-001  -8.0677937694e-003   1.0005742012e+000  -1.2031316675e-003  -5.0881655515e-004   4.6551902948e-004
  3.7045000000e+008  -5.2215109535e-004   5.0436027504e-004   9.9018083301e-001  -7.1808894577e-003   1.0011172457e+000  -2.0061154540e-003  -5.9863023773e-004   3.1964130409e-004
  3.7903750000e+008  -7.8778434514e-005   4.9981329413e-004   9.9001510183e-001  -7.9728873772e-003   1.0006104353e+000  -1.4217099008e-003  -3.5389640501e-004  -7.7962669855e-005
  3.8762500000e+008  -4.3256130646e-004   6.1967320569e-004   9.9075860249e-001  -6.8678438662e-003   9.9995591913e-001  -1.6697508939e-003  -2.5080263322e-004   5.6046109995e-004
  3.9621250000e+008   1.4450168320e-004   3.5955838802e-004   9.8869035360e-001  -8.7232660291e-003   1.0009386735e+000  -1.4062147936e-003  -4.5919156488e-004   6.8103023842e-004
  4.0480000000e+008   2.6259140981e-004   5.0891009102e-004   9.8910607056e-001  -8.9745797257e-003   1.0006917593e+000  -1.7086749965e-003   1.2461079767e-004   3.2768459794e-004
  4.1338750000e+008   4.1646154734e-004   3.4026629673e-004   9.8953445070e-001  -7.4506952372e-003   1.0007550495e+000  -1.7242709547e-003   2.4368553448e-004   4.1951776108e-004
  4.2197500000e+008   7.2778590430e-005  -2.0514127178e-004   9.9212758224e-001  -7.6873857642e-003   1.0009352645e+000  -1.9734510039e-003   2.4750599757e-004   5.9363234428e-004
  4.3056250000e+008   1.3465828850e-004   7.4972881465e-005   9.9089808699e-001  -7.6486296367e-003   1.0008078294e+000  -1.9300161817e-003   5.6253532534e-004   2.2536233868e-004
  4.3915000000e+008   1.1118169348e-004  -3.5308045400e-004   9.9070618280e-001  -7.3811010350e-003   1.0006875768e+000  -1.9964402543e-003   6.9039322898e-004   3.3926401249e-004
  4.4773750000e+008   4.5411269187e-005  -3.6393201987e-004   9.9088383037e-001  -7.9102070145e-003   1.0004574247e+000  -2.4508462562e-003   7.9927699009e-004   6.0946624023e-005
  4.5632500000e+008  -5.0015816639e-005  -4.1508261789e-004   9.8922282991e-001  -7.3459029429e-003   1.0003358983e+000  -2.1393294794e-003   8.8641422816e-004   2.1244735924e-005
  4.6491250000e+008  -3.0682269687e-004  -2.6517591066e-004   9.9024171182e-001  -7.8728742712e-003   1.0002783377e+000  -2.2186418857e-003   5.5131484360e-004  -8.1027360498e-006
  4.7350000000e+008  -5.5362861373e-004  -3.7716499974e-004   9.8923897049e-001  -8.4407802016e-003   1.0002540936e+000  -1.9793819272e-003   5.7178110365e-004  -1.3466797492e-004
  4.8208750000e+008  -2.2992268199e-004   1.9753845269e-004   9.8713281396e-001  -8.5582100149e-003   9.9999778705e-001  -1.8563898148e-003   7.2002553252e-004   1.3368437380e-004
  4.9067500000e+008  -9.0329412812e-005  -3.1842667257e-004   9.8721911852e-001  -8.9942356539e-003   1.0001538575e+000  -2.3979589234e-003   4.0392004890e-004  -1.6644006772e-004
  4.9926250000e+008  -1.6990000210e-004  -5.6961583896e-004   9.8720414456e-001  -8.5528502923e-003   9.9993803201e-001  -1.9779662899e-003   4.2886474157e-004  -2.0984430717e-004
  5.0785000000e+008  -5.7700337797e-004  -2.9000704646e-004   9.8784774953e-001  -8.5717623406e-003   1.0000095487e+000  -1.7833406274e-003   5.2260529500e-004   1.3230271587e-004
  5.1643750000e+008  -4.7571118181e-004  -8.8226994349e-005   9.8453914718e-001  -8.2795384021e-003   1.0004687353e+000  -1.8409002603e-003   7.1504448494e-004  -2.6447765063e-004
  5.2502500000e+008  -2.8220700508e-004   3.6268223075e-004   9.8720714323e-001  -7.6270562577e-003   1.0008742905e+000  -7.9861997160e-004   2.6076780241e-005  -5.8238296580e-004
  5.3361250000e+008   1.7379132341e-004   3.5176315922e-004   9.8847744003e-001  -8.4154872248e-003   1.0005994037e+000  -2.2471510958e-003  -1.7453717023e-004  -7.9588751799e-004
  5.4220000000e+008   7.3625355155e-004  -1.2780865741e-005   9.9067737910e-001  -8.3862780907e-003   1.0010488875e+000  -2.1578040526e-003  -1.0483923697e-003  -4.8579696027e-004
  5.5078750000e+008   5.7999657887e-004  -6.8525487173e-004   9.9055001999e-001  -8.2507599061e-003   1.0002882513e+000  -2.2277548832e-003  -1.2663064803e-003  -3.3859598758e-004
  5.5937500000e+008   4.4070293419e-004  -6.4469705012e-004   9.8742660527e-001  -8.6264792342e-003   1.0002119382e+000  -2.7438204045e-003  -1.2811672660e-003   2.9527313879e-004
  5.6796250000e+008   2.5915711964e-004  -9.3307201959e-004   9.9087314368e-001  -7.8191495104e-003   1.0001713634e+000  -2.3398256034e-003  -1.2506741981e-003   5.6348016846e-004
  5.7655000000e+008  -1.9683906012e-004  -1.1378912512e-003   9.9075700976e-001  -1.0382957710e-002   1.0005819812e+000  -2.6090097374e-003  -8.6800523373e-004   1.0019796091e-003
  5.8513750000e+008  -3.9055935593e-004  -7.9768137507e-004   9.8867968659e-001  -9.0153832159e-003   1.0001342494e+000  -3.3266558868e-003  -6.9049375210e-004   1.1484352671e-003
  5.9372500000e+008  -6.7246790492e-004  -6.4266521839e-004   9.8816794336e-001  -8.2467600036e-003   1.0000372995e+000  -2.5260347722e-003  -6.5236847310e-004   1.1094934399e-003
  6.0231250000e+008  -9.6111599204e-004  -5.1714238367e-004   9.8959520211e-001  -7.8340367666e-003   1.0007280466e+000  -2.8643585686e-003  -2.5850136802e-004   1.0818204114e-003
  6.1090000000e+008  -8.6128524471e-004  -4.0860581028e-004   9.8944336390e-001  -1.0029615348e-002   1.0000914260e+000  -1.9147344086e-003  -2.6678651638e-004   1.0373640802e-003
  6.1948750000e+008  -9.0494715647e-004  -7.8324237786e-005   9.8885002435e-001  -7.8976351631e-003   9.9992434885e-001  -2.3676116211e-003  -1.4878457527e-004   7.2684249438e-004
  6.2807500000e+008  -7.9471588605e-004  -3.9060116466e-005   9.8850138407e-001  -1.0291993812e-002   1.0004686449e+000  -2.7066766524e-003   3.3748411468e-004   4.0084434970e-004
  6.3666250000e+008  -4.6570864213e-004   4.9349502136e-004   9.8946715832e-001  -8.2504184347e-003   1.0002421942e+000  -2.5949506051e-003   3.2502871603e-004   3.3196114349e-004
  6.4525000000e+008  -1.4677256188e-004   4.7101076885e-004   9.9016423936e-001  -8.0249463545e-003   1.0000677374e+000  -2.4902755454e-003   4.6143181705e-004  -2.3795846747e-004
  6.5383750000e+008   2.3642599612e-004   2.8419124069e-004   9.8925646624e-001  -8.8456236087e-003   1.0002560804e+000  -2.1774946793e-003   5.4631110916e-004  -3.6328891196e-004
  6.6242500000e+008   4.3034809878e-004   8.6354233269e-005   9.8660303107e-001  -9.4700339530e-003   1.0005129158e+000  -3.2187435919e-003   2.2228089843e-004  -6.5160309521e-004
  6.7101250000e+008   4.7008934063e-004  -1.4583956511e-004   9.9016059484e-001  -7.3840732111e-003   9.9986219611e-001  -1.8485285080e-003   2.5210186622e-004  -9.8406970650e-004
  6.7960000000e+008   5.7095017320e-004  -4.7131810356e-004   9.8753196913e-001  -9.7926464308e-003   1.0002908941e+000  -2.8027493701e-003   1.1433227286e-004  -1.1780170604e-003
  6.8818750000e+008   2.9576812995e-004  -7.6575569509e-004   9.8799529405e-001  -9.8848600811e-003   9.9998602482e-001  -2.8162669639e-003  -1.9301863689e-004  -1.3603167611e-003
  6.9677500000e+008   1.7722054869e-004  -1.1053696076e-003   9.8845492257e-001  -8.4820904548e-003   1.0002013659e+000  -2.9605620659e-003  -3.4369111151e-004  -1.3834212579e-003
  7.0536250000e+008  -1.7847684279e-004  -1.0896488753e-003   9.8816485152e-001  -8.0924361838e-003   9.9998187469e-001  -2.8384559137e-003  -6.0696128151e-004  -1.4592664994e-003
  7.1395000000e+008  -5.7657621974e-004  -1.0678362062e-003   9.8895969731e-001  -8.7647735606e-003   1.0004890191e+000  -2.8616730492e-003  -8.8374507487e-004  -1.3435762227e-003
  7.2253750000e+008  -9.9357048523e-004  -8.8304387023e-004   9.8870201053e-001  -9.3469024140e-003   1.0001287118e+000  -2.6329107839e-003  -1.0814280520e-003  -1.3383782498e-003
  7.3112500000e+008  -1.0384044762e-003  -4.9938755858e-004   9.8644046960e-001  -9.3726239295e-003   1.0007396889e+000  -2.2905176220e-003  -1.3233282164e-003  -9.9497186179e-004
  7.3971250000e+008  -1.1040050556e-003  -1.8019280666e-004   9.8735643490e-001  -1.0606292499e-002   9.9917928749e-001  -2.9483633731e-003  -1.3849590588e-003  -6.2629050970e-004
  7.4830000000e+008  -9.8180833779e-004   4.7475582929e-004   9.8821582214e-001  -8.3204705204e-003   9.9931994586e-001  -1.8205387071e-003  -1.2768253808e-003  -4.2403277409e-004
  7.5688750000e+008  -6.6126276493e-004   7.0994146412e-004   9.8682689422e-001  -9.7095058518e-003   9.9966242729e-001  -3.4054080259e-003  -1.3392917144e-003  -6.3658291427e-005
  7.6547500000e+008  -2.2640132399e-004   9.6013978327e-004   9.8687612273e-001  -9.0868167069e-003   1.0000058419e+000  -2.8112057427e-003  -1.2958049832e-003   2.5827268649e-006
  7.7406250000e+008   1.3957264331e-004   8.6973012680e-004   9.8689016860e-001  -9.3590392632e-003   9.9945076426e-001  -2.7474945289e-003  -8.7975045258e-004   3.4277764855e-004
  7.8265000000e+008   4.3391745113e-004   5.8444269396e-004   9.8696395284e-001  -8.6095398126e-003   1.0000873827e+000  -2.4324863377e-003  -9.4768739010e-004   6.3391405222e-004
  7.9123750000e+008   7.4600458012e-004   4.4081740916e-004   9.8806925909e-001  -8.9258008963e-003   9.9988726756e-001  -2.4656211714e-003  -6.4706120890e-004   6.8982866724e-004
  7.9982500000e+008   6.9538401050e-004   1.4365152852e-004   9.8851411988e-001  -8.9260254173e-003   1.0007492778e+000  -2.0099095731e-003  -4.8202227011e-004   7.7756417984e-004
  8.0841250000e+008   8.9814686625e-004   2.5068559346e-005   9.8693400973e-001  -9.0181954511e-003   1.0000573040e+000  -2.0532866524e-003  -4.1425935061e-004   7.1828340541e-004
  8.1700000000e+008   1.0792989431e-003  -2.0018508429e-004   9.8902934830e-001  -8.2210992912e-003   1.0009712629e+000  -2.3606985210e-003  -4.7720731867e-004   6.4311186477e-004
  8.2558750000e+008   1.0407413703e-003  -6.5240913942e-004   9.8775768160e-001  -8.6345515727e-003   1.0009245384e+000  -3.6015723689e-003  -5.1633394984e-004   9.4202546998e-004
  8.3417500000e+008   9.3202937003e-004  -9.7830970464e-004   9.8681072122e-001  -9.0939025269e-003   1.0008208505e+000  -2.6904478860e-003  -2.9132425473e-004   1.2898218350e-003
  8.4276250000e+008   6.2798170363e-004  -1.2342079721e-003   9.8621902015e-001  -9.1520402586e-003   1.0001705522e+000  -4.0024313599e-003  -1.5598054671e-004   1.2072974474e-003
  8.5135000000e+008   1.2287320889e-004  -1.2628836307e-003   9.8889535388e-001  -8.3890842789e-003   1.0007466173e+000  -2.9224698806e-003   1.6351944104e-004   1.3711780055e-003
  8.5993750000e+008  -2.1195439407e-004  -1.3489218235e-003   9.8791705842e-001  -8.9190310589e-003   9.9976339240e-001  -2.4286407311e-003   2.2302588206e-004   1.1450473231e-003
  8.6852500000e+008  -5.1167391747e-004  -1.0332274856e-003   9.8683026314e-001  -9.5923975340e-003   9.9911194841e-001  -4.0127092252e-003   6.4766443411e-004   6.7704913981e-004
  8.7711250000e+008  -4.9255472400e-004  -6.5842030214e-004   9.8639842436e-001  -1.0930809658e-002   1.0004317933e+000  -3.0962902539e-003   6.2672020732e-004   3.2759566923e-004
  8.8570000000e+008  -4.8450614405e-004  -3.5985064393e-004   9.8646984718e-001  -9.6436700915e-003   9.9983942705e-001  -4.1916012164e-003   5.6045197721e-004  -7.4914379213e-005
  8.9428750000e+008  -3.1383424045e-004  -2.2715404295e-004   9.8572784333e-001  -1.1174649500e-002   1.0000983643e+000  -3.2829185803e-003   2.0386469038e-004  -3.0949314044e-004
  9.0287500000e+008   4.0161913592e-005  -1.7867184543e-004   9.8869353107e-001  -9.7069573678e-003   9.9923941890e-001  -3.9067476456e-003  -2.4614898575e-005  -3.8676898688e-004
  9.1146250000e+008   1.8323676082e-004  -1.4537966508e-004   9.8733047545e-001  -9.6842206886e-003   9.9806417136e-001  -3.8175065179e-003  -4.1267077165e-004  -5.3959079080e-004
  9.2005000000e+008   2.7174344225e-004  -3.7576713022e-004   9.8809196016e-001  -7.4698589355e-003   9.9884892002e-001  -3.1886397321e-003  -6.7511217772e-004  -6.3527549688e-004
  9.2863750000e+008   5.4296190794e-004  -4.4528619215e-004   9.8897690929e-001  -9.4564861994e-003   9.9855292712e-001  -3.7221594337e-003  -8.5429870333e-004  -5.7170726304e-004
  9.3722500000e+008   3.0504295141e-004  -7.5414244947e-004   9.8891166399e-001  -9.8361071076e-003   9.9910373620e-001  -3.2536843235e-003  -1.1245134799e-003  -6.6883090147e-004
  9.4581250000e+008   3.6726247076e-004  -1.1974921582e-003   9.8948327941e-001  -7.8952459350e-003   9.9959498963e-001  -4.0731724838e-003  -1.3761927159e-003  -5.2264176163e-004
  9.5440000000e+008   3.7121136286e-005  -1.2339978086e-003   9.8826256752e-001  -8.1026356812e-003   9.9973421945e-001  -2.7796381898e-003  -1.3930389291e-003  -2.9432553497e-004
  9.6298750000e+008  -2.6949289385e-004  -1.3828739155e-003   9.9021279193e-001  -7.5211269228e-003   9.9988052974e-001  -3.3341413101e-003  -1.4830315442e-003  -1.9728426610e-004
  9.7157500000e+008  -5.6427521111e-004  -1.3691974510e-003   9.8957727672e-001  -9.5658498181e-003   1.0005601584e+000  -3.1508662001e-003  -1.2818328754e-003  -1.1482245921e-004
  9.8016250000e+008  -8.7775906015e-004  -1.0761043017e-003   9.8960343437e-001  -8.3617178749e-003   9.9976789058e-001  -4.4361045517e-003  -1.3143225218e-003   2.4740389873e-004
  9.8875000000e+008  -1.1644286673e-003  -7.7331816880e-004   9.8896700353e-001  -7.6219848422e-003   9.9897044418e-001  -3.4862205166e-003  -1.2828916592e-003   2.5922048690e-004
  9.9733750000e+008  -1.0932413026e-003  -3.7625694228e-004   9.8837996636e-001  -9.4615390181e-003   9.9918786090e-001  -3.2297639529e-003  -1.0529325371e-003   1.0057294009e-004
  1.0059250000e+009  -9.4126513848e-004  -2.5841359409e-005   9.9061520923e-001  -8.9983089486e-003   1.0004152073e+000  -3.0054052893e-003  -7.4102082532e-004   2.9141037631e-004
  1.0145125000e+009  -9.4801784757e-004   4.2443109586e-004   9.9020244925e-001  -1.0372940437e-002   9.9993360251e-001  -3.3818768953e-003  -3.0680559731e-004   2.6275607929e-004
  1.0231000000e+009  -5.9461389196e-004   5.4617079028e-004   9.9040775007e-001  -7.4434839399e-003   9.9964880120e-001  -3.4863284157e-003  -2.4671364884e-004   1.9913687563e-004
  1.0316875000e+009  -3.0302601421e-004   7.0651331830e-004   9.8980629427e-001  -1.0153210313e-002   1.0000524759e+000  -3.8335461212e-003  -1.0770109770e-005   2.8007832583e-005
  1.0402750000e+009   1.6802043382e-004   7.5809826386e-004   9.8942356842e-001  -9.0011042700e-003   9.9928220793e-001  -2.6015540450e-003   1.8610476085e-004  -2.1311615443e-004
  1.0488625000e+009   4.7835314731e-004   6.4106513444e-004   9.8906099800e-001  -8.3656529962e-003   9.9922453659e-001  -4.0439698993e-003   4.7087623424e-004  -3.2415918544e-004
  1.0574500000e+009   6.9039400652e-004   2.7668893842e-004   9.8910269039e-001  -8.9952317830e-003   9.9906998847e-001  -3.9624112549e-003   5.4586406915e-004  -7.8976734305e-004
