# Hz S RI R 50.000000
! Metas.Vna.Tools, 2.8.8664.20301
! Metas.Vna.Data, 2.8.8664.20285
! Created: UTC 2024.02.11 10:08:29
! FREQ                re:S1,1             im:S1,1             re:S2,1             im:S2,1             re:S1,2             im:S1,2             re:S2,2             im:S2,2          
  1.3000000000e+008  -6.7492977568e-005  -9.3996977517e-004   9.9674066514e-001  -6.1544792047e-003   1.0010001372e+000  -5.2808900174e-004   8.4648631722e-004   6.4097148539e-004
  1.3858750000e+008  -4.3977834066e-004  -1.2605557787e-003   9.9617524522e-001  -5.5459563890e-003   1.0003202112e+000  -4.7115331814e-004   1.2134468802e-003  -2.6504791562e-004
  1.4717500000e+008  -1.6435350642e-003  -1.4736909352e-003   9.9559515504e-001  -6.8513060759e-003   1.0004077479e+000  -6.3479914747e-005   9.2570519220e-004  -2.0617577210e-004
  1.5576250000e+008  -1.6302007094e-003  -8.1939152875e-005   9.9732569934e-001  -5.5417915035e-003   1.0002021957e+000  -1.8777683170e-004   1.6000598578e-003  -8.5240738613e-004
  1.6435000000e+008  -8.5181789017e-004   3.8233802663e-004   9.9695539960e-001  -5.5119187442e-003   1.0006053491e+000  -5.6725485542e-004   5.5977657458e-004  -3.5954164525e-004
  1.7293750000e+008  -9.7762231010e-004   6.2954744877e-004   9.9572545747e-001  -5.4803727819e-003   1.0011782091e+000   9.2687071179e-005   8.0842327327e-004  -1.0431338122e-003
  1.8152500000e+008  -3.7168582661e-004   8.3836173013e-004   9.9582772315e-001  -5.6815829401e-003   1.0003306126e+000  -4.6240777761e-004   3.3802147172e-004  -7.3973946192e-004
  1.9011250000e+008  -4.7979182138e-004   5.9494344938e-004   9.9433926391e-001  -8.4885870114e-003   1.0003230095e+000  -1.1534007841e-003   2.6057019656e-004  -1.0859801436e-003
  1.9870000000e+008  -2.7319067433e-004   6.5683088788e-004   9.9199853942e-001  -7.1566810016e-003   1.0005264224e+000  -9.4464190102e-004   3.4300617213e-004  -5.4340197112e-004
  2.0728750000e+008   2.6805258017e-004   1.3533510833e-004   9.9293345426e-001  -5.6220455562e-003   1.0006975479e+000  -8.3884431325e-004   5.8370556636e-004   9.0559691668e-005
  2.1587500000e+008   1.5512073786e-004  -3.0714450035e-004   9.9519965608e-001  -6.6395717190e-003   1.0001350928e+000  -8.2375551981e-004  -3.7734259791e-004   2.4912685427e-004
  2.2446250000e+008   2.1485197279e-004  -3.6917030997e-004   9.9621968967e-001  -6.4059293843e-003   1.0000545731e+000  -5.3504809480e-004  -3.7859961903e-004   2.1408477509e-004
  2.3305000000e+008   2.8742640438e-004  -2.6412243419e-004   9.9568228818e-001  -6.1313449475e-003   1.0005712671e+000  -7.8459010068e-004  -3.6644135151e-004   1.0945646749e-004
  2.4163750000e+008  -2.5565994462e-004  -4.3990754104e-004   9.9200902768e-001  -7.8668251560e-003   1.0003832987e+000  -1.4766951979e-003  -6.7273910774e-004   1.0323961287e-004
  2.5022500000e+008  -5.8674859253e-004  -6.1138952595e-004   9.9212107067e-001  -6.8730008858e-003   1.0006172318e+000  -1.0557138465e-003  -8.5308098299e-004   3.2073432036e-004
  2.5881250000e+008  -8.3077780306e-004  -4.9336723364e-004   9.9186885857e-001  -6.6923090444e-003   1.0006098561e+000  -1.0109613365e-003  -2.6233143868e-004   4.4654390304e-004
  2.6740000000e+008  -1.0018964283e-003  -4.3795905189e-004   9.9121571018e-001  -8.5043635225e-003   1.0004544022e+000  -1.1045902743e-003  -5.3574189123e-004   2.5383006497e-004
  2.7598750000e+008  -4.7822313747e-005  -2.5322553712e-005   9.9331429036e-001  -7.7204322143e-003   1.0006089117e+000  -6.6535650368e-004  -2.5468311560e-004   5.8082651349e-004
  2.8457500000e+008  -7.3397512972e-004  -6.3342977042e-004   9.9462205190e-001  -6.0991741204e-003   1.0006667977e+000  -5.5565458256e-004  -9.4059937948e-005   4.3814044595e-004
  2.9316250000e+008  -2.0607479654e-004  -4.3589398129e-004   9.9539915977e-001  -6.8340950303e-003   1.0002748996e+000  -1.0751163742e-003  -9.4806220849e-005   3.5489663013e-004
  3.0175000000e+008  -9.7842343652e-004   4.1880357781e-004   9.9640318497e-001  -8.5919054318e-003   1.0004312757e+000  -5.7335863282e-004  -6.0541226863e-004   1.4082719297e-004
  3.1033750000e+008  -1.0022432727e-003   1.3158052535e-004   9.9563560146e-001  -5.6197276059e-003   1.0010561414e+000  -1.3472414188e-003  -7.0112488371e-004   4.8415741894e-004
  3.1892500000e+008  -1.0080795488e-003   7.4017419161e-005   9.9475327442e-001  -6.7713085060e-003   9.9987039603e-001  -2.8403050998e-004  -9.1660965144e-004   2.3595670809e-005
  3.2751250000e+008  -6.1075232529e-004  -2.3008746571e-005   9.9506566150e-001  -8.6429215823e-003   1.0002579669e+000  -2.1147918761e-003  -7.0552505012e-004   1.3221436640e-004
  3.3610000000e+008  -9.0759833488e-004  -1.3327986747e-005   9.9582989907e-001  -6.7707398835e-003   1.0012567987e+000  -1.6746618464e-003  -6.2896478666e-004   7.8400554138e-005
  3.4468750000e+008  -3.3398098304e-004   1.7378161873e-004   9.9548470565e-001  -5.7639656294e-003   1.0008999521e+000  -9.8518521902e-004  -4.3244719549e-004  -8.3419309362e-005
  3.5327500000e+008  -4.5257528178e-004   1.6788945297e-004   9.9562591464e-001  -6.9349095549e-003   9.9974732586e-001  -1.9425096842e-003  -7.6690562199e-004   9.9405196341e-005
  3.6186250000e+008  -3.6807919762e-004   5.1529249298e-004   9.9558177801e-001  -7.3257251916e-003   1.0008301408e+000  -8.1958253584e-004  -5.2429056486e-004   4.0284856511e-004
  3.7045000000e+008  -7.3049157055e-004   7.9724657109e-004   9.9512359139e-001  -6.4606732980e-003   1.0012745626e+000  -1.8221914683e-003  -8.3933345850e-004   3.0157147891e-004
  3.7903750000e+008  -3.6240042088e-004   5.2394233995e-004   9.9485219610e-001  -5.4494206508e-003   1.0004904376e+000  -1.3319894159e-003  -7.4073780822e-004   3.3125259663e-004
  3.8762500000e+008  -3.0122391136e-004   5.5717541972e-004   9.9871177059e-001  -6.0660119413e-003   9.9997129842e-001  -1.4924175882e-003  -6.5519879617e-004   6.2315237358e-004
  3.9621250000e+008  -1.5865571488e-004   1.6665770467e-004   9.9621823363e-001  -6.4904795854e-003   1.0006722917e+000  -1.5341253988e-003  -4.9838217183e-004   4.1644871748e-004
  4.0480000000e+008   4.6854374235e-005   2.3228542913e-004   9.9680756664e-001  -8.0081928430e-003   1.0004891671e+000  -1.4349072847e-003  -9.0726108721e-006   4.1736266788e-004
  4.1338750000e+008   9.6130734569e-005   1.4688312667e-004   9.9634897787e-001  -6.4562900072e-003   1.0005908914e+000  -1.4989782231e-003   1.0663632500e-004   3.1491230348e-004
  4.2197500000e+008  -1.9845886218e-004  -1.7112666046e-004   9.9628038916e-001  -6.5671869437e-003   1.0005492921e+000  -1.7655741390e-003   2.0245704640e-004   7.9988477637e-004
  4.3056250000e+008   1.0007747316e-004  -3.3036163922e-005   9.9682827942e-001  -5.8512802992e-003   1.0004677882e+000  -1.7702950548e-003   5.9722409772e-004   4.5268444818e-004
  4.3915000000e+008   6.4509773251e-005  -3.7600545973e-004   9.9756870444e-001  -5.0994380515e-003   1.0002179800e+000  -1.9127731194e-003   4.7007948493e-004   3.2305469758e-004
  4.4773750000e+008  -8.8049906079e-005  -3.8509305105e-004   9.9698457549e-001  -6.9424325144e-003   1.0003206224e+000  -2.0296637179e-003   5.9608026206e-004   9.5595090227e-005
  4.5632500000e+008  -1.0837621328e-004  -2.7772723579e-004   9.9523706639e-001  -6.5458961391e-003   1.0003294693e+000  -1.9025620689e-003   6.9552816331e-004   2.4033296923e-004
  4.6491250000e+008  -3.8904894289e-004  -2.1439937330e-004   9.9568905255e-001  -7.2715322453e-003   1.0000414002e+000  -2.0639355103e-003   6.8325132077e-004   5.0561665472e-005
  4.7350000000e+008  -4.3714523844e-004  -3.6820331448e-004   9.9529844246e-001  -6.8018114464e-003   1.0004402697e+000  -1.6686379183e-003   7.7724281436e-004   2.1428118011e-005
  4.8208750000e+008  -2.5180438254e-004   3.8220271168e-005   9.9422013456e-001  -8.1651550234e-003   1.0000063756e+000  -1.6800799015e-003   7.1253847214e-004  -1.3100405188e-005
  4.9067500000e+008   6.4597199498e-005  -4.5396960820e-004   9.9317777398e-001  -6.9461181299e-003   1.0001449773e+000  -2.1715035707e-003   2.9916921301e-004  -5.1864334397e-005
  4.9926250000e+008  -1.8712168444e-004  -3.7785113504e-004   9.9322524826e-001  -6.8782608518e-003   1.0001324878e+000  -2.0172365783e-003   5.7649383345e-004   6.5814738991e-005
  5.0785000000e+008  -4.9258417728e-004  -2.2511847226e-004   9.9215925369e-001  -7.7914668298e-003   9.9977723481e-001  -1.2487216195e-003   5.2245846241e-004   3.4097677189e-004
  5.1643750000e+008  -4.0280949443e-004   1.8496377106e-004   9.9340108217e-001  -6.0510841466e-003   1.0001843095e+000  -1.5197595845e-003   8.8485697329e-004  -3.6383806024e-006
  5.2502500000e+008  -3.7434216404e-004   4.7879314810e-004   9.9411540275e-001  -5.6864623542e-003   1.0004006191e+000  -8.8219702161e-004   1.4859959114e-004  -3.1828724090e-004
  5.3361250000e+008   3.6213865190e-004   3.3877478003e-004   9.9503273278e-001  -7.7491002085e-003   1.0010854885e+000  -1.8541378964e-003   7.9386693294e-005  -6.1329690582e-004
  5.4220000000e+008   7.8689717454e-004   1.7639253670e-004   9.9452622281e-001  -7.9641273836e-003   1.0007384576e+000  -2.1268247669e-003  -7.3039439121e-004  -3.3901586101e-004
  5.5078750000e+008   6.6225243605e-004  -7.1262173676e-004   9.9435031249e-001  -8.2657900984e-003   1.0004890454e+000  -2.3154584121e-003  -8.5173652974e-004  -3.4123033588e-004
  5.5937500000e+008   4.1752677413e-004  -5.4028776534e-004   9.9364342618e-001  -6.6357412171e-003   1.0004104822e+000  -2.1828837363e-003  -9.9088771131e-004   4.5104202687e-005
  5.6796250000e+008   3.7320711448e-004  -8.6225007229e-004   9.9331133133e-001  -8.4548633267e-003   1.0003757263e+000  -1.7459384787e-003  -1.0247685730e-003   4.4632382802e-004
  5.7655000000e+008  -1.2102303365e-004  -9.6758042744e-004   9.9371613254e-001  -9.2114554611e-003   1.0005789386e+000  -2.6095875917e-003  -8.4726151578e-004   9.5795245559e-004
  5.8513750000e+008  -5.1138315425e-004  -8.8353968746e-004   9.9411972831e-001  -1.0051924181e-002   9.9972637157e-001  -2.0027861515e-003  -7.6946390970e-004   9.6149587921e-004
  5.9372500000e+008  -6.7307639403e-004  -9.1915053189e-004   9.9417862068e-001  -6.7309110576e-003   9.9996682406e-001  -2.2194489080e-003  -5.6202901259e-004   1.0736261873e-003
  6.0231250000e+008  -1.0719402415e-003  -4.2714612878e-004   9.9371447302e-001  -6.4602854017e-003   1.0002348676e+000  -2.1048211049e-003  -4.7663151015e-004   1.0305053188e-003
  6.1090000000e+008  -9.4466473679e-004  -4.1489185473e-004   9.9453976906e-001  -8.6469347301e-003   9.9980068843e-001  -2.2680537172e-003  -3.6555188523e-004   9.7658286042e-004
  6.1948750000e+008  -9.0310098399e-004  -4.7525204051e-005   9.9336096224e-001  -6.7338739571e-003   9.9983472795e-001  -2.4641137827e-003  -2.7263943513e-004   6.8850581865e-004
  6.2807500000e+008  -7.8935363108e-004  -5.1634612940e-005   9.9435217655e-001  -9.1811564067e-003   1.0000051660e+000  -1.9070512508e-003   2.8831375631e-005   5.9903293127e-004
  6.3666250000e+008  -5.5686830925e-004   6.2781718906e-004   9.9546538400e-001  -6.8527789091e-003   1.0006352113e+000  -2.5533178245e-003   2.8164256301e-004   3.8518536944e-004
  6.4525000000e+008  -7.0495007099e-005   5.6402079322e-004   9.9419878051e-001  -6.9173779592e-003   1.0008346892e+000  -2.2986352083e-003   3.6096398269e-004  -3.4349429685e-005
  6.5383750000e+008   1.5833093920e-004   4.2323173037e-004   9.9539782737e-001  -7.7135923696e-003   9.9966354680e-001  -1.7168276995e-003   3.5044382292e-004  -9.5599019912e-005
  6.6242500000e+008   4.7868295452e-004   1.3292431546e-004   9.9106186926e-001  -7.7144011976e-003   1.0007999807e+000  -2.6503809318e-003   3.3519351060e-004  -4.2449936307e-004
  6.7101250000e+008   3.8767838102e-004  -1.4667857638e-004   9.9259308412e-001  -6.6646174620e-003   1.0003942273e+000  -1.4300131371e-003   1.7362097062e-004  -6.6353831325e-004
  6.7960000000e+008   5.8165185333e-004  -4.9507204024e-004   9.9380695489e-001  -7.4671245312e-003   1.0004088860e+000  -1.7742941380e-003   2.4591164801e-004  -1.0477913519e-003
  6.8818750000e+008   3.0814528286e-004  -7.8781408655e-004   9.9290539146e-001  -7.4587108311e-003   9.9988104784e-001  -2.9534753405e-003   6.7866474112e-005  -1.1769635280e-003
  6.9677500000e+008   2.4554848332e-004  -9.5310075387e-004   9.9265033270e-001  -7.8789398267e-003   9.9989175508e-001  -2.4407028605e-003  -2.4846882742e-004  -1.2007037319e-003
  7.0536250000e+008  -1.8834802655e-004  -1.0725910061e-003   9.9420044315e-001  -7.8107878312e-003   9.9994637784e-001  -2.7439041400e-003  -2.4798398797e-004  -1.3383060412e-003
  7.1395000000e+008  -5.7922839093e-004  -1.0607359922e-003   9.9386254133e-001  -7.6796461715e-003   1.0002386565e+000  -2.4422449736e-003  -5.4209076713e-004  -1.3518397366e-003
  7.2253750000e+008  -1.1173290202e-003  -7.4566878690e-004   9.9209920165e-001  -8.1580713832e-003   1.0000892794e+000  -2.9717082869e-003  -7.8845093913e-004  -1.3125503936e-003
  7.3112500000e+008  -1.0311208013e-003  -4.2794753886e-004   9.9327165193e-001  -8.3225069369e-003   9.9989144456e-001  -2.0535223002e-003  -1.0281170364e-003  -1.1147642423e-003
  7.3971250000e+008  -1.0471830179e-003  -3.0795835689e-005   9.9445106363e-001  -8.9110618819e-003   9.9917250943e-001  -3.3313143666e-003  -1.1624961196e-003  -9.6984256123e-004
  7.4830000000e+008  -9.0329891852e-004   4.3862245018e-004   9.9327996972e-001  -7.2336492784e-003   9.9956505148e-001  -2.4500744836e-003  -1.1358984242e-003  -6.2715679561e-004
  7.5688750000e+008  -8.3366019440e-004   6.3693293870e-004   9.9207564126e-001  -9.1367480184e-003   9.9966136942e-001  -2.3767522568e-003  -1.1677911182e-003  -1.9297533628e-004
  7.6547500000e+008  -2.9591185746e-004   6.5271190495e-004   9.9227604914e-001  -8.7312472522e-003   9.9982088451e-001  -3.1803773739e-003  -1.2095859531e-003  -1.1272730425e-004
  7.7406250000e+008   2.2133419397e-005   8.7747680647e-004   9.9168373939e-001  -9.0753401111e-003   1.0001337086e+000  -2.0399021459e-003  -9.3904903251e-004   3.3869443868e-004
  7.8265000000e+008   3.6509454830e-004   6.7047710336e-004   9.9310968937e-001  -8.1169713345e-003   9.9921995483e-001  -2.2843818652e-003  -7.3773693188e-004   6.5161923597e-004
  7.9123750000e+008   5.9999566509e-004   4.1255200296e-004   9.9280076376e-001  -7.1194527951e-003   9.9941481065e-001  -1.6173052328e-003  -6.3340241477e-004   7.5008878193e-004
  7.9982500000e+008   6.5174153445e-004   3.6432198206e-004   9.9387907851e-001  -8.1345671178e-003   1.0001443933e+000  -1.5448684290e-003  -4.4043221898e-004   8.5328351277e-004
  8.0841250000e+008   8.7311555088e-004   2.1846132602e-004   9.9231669372e-001  -8.7476681748e-003   9.9930349081e-001  -1.7562453341e-003  -2.0209873019e-004   1.0728584183e-003
  8.1700000000e+008   1.1401308380e-003  -1.9828629840e-004   9.9440658425e-001  -6.7540630666e-003   9.9991037211e-001  -1.7590846554e-003  -4.0048647096e-004   1.0222566640e-003
  8.2558750000e+008   1.0820821467e-003  -4.7050927441e-004   9.9494193342e-001  -7.0829765461e-003   9.9994139430e-001  -2.9979981026e-003  -4.0541250505e-004   1.1392846230e-003
  8.3417500000e+008   1.0954833747e-003  -1.0459470057e-003   9.9324745518e-001  -8.1709712780e-003   1.0012561237e+000  -2.9358184998e-003  -1.9326609591e-004   1.1995799445e-003
  8.4276250000e+008   6.4780714852e-004  -1.2573449645e-003   9.9290670335e-001  -8.0614692746e-003   1.0002096284e+000  -3.1757762773e-003  -1.4002206370e-005   1.3154542404e-003
  8.5135000000e+008   2.1008389945e-004  -1.2955613644e-003   9.9287497134e-001  -7.7864712465e-003   1.0012062343e+000  -3.0863752032e-003   2.9479569801e-004   1.3684862882e-003
  8.5993750000e+008  -1.3019729198e-004  -1.2586743204e-003   9.9330131292e-001  -8.7323964346e-003   9.9906498194e-001  -3.9717251273e-003   3.8175006617e-004   1.0792811039e-003
  8.6852500000e+008  -5.3059728594e-004  -9.6516345186e-004   9.9142288838e-001  -8.4260581636e-003   9.9916938679e-001  -2.8527750162e-003   6.4795729983e-004   8.1642252444e-004
  8.7711250000e+008  -5.1655740463e-004  -7.0645285329e-004   9.9294993461e-001  -7.6895808927e-003   1.0002027417e+000  -3.5387070038e-003   5.7967082379e-004   4.0697321119e-004
  8.8570000000e+008  -4.7521328010e-004  -4.6879291491e-004   9.9368669048e-001  -7.7693981965e-003   9.9996787668e-001  -3.9457235398e-003   5.3953963512e-004   1.0784775045e-004
  8.9428750000e+008  -3.2414496765e-004  -2.3509841469e-004   9.9224284452e-001  -9.2744343058e-003   9.9948795821e-001  -3.8688559736e-003   1.2226387585e-004  -2.0870338783e-004
  9.0287500000e+008  -9.0148974803e-005  -1.9703841874e-004   9.9441451693e-001  -9.4293175964e-003   9.9988643257e-001  -4.3955706218e-003   2.4771046365e-005  -6.1691401407e-004
  9.1146250000e+008   2.3118839240e-004  -2.7985803774e-004   9.9439140732e-001  -7.8334678848e-003   9.9899453162e-001  -3.7413737606e-003  -3.4564426195e-004  -5.1010383848e-004
  9.2005000000e+008   2.6572289708e-004  -3.1390801544e-004   9.9301888177e-001  -6.6134696358e-003   9.9890579223e-001  -2.7107661406e-003  -6.0994716547e-004  -4.4754858115e-004
  9.2863750000e+008   5.0921071386e-004  -4.9004972863e-004   9.9288356487e-001  -8.2553862365e-003   9.9917850790e-001  -3.3380848765e-003  -8.7306136421e-004  -5.8622421421e-004
  9.3722500000e+008   3.3207228185e-004  -7.9905400902e-004   9.9457688984e-001  -7.4733621316e-003   9.9854681286e-001  -3.0085622273e-003  -1.1799049337e-003  -7.5435435671e-004
  9.4581250000e+008   3.7184496457e-004  -1.0195373740e-003   9.9347853529e-001  -7.0616734967e-003   9.9919918836e-001  -3.1038942465e-003  -1.4991335100e-003  -4.6671997719e-004
  9.5440000000e+008  -5.9727327164e-005  -1.3020796165e-003   9.9269958353e-001  -7.5922114409e-003   1.0002460109e+000  -1.9765428793e-003  -1.4562915205e-003  -3.0631902700e-004
  9.6298750000e+008  -2.4255189609e-004  -1.2809156348e-003   9.9608325986e-001  -6.7064754112e-003   9.9940250110e-001  -3.1334982177e-003  -1.6301983060e-003  -2.2420931683e-004
  9.7157500000e+008  -4.9558169050e-004  -1.2880404465e-003   9.9346698645e-001  -8.3020702484e-003   1.0006852291e+000  -3.4604133442e-003  -1.3907658641e-003  -1.3386034570e-004
  9.8016250000e+008  -9.0480696892e-004  -1.0685411368e-003   9.9466588584e-001  -8.5985397365e-003   9.9899932084e-001  -3.6431266598e-003  -1.4510016569e-003   1.8355942567e-004
  9.8875000000e+008  -1.0688529414e-003  -7.2960808552e-004   9.9400192758e-001  -6.9983756814e-003   9.9915731470e-001  -3.2946686937e-003  -1.3986233991e-003   2.8694724638e-004
  9.9733750000e+008  -1.0516422257e-003  -4.4459968667e-004   9.9310497650e-001  -7.7718180680e-003   9.9880939891e-001  -2.9412402116e-003  -1.1797958537e-003   1.6654174139e-004
  1.0059250000e+009  -9.9713443307e-004  -5.8622907944e-005   9.9449994489e-001  -7.9419101388e-003   1.0002840933e+000  -3.2969070844e-003  -8.7987175818e-004   2.8623966882e-004
  1.0145125000e+009  -1.0102593542e-003   3.2947863859e-004   9.9408917700e-001  -1.1423954179e-002   9.9932359920e-001  -2.7566702301e-003  -4.7829411028e-004   4.1089661426e-004
  1.0231000000e+009  -7.2974071859e-004   4.4770458032e-004   9.9232789183e-001  -7.1705195983e-003   9.9977149638e-001  -3.9539030507e-003  -2.9230253231e-004   2.9099350194e-004
  1.0316875000e+009  -3.0451174680e-004   6.6689720330e-004   9.9378849487e-001  -9.7870709845e-003   9.9912814534e-001  -4.0619718815e-003   7.3097046338e-005   1.5041721863e-004
  1.0402750000e+009   6.3632427302e-005   7.0063668511e-004   9.9196528560e-001  -8.8280617851e-003   9.9963316081e-001  -3.1625251345e-003   4.3058378035e-004  -1.1991852444e-004
  1.0488625000e+009   3.8810938487e-004   4.6646712849e-004   9.9419126853e-001  -7.7179073959e-003   9.9828432464e-001  -2.7210141959e-003   6.2172524340e-004  -3.2335404432e-004
  1.0574500000e+009   7.0560278415e-004   1.9648447357e-004   9.9357725413e-001  -7.9357688968e-003   9.9915698246e-001  -3.3266795804e-003   7.7272734999e-004  -5.6281161739e-004
