# Hz S RI R 50.000000
! Metas.Vna.Tools, 2.8.8664.20301
! Metas.Vna.Data, 2.8.8664.20285
! Created: UTC 2024.02.11 10:08:27
! FREQ                re:S1,1             im:S1,1             re:S2,1             im:S2,1             re:S1,2             im:S1,2             re:S2,2             im:S2,2          
  1.3000000000e+008  -2.5147906908e-005  -1.5731180528e-003   9.9686735711e-001  -5.3991240149e-003   1.0004476489e+000  -2.2292372478e-004   8.1555719286e-004   1.0523295143e-003
  1.3858750000e+008  -3.4497927121e-004  -1.0612100775e-003   9.9402246386e-001  -4.9398840421e-003   1.0001562140e+000   3.0225069912e-004   1.6606033606e-003   1.5568277783e-004
  1.4717500000e+008  -1.2712387795e-003  -8.8041902823e-004   9.9458074084e-001  -6.9366579620e-003   1.0007966897e+000   1.7598701955e-004   1.1163669402e-003  -4.4401076845e-004
  1.5576250000e+008  -1.1960654608e-003   2.5584520860e-004   9.9370095724e-001  -6.4525041885e-003   1.0002770111e+000   1.2799637222e-004   1.3528294617e-003  -8.1957407686e-004
  1.6435000000e+008  -6.5815053315e-004   4.5514694858e-004   9.9359373258e-001  -6.2379090952e-003   1.0007504560e+000  -5.4646812169e-004   8.1701556081e-004  -3.0690011546e-004
  1.7293750000e+008  -1.1286913215e-003   4.8912661615e-004   9.9320023152e-001  -5.6754146611e-003   1.0002098281e+000   1.6232220115e-004   7.7277461483e-004  -8.8018243860e-004
  1.8152500000e+008  -2.7114141279e-004   5.1122180361e-004   9.9196195730e-001  -6.0185520054e-003   1.0002907051e+000  -1.2484846564e-003   7.3378003762e-004  -4.8523683245e-004
  1.9011250000e+008  -6.2054685972e-004   6.7492442015e-004   9.9481283851e-001  -7.4546625053e-003   1.0011517794e+000  -4.4089528244e-004   4.7694635238e-004  -1.0017019168e-003
  1.9870000000e+008   2.7627399771e-005   9.3052564105e-004   9.9394889802e-001  -5.5845885437e-003   1.0006026803e+000  -9.7749316330e-004   7.5178334303e-005  -4.1575898387e-004
  2.0728750000e+008   2.5774068333e-004   1.7341641927e-004   9.9678686713e-001  -4.4270727107e-003   1.0011725503e+000  -8.2146120117e-004   1.9692226931e-004  -4.1844880413e-004
  2.1587500000e+008  -1.8204223653e-004   2.6241323711e-004   9.9830222515e-001  -5.6860609417e-003   9.9970132964e-001  -7.4509371188e-004  -4.4712847003e-004  -7.3380374402e-005
  2.2446250000e+008   2.9853327880e-004  -2.6958827564e-004   9.9720931452e-001  -5.2107611698e-003   1.0002502094e+000  -3.4435516002e-004  -6.5981986480e-004   9.0541251960e-005
  2.3305000000e+008   3.4711832213e-005  -1.5931294186e-004   9.9704041733e-001  -6.4261265854e-003   1.0005720653e+000  -7.1108606845e-004  -4.7312087287e-004   1.6983643660e-004
  2.4163750000e+008  -1.1434964855e-004  -2.8470504041e-004   9.9837491422e-001  -6.9890593482e-003   1.0001638099e+000  -9.9736215926e-004  -7.4626384627e-004   3.2562745357e-004
  2.5022500000e+008  -4.2083200762e-004  -9.2449446961e-004   9.9725816479e-001  -5.2081952749e-003   9.9998644999e-001  -6.6472337240e-004  -1.1987774541e-003   7.6499605884e-004
  2.5881250000e+008  -6.6126084380e-004  -5.6614442499e-004   9.9742220093e-001  -4.0204993763e-003   1.0004469579e+000  -1.9001644269e-003  -9.5468983675e-004   6.9642077641e-004
  2.6740000000e+008  -7.9586311812e-004  -7.1976546502e-004   9.9799560665e-001  -6.2178292505e-003   1.0010405969e+000  -1.6803343642e-003  -8.9308912236e-004   2.4300717940e-004
  2.7598750000e+008  -4.5642988480e-004  -6.7023029341e-005   9.9209505074e-001  -8.2615775310e-003   1.0007300809e+000  -1.2383490321e-003  -6.3955914324e-004   9.1491876748e-004
  2.8457500000e+008  -6.1983312180e-004  -2.7610700186e-004   9.9136551560e-001  -7.8649708792e-003   1.0010964741e+000  -1.0521336641e-003  -5.2990494172e-004   7.3636375858e-004
  2.9316250000e+008  -7.2131643249e-004  -3.4700996058e-004   9.9426626139e-001  -7.1399877507e-003   1.0004210965e+000  -1.6656301753e-003  -1.8308897603e-004   5.0196140288e-004
  3.0175000000e+008  -1.1433474739e-003   2.2175933804e-004   9.9329293055e-001  -8.2632751991e-003   1.0002781317e+000  -7.1649794031e-005  -6.4606673643e-004   5.1187825193e-004
  3.1033750000e+008  -7.5065817733e-004   1.4297987312e-004   9.9864734022e-001  -5.1862368070e-003   1.0017040339e+000  -1.2217507044e-003  -5.4516888423e-004   9.6126783491e-004
  3.1892500000e+008  -8.0719546457e-004   1.0369733846e-004   9.9817685860e-001  -7.0384075974e-003   1.0003130975e+000  -1.1017869786e-003  -7.4324407141e-004   6.4690812062e-004
  3.2751250000e+008  -8.6562866409e-004  -7.9800325889e-005   9.9900016830e-001  -6.7844181887e-003   1.0003679558e+000  -1.9297244391e-003  -5.2598951103e-004   2.5122570068e-004
  3.3610000000e+008  -6.7374315687e-004   6.7260544322e-005   9.9862271228e-001  -5.6154284479e-003   1.0013485160e+000  -1.4791152568e-003  -5.9880207049e-004   4.5059396401e-004
  3.4468750000e+008  -4.9918816651e-004   1.9198408862e-004   9.9731097083e-001  -5.3389898919e-003   1.0008481277e+000  -1.0837829792e-003  -5.6984384267e-004   3.4982692658e-004
  3.5327500000e+008  -6.9011039011e-004   1.8534687404e-004   9.9763165492e-001  -6.5336052384e-003   9.9927432734e-001  -1.9815323321e-003  -5.3936299467e-004   4.3888044002e-004
  3.6186250000e+008  -2.8734955109e-004   3.5652833097e-004   9.9883168430e-001  -6.4816351347e-003   1.0005563219e+000  -7.9488231200e-004  -5.2883750437e-004   3.0944068137e-004
  3.7045000000e+008  -7.2444724404e-004   4.1682695028e-004   9.9768436192e-001  -6.5493114258e-003   1.0007051971e+000  -1.4974277646e-003  -3.7743930992e-004   1.9474386980e-004
  3.7903750000e+008  -2.2947767865e-004   5.4211558422e-004   9.9807966527e-001  -5.4250837661e-003   1.0006299511e+000  -1.7260959651e-003  -4.1935062342e-004   2.7322180538e-004
  3.8762500000e+008  -1.7153219928e-004   5.5873039963e-004   1.0004193785e+000  -4.8421187417e-003   1.0004169792e+000  -1.2357121375e-003  -2.9266611867e-004   2.3432919854e-004
  3.9621250000e+008  -2.2317953968e-004   2.5838120137e-004   9.9948058066e-001  -5.7292424368e-003   1.0007140829e+000  -1.4773012419e-003  -6.6393801723e-004   4.3305930320e-004
  4.0480000000e+008   1.9482841277e-004   1.9340017114e-004   9.9952322929e-001  -5.8656806640e-003   1.0009759605e+000  -1.4938979392e-003  -1.4949078626e-004   1.1775672827e-004
  4.1338750000e+008   3.4149400475e-004   9.7201620718e-005   9.9818903936e-001  -4.7547072605e-003   1.0009237885e+000  -1.2531494297e-003   1.4431483958e-004   6.3239203191e-004
  4.2197500000e+008   2.2754560258e-005  -1.2249546065e-004   9.9927962154e-001  -6.1785668086e-003   1.0006459707e+000  -1.5263863500e-003   2.6973663031e-004   5.4478331152e-004
  4.3056250000e+008   1.0168929608e-004   1.2169935375e-004   9.9865032469e-001  -5.9607090478e-003   1.0006155479e+000  -1.6884850442e-003   5.8287500982e-004   5.2281732972e-004
  4.3915000000e+008   1.1688192366e-004  -1.4917473018e-004   1.0006555579e+000  -4.7553224346e-003   1.0003138004e+000  -1.7458546664e-003   5.4689817893e-004   2.8338458448e-004
  4.4773750000e+008   2.7148109804e-004  -1.9192623016e-004   1.0008130633e+000  -5.1065773468e-003   1.0004207394e+000  -2.1463651995e-003   6.7435876842e-004   3.8473317488e-004
  4.5632500000e+008  -1.1752379217e-004  -2.8434304824e-004   9.9471694090e-001  -6.9524482733e-003   1.0005655922e+000  -1.8438686139e-003   8.0427090030e-004   3.7262193552e-004
  4.6491250000e+008  -2.7676425037e-004  -1.4895574029e-004   9.9715673559e-001  -6.5632363033e-003   1.0002103386e+000  -1.9289846382e-003   7.3416252318e-004   3.3860705309e-004
  4.7350000000e+008  -4.6922816789e-004  -2.4093140055e-004   9.9357585481e-001  -7.1380531557e-003   1.0003822637e+000  -2.0709537600e-003   6.2134251985e-004  -8.8176566669e-005
  4.8208750000e+008  -5.3256535479e-004   1.2828288920e-004   9.9279283938e-001  -8.1502295242e-003   9.9991370416e-001  -1.5330624909e-003   7.2242777581e-004   1.7093902828e-004
  4.9067500000e+008  -1.1102364129e-004  -3.7624452178e-004   9.9089624696e-001  -7.3976611547e-003   1.0002254722e+000  -1.7481949101e-003   5.4070434090e-004   1.9972666486e-004
  4.9926250000e+008  -1.2558335685e-004  -4.4560653780e-004   9.9218374535e-001  -6.5464994657e-003   9.9982366307e-001  -1.7391200988e-003   8.1048212928e-004   1.2033496928e-004
  5.0785000000e+008  -5.2733695989e-004  -2.4551776664e-004   9.9046781486e-001  -8.0633321327e-003   1.0000261009e+000  -9.2725290233e-004   5.9234607910e-004   3.8114504086e-004
  5.1643750000e+008  -4.5954290779e-004   1.7051910594e-004   9.8992224596e-001  -7.9366052008e-003   1.0003337765e+000  -1.7327118588e-003   9.0772945003e-004  -1.6886265800e-004
  5.2502500000e+008  -7.4633567602e-005   6.7621096169e-004   9.9141258899e-001  -6.3036372232e-003   1.0007733580e+000  -1.0727505687e-003   4.0519619030e-004  -6.5453211250e-004
  5.3361250000e+008   5.0076985163e-004   3.9394715228e-004   9.9281247207e-001  -7.5134340636e-003   1.0005602073e+000  -1.5943490165e-003  -1.9586089196e-005  -9.6890827971e-004
  5.4220000000e+008   6.1221499663e-004   1.5800662174e-004   9.9243381490e-001  -6.9926076232e-003   1.0008427085e+000  -1.3435864456e-003  -1.0211609252e-003  -6.0546715475e-004
  5.5078750000e+008   5.6569707407e-004  -6.1028076487e-004   9.9284771949e-001  -9.6945713782e-003   1.0004105352e+000  -2.5722913357e-003  -1.0432812907e-003  -3.1858860133e-004
  5.5937500000e+008   3.3165657856e-004  -5.9609148533e-004   9.9068310755e-001  -7.8441510708e-003   1.0003809660e+000  -2.2206136571e-003  -1.1127627878e-003  -3.1081651249e-006
  5.6796250000e+008   3.0889012347e-004  -8.5548343479e-004   9.9266631441e-001  -7.0548254626e-003   1.0003027479e+000  -2.1922427893e-003  -1.2845595211e-003   5.0685525664e-004
  5.7655000000e+008  -2.9275817622e-004  -1.0349137108e-003   9.9300827297e-001  -9.4408293897e-003   1.0003202869e+000  -2.2366212407e-003  -8.8471281120e-004   6.6375328876e-004
  5.8513750000e+008  -4.8468097592e-004  -1.0999916662e-003   9.9305904450e-001  -7.8145305336e-003   9.9983799150e-001  -2.1331295206e-003  -1.0009314036e-003   8.3133529148e-004
  5.9372500000e+008  -7.1382176786e-004  -8.9328150196e-004   9.9013002499e-001  -8.3530258570e-003   1.0002016412e+000  -2.6614012725e-003  -8.0170123677e-004   1.1277993902e-003
  6.0231250000e+008  -9.2476691686e-004  -4.9806366544e-004   9.9314297731e-001  -7.8377370437e-003   9.9996389614e-001  -2.0642143434e-003  -4.3568962827e-004   9.8172528421e-004
  6.1090000000e+008  -8.7863510281e-004  -2.0158062629e-004   9.9589193676e-001  -8.2142074936e-003   9.9977611792e-001  -1.7662396956e-003  -4.6748458290e-004   1.1025971806e-003
  6.1948750000e+008  -7.4481732411e-004   8.5974649875e-005   9.9436243646e-001  -6.0812497376e-003   1.0000552531e+000  -2.3609699222e-003  -2.3324126222e-004   8.3306256861e-004
  6.2807500000e+008  -7.5559939760e-004   1.0233332558e-004   9.9389860141e-001  -9.3187899923e-003   1.0002296607e+000  -2.6400605170e-003   9.6042878280e-005   5.5129691729e-004
  6.3666250000e+008  -3.5036467009e-004   6.8040803732e-004   9.9466227869e-001  -8.5531061687e-003   1.0003850042e+000  -2.6470671352e-003   1.3116171208e-004   3.5049078799e-004
  6.4525000000e+008   5.7878198772e-006   5.4373684727e-004   9.9334951745e-001  -6.7415979721e-003   1.0004719721e+000  -2.1364703040e-003   3.5454448140e-004   1.1219632567e-004
  6.5383750000e+008   1.8254724196e-004   2.9271312786e-004   9.9537778413e-001  -7.6416012452e-003   9.9970700373e-001  -1.8420354330e-003   5.6237405918e-004  -2.1301839500e-004
  6.6242500000e+008   4.5651899302e-004   3.2713434007e-005   9.9216017703e-001  -8.2704975455e-003   1.0010118774e+000  -2.6910444074e-003   3.0901158462e-004  -3.3214252121e-004
  6.7101250000e+008   3.1916616617e-004  -2.0276910530e-004   9.9493708953e-001  -5.7435212490e-003   9.9988453471e-001  -1.7430155165e-003   3.6887841782e-004  -5.9258520436e-004
  6.7960000000e+008   7.1180722912e-004  -5.5610122857e-004   9.9471445006e-001  -6.7397089441e-003   1.0005303172e+000  -2.7823838123e-003   2.7401758011e-004  -1.0516866981e-003
  6.8818750000e+008   2.8255214937e-004  -9.2793317695e-004   9.9386312797e-001  -7.1781567992e-003   1.0004019239e+000  -2.1054002226e-003   1.5712049392e-005  -1.1735825171e-003
  6.9677500000e+008   1.6607455276e-004  -9.8559919225e-004   9.9453387180e-001  -8.8136936240e-003   1.0003078502e+000  -2.6615639851e-003  -2.0816656645e-004  -1.3204429580e-003
  7.0536250000e+008  -2.5776697088e-004  -1.2168542254e-003   9.9507396609e-001  -7.5297728955e-003   1.0004732027e+000  -2.5417755622e-003  -3.1779849818e-004  -1.4103054161e-003
  7.1395000000e+008  -7.0888862952e-004  -9.9198224248e-004   9.9391266532e-001  -7.2111493761e-003   1.0000712581e+000  -2.6228238232e-003  -5.4825576380e-004  -1.4230007567e-003
  7.2253750000e+008  -1.1173205523e-003  -7.4453828734e-004   9.9316329378e-001  -7.5561965959e-003   9.9991560149e-001  -2.2816549690e-003  -8.5005633728e-004  -1.3292845864e-003
  7.3112500000e+008  -1.1181173657e-003  -5.1150228543e-004   9.9300464608e-001  -8.2346682741e-003   1.0008562680e+000  -2.4351759421e-003  -1.0108595619e-003  -1.2750718514e-003
  7.3971250000e+008  -1.1079218960e-003  -3.8041035398e-005   9.9355125094e-001  -8.7456283737e-003   9.9922628670e-001  -2.8042670439e-003  -1.1789509511e-003  -9.5435925260e-004
  7.4830000000e+008  -9.1573619685e-004   5.5843862750e-004   9.9374860163e-001  -6.6336220776e-003   9.9981341402e-001  -3.0765860790e-003  -1.1448886577e-003  -8.4870772425e-004
  7.5688750000e+008  -7.7240244177e-004   6.4871130802e-004   9.9297705939e-001  -8.0360029175e-003   9.9925645134e-001  -2.9423291278e-003  -1.2413063257e-003  -3.7364815898e-004
  7.6547500000e+008  -2.0253936781e-004   8.0427036459e-004   9.9472001249e-001  -8.0671027535e-003   1.0003415958e+000  -2.4412229511e-003  -1.4210818856e-003  -1.6698629169e-004
  7.7406250000e+008   1.1025755263e-004   8.9573988457e-004   9.9409799549e-001  -8.2770563519e-003   9.9975203544e-001  -2.0480766956e-003  -1.1413615216e-003   1.7945166864e-004
  7.8265000000e+008   3.6626426081e-004   6.5566063312e-004   9.9280092633e-001  -7.7763010595e-003   1.0000015609e+000  -2.3603426701e-003  -8.5831987798e-004   6.4018221462e-004
  7.9123750000e+008   7.4263585971e-004   3.0228492352e-004   9.9407673074e-001  -6.5449238593e-003   9.9969767177e-001  -2.2711537687e-003  -9.5915101342e-004   5.3376128624e-004
  7.9982500000e+008   7.7310427456e-004   2.3888854330e-004   9.9385132363e-001  -6.8357181839e-003   1.0003696279e+000  -1.8065301764e-003  -8.5279876884e-004   7.1338318211e-004
  8.0841250000e+008   9.3868514825e-004   8.2586433700e-005   9.9283340133e-001  -8.3832392970e-003   9.9967585255e-001  -1.7045324065e-003  -7.5088141534e-004   1.0184073301e-003
  8.1700000000e+008   1.1034385351e-003  -1.6830294103e-004   9.9399099542e-001  -6.9505560191e-003   9.9993402503e-001  -2.3712348705e-003  -6.8683650962e-004   1.0732498811e-003
  8.2558750000e+008   1.1513519036e-003  -5.0020266152e-004   9.9516310842e-001  -5.9017011414e-003   1.0005639616e+000  -3.1957632846e-003  -7.1235178564e-004   1.2607126783e-003
  8.3417500000e+008   1.0572309868e-003  -9.4036714787e-004   9.9577173559e-001  -7.1612404099e-003   1.0007051497e+000  -2.4529978577e-003  -3.4864624109e-004   1.5048579242e-003
  8.4276250000e+008   6.2956607526e-004  -1.2333203815e-003   9.9414602669e-001  -8.1993579262e-003   9.9968123077e-001  -2.7489024369e-003  -2.3549011637e-004   1.5668175051e-003
  8.5135000000e+008   6.4518188920e-005  -1.2366005636e-003   9.9361381874e-001  -6.5821645730e-003   1.0009125886e+000  -2.3114647423e-003   1.4815038807e-004   1.5025421485e-003
  8.5993750000e+008  -1.8325506791e-004  -1.2775792438e-003   9.9466692601e-001  -6.6276094654e-003   1.0001258259e+000  -3.3756762036e-003   6.1396226220e-004   1.4304860875e-003
  8.6852500000e+008  -5.7639569834e-004  -9.7069074262e-004   9.9349528779e-001  -7.5740381872e-003   1.0002607828e+000  -2.4639643584e-003   6.6055840270e-004   1.1148645580e-003
  8.7711250000e+008  -6.2226709351e-004  -6.8157597563e-004   9.9460442663e-001  -7.5115761546e-003   1.0000701573e+000  -3.5446143468e-003   8.2301543414e-004   5.6649385157e-004
  8.8570000000e+008  -5.4358305624e-004  -3.1123358296e-004   9.9522228826e-001  -6.9427159793e-003   9.9971302611e-001  -3.4992686477e-003   8.5775249900e-004   1.8468675312e-004
  8.9428750000e+008  -2.6056170404e-004  -2.5496673404e-004   9.9382798147e-001  -7.9959140299e-003   1.0006043926e+000  -3.7123314819e-003   6.0851884312e-004  -1.9103644739e-004
  9.0287500000e+008   6.1563966170e-005  -1.8835137742e-004   9.9592498280e-001  -7.3910376476e-003   9.9992903309e-001  -3.3173755563e-003   3.7334282864e-004  -5.2425641115e-004
  9.1146250000e+008   2.2674662111e-004  -1.1969617081e-004   9.9356714962e-001  -8.0187024049e-003   9.9958585650e-001  -3.2974105081e-003  -1.8264161635e-004  -5.8633478761e-004
  9.2005000000e+008   4.0019107033e-004  -3.1692312513e-004   9.9377180096e-001  -7.6203565591e-003   9.9944662754e-001  -2.2996760754e-003  -6.1995919570e-004  -7.6249206824e-004
  9.2863750000e+008   5.7543225135e-004  -5.6140791356e-004   9.9487341858e-001  -7.1610666505e-003   9.9942893469e-001  -3.9645736309e-003  -6.3546503903e-004  -8.7993400899e-004
  9.3722500000e+008   4.4113983218e-004  -7.4180689979e-004   9.9577225029e-001  -8.3029123252e-003   9.9872048292e-001  -3.6864479870e-003  -9.6798972621e-004  -1.2172743541e-003
  9.4581250000e+008   3.5820742748e-004  -1.1633943395e-003   9.9339204942e-001  -5.5043792845e-003   9.9944303064e-001  -2.3993024438e-003  -1.2998291999e-003  -9.9593166412e-004
  9.5440000000e+008  -4.7849254187e-005  -1.3190773332e-003   9.9439700744e-001  -8.1739040891e-003   9.9973816141e-001  -2.5030038898e-003  -1.5174224836e-003  -7.2201536986e-004
  9.6298750000e+008  -3.6029486816e-004  -1.3753559050e-003   9.9591236206e-001  -6.3235859649e-003   9.9977207088e-001  -3.4342892899e-003  -1.6802748387e-003  -4.2777064177e-004
  9.7157500000e+008  -5.5669171312e-004  -1.2378542132e-003   9.9456806738e-001  -7.2869633556e-003   1.0003404493e+000  -3.3093743980e-003  -1.7163895820e-003  -3.3796276114e-004
  9.8016250000e+008  -8.5509054760e-004  -1.0929439407e-003   9.9273734112e-001  -8.8747832857e-003   9.9961999337e-001  -4.4323382210e-003  -1.6909115274e-003  -1.5117687988e-005
  9.8875000000e+008  -1.2184584955e-003  -6.5964324007e-004   9.9149501435e-001  -6.9738619903e-003   9.9921323209e-001  -2.8776012900e-003  -1.5541289129e-003   2.0323723702e-004
  9.9733750000e+008  -1.1477370539e-003  -3.1336874280e-004   9.9204354376e-001  -9.2234774946e-003   9.9979278797e-001  -2.6214011464e-003  -1.3671615177e-003   1.6499811835e-004
  1.0059250000e+009  -1.0452856434e-003   1.3354422088e-004   9.9146681426e-001  -7.6563920946e-003   1.0004848803e+000  -2.6471114422e-003  -1.0404093400e-003   3.1389965257e-004
  1.0145125000e+009  -9.2504357005e-004   3.8531686747e-004   9.9188958530e-001  -1.0744865041e-002   9.9973617574e-001  -2.8853112581e-003  -6.9785643900e-004   3.7881182909e-004
  1.0231000000e+009  -6.0489829656e-004   4.7794088280e-004   9.9108989633e-001  -7.9368624341e-003   9.9971439214e-001  -3.4553064583e-003  -3.2049014477e-004   2.8483995684e-004
  1.0316875000e+009  -2.9674274406e-004   7.7695801495e-004   9.9092598629e-001  -9.0968798604e-003   9.9896837846e-001  -3.2603478854e-003  -5.5872835317e-005   1.9599183683e-004
  1.0402750000e+009   2.6995370298e-004   7.5099341587e-004   9.9052074518e-001  -9.3681348382e-003   9.9974420726e-001  -2.5625717217e-003   3.1010857939e-004   1.1886471885e-004
  1.0488625000e+009   5.3275663282e-004   4.7552017869e-004   9.9217402943e-001  -8.7512470260e-003   9.9902271786e-001  -3.2573367479e-003   5.5317347914e-004  -1.0639210762e-004
  1.0574500000e+009   8.3205886238e-004   2.4268057593e-004   9.9090518297e-001  -8.2439911992e-003   9.9966596783e-001  -2.8345445293e-003   7.9491235459e-004  -3.7901419246e-004
