# Hz S RI R 50.000000
! Metas.Vna.Tools, 2.8.8664.20301
! Metas.Vna.Data, 2.8.8664.20285
! Created: UTC 2024.02.11 10:08:47
! FREQ                re:S1,1             im:S1,1             re:S2,1             im:S2,1             re:S1,2             im:S1,2             re:S2,2             im:S2,2          
  1.3000000000e+008   4.3518117603e-005  -9.8949067614e-004   9.8969140975e-001  -7.2852511644e-003   1.0014455331e+000   6.2524462609e-004   4.7598066999e-004   6.3951464121e-004
  1.3858750000e+008  -6.2304996684e-004  -1.0583690250e-003   9.9095652717e-001  -6.7118726220e-003   1.0002361797e+000   9.6108092516e-004   1.6051716064e-003   1.6928485308e-004
  1.4717500000e+008  -1.5688738026e-003  -5.9591749340e-004   9.9143029987e-001  -7.3317527960e-003   1.0006380142e+000   2.3654167936e-004   4.9377743475e-004  -5.8144031974e-004
  1.5576250000e+008  -9.2113005250e-004  -4.6435268346e-004   9.9172998320e-001  -6.7450944942e-003   1.0009729625e+000   2.2544130594e-004   1.3689736265e-003  -4.1262455348e-004
  1.6435000000e+008  -9.4299006578e-004   8.4606025721e-004   9.9207327536e-001  -6.4681861696e-003   1.0003388014e+000  -2.9833212671e-004   9.5368848424e-004  -5.7758481248e-005
  1.7293750000e+008  -6.4205226930e-004   7.4028922192e-004   9.9107361271e-001  -6.2137482592e-003   1.0002206957e+000  -2.0542034478e-004   9.2856977327e-004  -7.2197908863e-004
  1.8152500000e+008  -3.9013437720e-004   3.0171735899e-004   9.9010003621e-001  -6.7859657258e-003   1.0000625153e+000   1.0947286980e-004   6.9252347443e-004  -3.7441231510e-004
  1.9011250000e+008  -1.4940232566e-004   6.1473211978e-004   9.9221433289e-001  -8.1914077598e-003   1.0011672765e+000  -1.6132505732e-004   4.0642421657e-004  -1.1398845491e-003
  1.9870000000e+008  -2.6586492862e-004   8.1815372831e-004   9.9160012890e-001  -6.3522396385e-003   1.0003608442e+000  -1.1421030650e-004   2.8280639090e-004  -3.2766398360e-004
  2.0728750000e+008   1.4335209731e-004   9.7279720827e-005   9.9006620452e-001  -6.7716744442e-003   1.0009259630e+000  -3.3771870174e-004   1.2334789636e-004  -3.6562025907e-004
  2.1587500000e+008   5.6030608113e-004  -2.1452018891e-004   9.9234172449e-001  -7.6475462075e-003   1.0004107229e+000  -1.6841863231e-004  -2.9318526487e-004   1.4502737540e-004
  2.2446250000e+008   3.7488887668e-004  -6.8944253282e-004   9.9135156162e-001  -7.0214757731e-003   1.0001434658e+000   1.3707256297e-005  -3.1664520096e-004   2.4416055610e-006
  2.3305000000e+008   7.9859853295e-005  -5.2553905477e-005   9.9158914070e-001  -6.6497906747e-003   1.0003177271e+000  -2.7557031912e-004  -2.4870538377e-004   6.7186121770e-005
  2.4163750000e+008  -5.2239238304e-004  -3.5084565884e-004   9.9068582008e-001  -7.8931332901e-003   1.0003886435e+000  -9.6955977743e-004  -6.2429247867e-004   3.5717987830e-004
  2.5022500000e+008  -5.7736129782e-004  -4.4724756606e-004   9.8991734112e-001  -6.6789695660e-003   1.0001873196e+000  -6.2682513143e-004  -9.9594846228e-004   8.1757378716e-004
  2.5881250000e+008  -4.4671438013e-004  -5.8024875460e-004   9.9161331683e-001  -7.3443216487e-003   1.0002243372e+000  -1.1445471218e-003  -7.9479766403e-004   9.1189582236e-004
  2.6740000000e+008  -8.8624874945e-004  -2.2523437195e-004   9.9061279414e-001  -7.2376144406e-003   1.0005783920e+000  -6.5082181347e-004  -6.3654463865e-004   2.0752543983e-004
  2.7598750000e+008  -2.2068366832e-004  -3.8129772121e-004   9.8929038043e-001  -8.2658745887e-003   1.0006684019e+000  -4.9795741322e-004  -6.0629555148e-004   6.6464708685e-004
  2.8457500000e+008  -5.1541775220e-004  -2.4350349353e-004   9.8798644563e-001  -7.7518573847e-003   1.0001865883e+000  -1.9092856550e-004  -5.9108887809e-004   5.5063773120e-004
  2.9316250000e+008  -2.9520037942e-004  -2.5155194692e-004   9.8809016334e-001  -7.7437733246e-003   1.0001753564e+000  -7.6509885413e-004  -5.4310405797e-004   6.7069713814e-005
  3.0175000000e+008  -6.9442692415e-004   1.0339556043e-004   9.8844050630e-001  -8.4056414805e-003   1.0002888736e+000   1.4626821921e-004  -4.6649906014e-004   4.1038101699e-004
  3.1033750000e+008  -7.1944092919e-004   1.4949886454e-004   9.8810238363e-001  -7.6081270290e-003   1.0014506299e+000  -1.0726723954e-003  -7.6503080176e-004   5.3670248788e-004
  3.1892500000e+008  -7.4269899940e-004   1.6755957614e-004   9.9022982017e-001  -9.7300770768e-003   1.0001709093e+000  -1.5239734731e-004  -6.6931988494e-004   1.9729229394e-004
  3.2751250000e+008  -6.5799962474e-004  -6.2110175448e-005   9.9129610618e-001  -8.6389081494e-003   1.0002059603e+000  -9.3105707068e-004  -7.2146218112e-004   4.1760553376e-004
  3.3610000000e+008  -6.1432667684e-004   2.0917510971e-005   9.9180053884e-001  -6.8855125541e-003   1.0012296141e+000  -1.1203273657e-003  -7.2304485729e-004   3.4263891159e-004
  3.4468750000e+008  -8.1394950059e-004   1.6983152880e-004   9.9013560968e-001  -7.6561289980e-003   1.0011086082e+000  -5.6376266043e-004  -3.6420966005e-004   1.1271066700e-004
  3.5327500000e+008  -6.5664458351e-004   2.7801657695e-004   9.9012659803e-001  -8.5297194885e-003   9.9970675046e-001  -1.2558667245e-003  -6.0253322336e-004   2.0993879355e-004
  3.6186250000e+008  -4.1238037227e-004   2.7975148762e-004   9.9149698085e-001  -8.3725016364e-003   1.0006858502e+000  -1.1288875480e-003  -8.2087425251e-004   3.6362739146e-004
  3.7045000000e+008  -4.8704729313e-004   4.7951434432e-004   9.9030495354e-001  -7.0411411271e-003   1.0007438901e+000  -9.2425342455e-004  -6.3832671008e-004   4.6054762977e-004
  3.7903750000e+008  -1.7215192529e-004   6.2098845384e-004   9.9076760924e-001  -6.9370977864e-003   1.0008410971e+000  -8.1213399706e-004  -7.3404855975e-004   2.8624186823e-004
  3.8762500000e+008  -3.7194730584e-004   6.5670047757e-004   9.9231800418e-001  -7.9985756917e-003   9.9961543833e-001  -1.1438660716e-003  -4.3288842741e-004   5.3423348936e-004
  3.9621250000e+008  -1.8547026129e-004   3.1942307572e-004   9.9143145405e-001  -7.0527423870e-003   1.0006325253e+000  -9.3026792957e-004  -7.0421643005e-004   5.2537682759e-004
  4.0480000000e+008   4.9805055169e-004   4.0439204010e-004   9.9191105771e-001  -8.6919042742e-003   1.0005179810e+000  -1.1487475957e-003  -1.2281854034e-004   4.6108168769e-004
  4.1338750000e+008   4.5099061408e-004   1.6883210428e-004   9.9102831358e-001  -7.6454813230e-003   1.0006487944e+000  -8.2946373297e-004  -8.0846544690e-005   4.6711208431e-004
  4.2197500000e+008   1.8148066314e-004  -2.1944398538e-004   9.9090736028e-001  -8.0173599798e-003   1.0009116450e+000  -1.1681758766e-003   3.6529529822e-004   6.7037186995e-004
  4.3056250000e+008   4.2204605969e-004  -4.3715081661e-005   9.8998815330e-001  -8.2500217884e-003   1.0002385590e+000  -1.0658192293e-003   5.5996475822e-004   2.1640477002e-004
  4.3915000000e+008   1.1851449608e-004  -1.2604629569e-004   9.9413825441e-001  -6.8403259037e-003   1.0004313886e+000  -1.4657051722e-003   5.1209692164e-004   2.1096106690e-004
  4.4773750000e+008   2.2885285455e-004  -4.6542681690e-004   9.9301148462e-001  -7.2817835535e-003   1.0004229896e+000  -1.6241680483e-003   5.1658804349e-004   1.3973439672e-004
  4.5632500000e+008  -3.4362295510e-004  -5.6164866912e-004   9.9005398411e-001  -6.8981709335e-003   1.0005277928e+000  -1.2758079924e-003   8.8561619480e-004   1.1547916764e-004
  4.6491250000e+008  -3.4941526358e-004  -1.6800301071e-004   9.9145601457e-001  -8.4139278898e-003   1.0001324372e+000  -1.7120262601e-003   6.0941458366e-004   5.8523273519e-005
  4.7350000000e+008  -5.9119129122e-004  -3.6604389256e-004   9.9038187538e-001  -8.9172380403e-003   1.0004070028e+000  -1.1551054070e-003   4.2253831030e-004  -1.6955943330e-004
  4.8208750000e+008  -5.0907902551e-004  -7.2686447203e-005   9.8915749099e-001  -9.1463253679e-003   9.9972178170e-001  -1.2387655900e-003   6.4243346472e-004  -6.0208295552e-005
  4.9067500000e+008  -8.4125058629e-005  -3.0614795947e-004   9.8831872261e-001  -8.2789263377e-003   9.9975367880e-001  -1.5528982237e-003   4.2439842995e-004  -7.2935696036e-006
  4.9926250000e+008  -3.0293036680e-004  -2.3511522744e-004   9.8936008859e-001  -7.7176545303e-003   9.9984448128e-001  -1.3537902555e-003   5.3722542522e-004  -3.3305105997e-004
  5.0785000000e+008  -4.7551286955e-004  -2.2300855535e-004   9.8871276412e-001  -8.4082949309e-003   9.9989004526e-001  -8.8020937299e-004   4.2502726814e-004   2.0123426448e-004
  5.1643750000e+008  -4.3817958829e-004   2.5460493964e-004   9.8757278860e-001  -7.5379879588e-003   1.0001670864e+000  -1.4793099103e-003   5.3724672587e-004  -7.6844800199e-005
  5.2502500000e+008  -2.0728342969e-004   6.1700434659e-004   9.9045150316e-001  -7.1392533110e-003   1.0005925081e+000  -8.6715622795e-004   2.1902184518e-004  -2.0870662007e-004
  5.3361250000e+008   5.0898952673e-004   2.4473622259e-004   9.9012218262e-001  -7.8347845306e-003   9.9975163506e-001  -1.2578911286e-003  -1.1424516162e-004  -4.0488458359e-004
  5.4220000000e+008   8.3769493619e-004  -5.3975845589e-005   9.8991382594e-001  -8.3312824957e-003   1.0009958888e+000  -7.8709337502e-004  -8.8459650915e-004  -2.3701796608e-004
  5.5078750000e+008   5.7839453701e-004  -6.6475939315e-004   9.9054273460e-001  -9.6590140083e-003   1.0005434403e+000  -1.9112640231e-003  -1.0095939743e-003  -1.5100995425e-004
  5.5937500000e+008   3.4801266806e-004  -6.6837835907e-004   9.8836464286e-001  -8.0114270405e-003   1.0004236853e+000  -1.7172854361e-003  -8.7182414548e-004   2.3187575008e-004
  5.6796250000e+008   2.6800455774e-004  -8.4361874294e-004   9.9019211996e-001  -8.8017279708e-003   1.0003508273e+000  -2.0063854149e-003  -9.3885322484e-004   5.4248852230e-004
  5.7655000000e+008  -2.2119386397e-004  -9.5016484497e-004   9.9078036456e-001  -9.8762199369e-003   1.0003880411e+000  -1.9580211506e-003  -8.1432542516e-004   7.9181457656e-004
  5.8513750000e+008  -3.0357562490e-004  -9.6367222112e-004   9.8916667064e-001  -1.0107626129e-002   9.9992221332e-001  -2.0157817897e-003  -8.8965695342e-004   9.7067355733e-004
  5.9372500000e+008  -5.8239930415e-004  -1.0266758676e-003   9.8954210176e-001  -8.4541305305e-003   9.9957975621e-001  -2.4608410950e-003  -5.6690494573e-004   9.2722636222e-004
  6.0231250000e+008  -1.0170378038e-003  -6.2313659456e-004   9.8907877957e-001  -7.9272860095e-003   9.9996893995e-001  -2.0167843126e-003  -3.3072976241e-004   1.0239759568e-003
  6.1090000000e+008  -9.0568257327e-004  -4.2729892624e-004   9.8969042799e-001  -1.1109856689e-002   9.9994305930e-001  -2.1445430442e-003  -5.5172006161e-004   8.6154315837e-004
  6.1948750000e+008  -9.3892506436e-004  -3.0948103728e-005   9.8851228505e-001  -8.1652620525e-003   9.9923122925e-001  -1.7649507673e-003  -1.5721740906e-004   6.2139181919e-004
  6.2807500000e+008  -7.8463140163e-004   1.0884126977e-004   9.8971283424e-001  -1.0250018444e-002   1.0006647433e+000  -1.0652716987e-003   6.5933447725e-005   5.7658507489e-004
  6.3666250000e+008  -4.3278691941e-004   4.0874540204e-004   9.8984876359e-001  -9.7282600650e-003   1.0002084882e+000  -2.2413855213e-003   1.6160193587e-004   2.3027259643e-004
  6.4525000000e+008  -4.6013272136e-005   5.0264744674e-004   9.8940039816e-001  -8.4353856627e-003   1.0005737472e+000  -1.7411676711e-003   2.8772664890e-004  -9.6635056921e-005
  6.5383750000e+008   9.9974237043e-005   4.3687050764e-004   9.8903399921e-001  -7.5427257305e-003   1.0000840458e+000  -1.0333227825e-003   2.0322249390e-004  -2.1314480297e-004
  6.6242500000e+008   2.6060199049e-004   1.2071652667e-004   9.8862419397e-001  -9.5791008539e-003   1.0006828926e+000  -2.6140844033e-003   3.3376361600e-004  -3.6871419357e-004
  6.7101250000e+008   5.1139034576e-004  -8.6016359579e-005   9.8979248386e-001  -7.6230007363e-003   9.9960245393e-001  -1.2709958481e-003   1.7163408339e-004  -7.4771395271e-004
  6.7960000000e+008   7.6141130580e-004  -4.4892620134e-004   9.8765400408e-001  -9.6455618223e-003   1.0005951624e+000  -1.9539651852e-003   1.1833081483e-004  -9.9621519570e-004
  6.8818750000e+008   2.6496638863e-004  -8.0201761152e-004   9.8698799430e-001  -8.5999268958e-003   1.0000391582e+000  -2.2576117559e-003   3.6622248731e-006  -1.1002467820e-003
  6.9677500000e+008   2.4493130845e-004  -1.1243681665e-003   9.8971052037e-001  -8.2156659878e-003   1.0003502167e+000  -2.3128382953e-003  -2.7842204715e-004  -1.1051230437e-003
  7.0536250000e+008  -2.8163053419e-004  -1.3292514661e-003   9.8851678283e-001  -8.9955531598e-003   9.9972990431e-001  -2.4198321403e-003  -3.4729299943e-004  -1.2393762085e-003
  7.1395000000e+008  -5.2257360093e-004  -1.0657831258e-003   9.8788059319e-001  -8.6154173919e-003   9.9983223104e-001  -2.1752717541e-003  -6.3038052761e-004  -1.3203609044e-003
  7.2253750000e+008  -9.7776894173e-004  -9.7200872521e-004   9.8758227830e-001  -9.9061780958e-003   9.9947284393e-001  -2.0853956828e-003  -8.0339066123e-004  -1.2026313781e-003
  7.3112500000e+008  -1.1677070111e-003  -5.6154383850e-004   9.8876078992e-001  -8.3528386601e-003   1.0002661365e+000  -1.2975671303e-003  -9.7444377034e-004  -9.4271976576e-004
  7.3971250000e+008  -1.0977557759e-003  -9.1632955668e-005   9.8945827231e-001  -9.0445390866e-003   9.9890710687e-001  -2.2762864890e-003  -1.1318907760e-003  -7.3090498590e-004
  7.4830000000e+008  -9.7086438222e-004   4.1020555801e-004   9.9123316870e-001  -7.4721020598e-003   9.9988527131e-001  -1.7985120542e-003  -1.1247087480e-003  -7.1410836416e-004
  7.5688750000e+008  -8.1641810628e-004   5.7707853579e-004   9.8941073505e-001  -8.9907149274e-003   9.9896797606e-001  -2.2664614550e-003  -1.2069007454e-003  -2.2215467855e-004
  7.6547500000e+008  -2.7722099705e-004   9.6434555027e-004   9.9030549142e-001  -9.4458651455e-003   9.9950433423e-001  -2.1555448074e-003  -1.2306305600e-003   3.7679333026e-005
  7.7406250000e+008   8.5713812289e-005   1.0573166406e-003   9.8945807822e-001  -9.4438785663e-003   9.9928511814e-001  -1.9803978137e-003  -9.3146677372e-004   2.6879889439e-004
  7.8265000000e+008   3.8186349937e-004   7.2978909804e-004   9.8896508013e-001  -9.0326403278e-003   9.9982029169e-001  -2.0725218182e-003  -8.5200738200e-004   5.5143174886e-004
  7.9123750000e+008   7.7967719161e-004   3.2966250339e-004   9.8992455530e-001  -8.2631944977e-003   1.0000481183e+000  -1.6542046831e-003  -6.9261236355e-004   5.3444290662e-004
  7.9982500000e+008   7.6425365429e-004   2.8768954139e-004   9.9041695598e-001  -7.0008097048e-003   1.0012750735e+000  -1.0737935023e-003  -5.8557434873e-004   7.8912666042e-004
  8.0841250000e+008   1.0761726781e-003   2.0664845939e-004   9.8932230834e-001  -9.5019941106e-003   9.9976030597e-001  -1.9166410626e-003  -3.2990630725e-004   8.0253677356e-004
  8.1700000000e+008   1.2997128924e-003  -3.5129016346e-004   9.9079849503e-001  -7.8796515755e-003   1.0004038223e+000  -1.5649319454e-003  -3.4124383360e-004   9.9896782022e-004
  8.2558750000e+008   1.0964833026e-003  -7.9718734110e-004   9.9135578706e-001  -9.0804404608e-003   1.0004212834e+000  -2.6816907694e-003  -2.8722862182e-004   1.1578032268e-003
  8.3417500000e+008   7.4895579736e-004  -1.1849487352e-003   9.9019166705e-001  -8.8119889912e-003   1.0009366747e+000  -2.8526232512e-003  -1.2146641675e-004   1.2768586884e-003
  8.4276250000e+008   4.2588337965e-004  -1.3010530738e-003   9.8945399776e-001  -9.2282477248e-003   9.9898196701e-001  -3.7059694347e-003   1.9028501247e-004   1.0417177843e-003
  8.5135000000e+008  -1.0912242609e-004  -1.2567691022e-003   9.8856012115e-001  -9.5455395417e-003   1.0000316413e+000  -2.4548536582e-003   3.4818508021e-004   1.0056606226e-003
  8.5993750000e+008  -2.4044803791e-004  -1.1226587736e-003   9.9088234794e-001  -7.8677794276e-003   9.9993090179e-001  -2.8225914594e-003   3.9794139497e-004   9.8320405957e-004
  8.6852500000e+008  -5.8294237503e-004  -9.2166358534e-004   9.9072867731e-001  -8.8961836445e-003   1.0000575962e+000  -2.1336146547e-003   5.3625761068e-004   8.0427916937e-004
  8.7711250000e+008  -4.0303069078e-004  -5.8066515080e-004   9.8948710866e-001  -8.3131173297e-003   1.0005488722e+000  -2.7044814059e-003   4.8755797489e-004   3.9488899396e-004
  8.8570000000e+008  -3.2714935114e-004  -3.5651408740e-004   9.9064171338e-001  -7.8117790695e-003   9.9994602243e-001  -2.4332097287e-003   3.5301993489e-004   1.0397428474e-004
  8.9428750000e+008  -2.8381830764e-004  -1.3679965294e-004   9.8850174895e-001  -8.9325096665e-003   9.9920655491e-001  -2.6966247534e-003   7.9092964734e-005  -3.0192580481e-004
  9.0287500000e+008   5.8658503439e-005  -2.4582393025e-004   9.8887727085e-001  -9.6002773455e-003   9.9906428055e-001  -3.0570527120e-003  -5.9031701930e-005  -3.6823963930e-004
  9.1146250000e+008   2.6909846130e-004  -2.2612101651e-004   9.8793466156e-001  -1.0421351563e-002   9.9811413390e-001  -2.9193286855e-003  -6.5630125838e-004  -2.9718573396e-004
  9.2005000000e+008   3.0956372700e-004  -3.8233704965e-004   9.8606566775e-001  -1.0546657198e-002   9.9912680267e-001  -1.5010678533e-003  -9.4646063362e-004  -4.7614401895e-004
  9.2863750000e+008   4.3073626836e-004  -6.0512772522e-004   9.8666336304e-001  -9.4237366456e-003   1.0001508774e+000  -2.7629229320e-003  -1.0145584337e-003  -3.7994331307e-004
  9.3722500000e+008   4.3917209831e-004  -9.0706415779e-004   9.8516103984e-001  -1.0023673225e-002   9.9846208513e-001  -2.6772533260e-003  -1.2192051309e-003  -5.3799023979e-004
  9.4581250000e+008   2.4715331019e-004  -1.2396526713e-003   9.8541512826e-001  -9.7024821156e-003   9.9901561330e-001  -2.2410709748e-003  -1.3430788451e-003  -2.9567761726e-004
  9.5440000000e+008  -1.1951669287e-004  -1.4076082382e-003   9.8481372464e-001  -8.8828460508e-003   9.9988767146e-001  -1.9150875104e-003  -1.3915105075e-003  -1.2510375952e-004
  9.6298750000e+008  -4.3743058478e-004  -1.2891153955e-003   9.8545888876e-001  -1.0360722578e-002   9.9983736427e-001  -2.7181124256e-003  -1.4799864129e-003   7.6326773297e-005
  9.7157500000e+008  -6.6180715674e-004  -1.3341057606e-003   9.8041253516e-001  -1.3125429466e-002   1.0000084073e+000  -2.6575119121e-003  -1.3052776269e-003   2.1582144462e-004
  9.8016250000e+008  -8.8301073094e-004  -9.7400299457e-004   9.8079983999e-001  -1.1907991526e-002   9.9959191586e-001  -4.3786680674e-003  -1.2534906402e-003   3.3436225012e-004
  9.8875000000e+008  -1.1327220850e-003  -6.5595251533e-004   9.8063954892e-001  -1.1116295320e-002   9.9972648018e-001  -2.0953726194e-003  -1.1184443300e-003   3.0269197923e-004
  9.9733750000e+008  -1.0627167412e-003  -3.1656420306e-004   9.7934560396e-001  -1.2552982113e-002   9.9923107979e-001  -1.9788402818e-003  -9.4974049805e-004   1.4948875640e-004
  1.0059250000e+009  -9.2982781857e-004   2.6773699828e-005   9.8074242498e-001  -1.0620113376e-002   9.9936895150e-001  -2.4127475419e-003  -4.3293058424e-004   1.6668537866e-004
  1.0145125000e+009  -8.8821278554e-004   4.3316963734e-004   9.8324443831e-001  -1.1760616584e-002   9.9991873449e-001  -2.8341284256e-003  -3.3361188033e-004   1.6314115084e-004
  1.0231000000e+009  -5.0829597143e-004   4.7637227726e-004   9.8349477889e-001  -1.0005968322e-002   9.9947904324e-001  -2.7710989096e-003  -3.4911222109e-005   2.5542862011e-005
  1.0316875000e+009  -1.0487721027e-004   8.1415293269e-004   9.8335226901e-001  -1.0861539066e-002   9.9941216352e-001  -2.9405372825e-003   1.1969029885e-004  -2.8616583340e-005
  1.0402750000e+009   2.9102419394e-004   7.5508622889e-004   9.8631329052e-001  -9.9124226492e-003   1.0002427707e+000  -2.1824911705e-003   2.9237228741e-004  -1.7861750329e-004
  1.0488625000e+009   4.9994441168e-004   5.0395863924e-004   9.8924867300e-001  -9.7798349403e-003   9.9936201489e-001  -3.2708824243e-003   6.5293222187e-004  -3.1613916034e-004
  1.0574500000e+009   8.0042433768e-004   1.7374012610e-004   9.8767149203e-001  -1.0081338949e-002   9.9954867587e-001  -2.7900780981e-003   6.5469656679e-004  -5.4198151774e-004
