# Hz S RI R 50.000000
! Metas.Vna.Tools, 2.8.8664.20301
! Metas.Vna.Data, 2.8.8664.20285
! Created: UTC 2024.02.11 10:08:31
! FREQ                re:S1,1             im:S1,1             re:S2,1             im:S2,1             re:S1,2             im:S1,2             re:S2,2             im:S2,2          
  1.3000000000e+008  -1.7752279261e-004  -1.2733383927e-003   9.9330157393e-001  -5.6169419089e-003   1.0006673487e+000  -8.1272332040e-005   1.3318592414e-003   7.4300223535e-004
  1.3858750000e+008  -3.2547391186e-004  -1.1077062778e-003   9.9421156754e-001  -5.3775235341e-003   9.9987623883e-001   8.7507697789e-004   1.2545924460e-003   2.7830967836e-004
  1.4717500000e+008  -1.5239046296e-003  -9.4759861845e-004   9.9375353738e-001  -6.7684108375e-003   1.0001005328e+000   3.4243394333e-004   1.4007057789e-004  -8.9611719877e-004
  1.5576250000e+008  -6.9629390990e-004  -1.1934283608e-004   9.9401671947e-001  -5.9631763211e-003   1.0009005530e+000   6.7923273426e-005   1.8584830913e-003  -6.5430968421e-004
  1.6435000000e+008  -1.0535537449e-003   6.0312020575e-004   9.9346484270e-001  -5.8479225833e-003   1.0007802716e+000   2.9802371375e-004   1.1430614032e-003  -3.0017274094e-004
  1.7293750000e+008  -9.5819736371e-004   5.2579621414e-004   9.9375171757e-001  -5.7588815147e-003   1.0003370992e+000  -3.9688030123e-004   6.9026602282e-004  -7.8349260425e-004
  1.8152500000e+008  -4.5000951940e-004   7.6957529776e-004   9.9342182662e-001  -5.9555186327e-003   1.0003708268e+000  -5.8996109602e-004   3.5839904692e-004  -6.6697181361e-004
  1.9011250000e+008  -4.5098648610e-004   5.7640740823e-004   9.9447091520e-001  -7.7192673943e-003   1.0005287059e+000  -3.4693186199e-004   2.4424915819e-004  -3.8128778637e-004
  1.9870000000e+008   1.1957008127e-004   5.0498326064e-004   9.9438034117e-001  -5.8654201150e-003   1.0007046086e+000  -4.9821482570e-004   3.9621000875e-004  -7.0253585461e-004
  2.0728750000e+008   2.4183414697e-004   2.8178896918e-004   9.9321839565e-001  -6.1132711581e-003   1.0001756602e+000  -2.6607699840e-004   6.0636036090e-004  -3.6305877097e-004
  2.1587500000e+008   3.1429004702e-004  -4.5704214896e-004   9.9408957379e-001  -6.7640170523e-003   9.9959929195e-001  -4.3820898767e-004  -5.2369599874e-004  -1.1982369232e-004
  2.2446250000e+008   1.5375880161e-004  -4.7075654161e-004   9.9329163242e-001  -6.2076794615e-003   1.0002072266e+000  -3.8157083839e-004  -6.2776994563e-004  -2.1705198251e-004
  2.3305000000e+008   2.0785598308e-004   8.7258421234e-005   9.9154842303e-001  -7.6787860384e-003   1.0005037147e+000  -3.7593717644e-004  -4.2945335916e-004  -2.6903302064e-004
  2.4163750000e+008  -2.0631260544e-004  -3.3735213226e-004   9.9339405101e-001  -8.2810247257e-003   1.0004316758e+000  -1.5833371710e-003  -5.2245776499e-004   1.6740451356e-004
  2.5022500000e+008  -7.8467049337e-004  -4.6698239144e-004   9.9255246781e-001  -6.2995740126e-003   1.0004850235e+000  -1.1006223983e-003  -9.9104994289e-004   7.6767104767e-004
  2.5881250000e+008  -5.2117056863e-004  -6.2518081116e-004   9.9244779257e-001  -6.2892734575e-003   1.0006729901e+000  -7.6858405439e-004  -3.4649981261e-004   5.7433805883e-004
  2.6740000000e+008  -8.8364507875e-004  -8.5623962641e-004   9.9292500377e-001  -8.0204314132e-003   1.0017066847e+000  -1.3883869695e-003  -4.8289492326e-004   4.7823462350e-004
  2.7598750000e+008  -3.1615042584e-004  -1.7228714374e-004   9.9297614711e-001  -7.0925553349e-003   1.0001847662e+000  -6.9078152867e-004  -7.1591093965e-004   4.6810954113e-004
  2.8457500000e+008  -8.4925219750e-004  -3.3499501890e-004   9.9326395420e-001  -7.4397320454e-003   1.0003630333e+000  -4.5540181433e-004  -2.6370433913e-004   6.1216522170e-004
  2.9316250000e+008  -9.2518055595e-004  -3.3223966583e-004   9.9363505656e-001  -6.9730417093e-003   1.0005293071e+000  -1.4661078900e-003  -2.5407028414e-004   5.0360180551e-004
  3.0175000000e+008  -9.6493605694e-004   3.2341477695e-004   9.9348437654e-001  -8.3679278021e-003   1.0004562095e+000  -1.3279781465e-003  -4.0629009803e-004   5.8666656820e-004
  3.1033750000e+008  -1.0363604905e-003   8.5535907519e-006   9.9468485948e-001  -6.9971274897e-003   1.0018841694e+000  -1.4616933819e-003  -7.8599132842e-004   5.6003043632e-004
  3.1892500000e+008  -8.5509867261e-004   2.0711387106e-005   9.9178451827e-001  -8.0469060879e-003   1.0000159524e+000  -1.7967467049e-004  -7.5768328609e-004   1.3082321212e-004
  3.2751250000e+008  -6.2291176535e-004   1.1702632604e-004   9.9219874179e-001  -7.5783057519e-003   1.0011694312e+000  -1.5784262652e-003  -1.1188658830e-003  -4.2283624521e-005
  3.3610000000e+008  -7.9459482634e-004   1.1732643513e-004   9.9296015343e-001  -6.8159146197e-003   1.0013474666e+000  -1.2409108211e-003  -7.3490765796e-004   2.8688063792e-004
  3.4468750000e+008  -6.3969911496e-004   1.0456006747e-005   9.9267442616e-001  -7.1728928088e-003   1.0004806648e+000  -6.0316132312e-004  -5.1588795249e-004   6.2408977901e-005
  3.5327500000e+008  -5.0074134448e-004   4.3889556829e-004   9.9378917306e-001  -7.4591141422e-003   9.9908199451e-001  -1.9220122442e-003  -6.0111183614e-004   2.5296382866e-004
  3.6186250000e+008  -6.8444833209e-004   5.5798635730e-004   9.9465693348e-001  -7.3576588773e-003   1.0011262350e+000  -1.2162541413e-003  -6.7566705948e-004   3.1963028262e-004
  3.7045000000e+008  -4.6202481897e-004   4.5282626876e-004   9.9317179244e-001  -6.2541225431e-003   1.0006535835e+000  -1.4373841702e-003  -8.9267364822e-004   2.3320941141e-004
  3.7903750000e+008  -2.7246947182e-004   5.0306995993e-004   9.9411897830e-001  -7.1008565236e-003   1.0000081354e+000  -1.4208331137e-003  -6.4144717876e-004   1.9915554223e-004
  3.8762500000e+008  -4.4191394394e-004   3.8350824029e-004   9.9603196058e-001  -6.7770853233e-003   1.0002040708e+000  -1.4839693866e-003  -4.6163731170e-004   5.7650987797e-004
  3.9621250000e+008  -1.0537056065e-004   2.3235246861e-004   9.9335409965e-001  -7.0133968133e-003   1.0006994290e+000  -1.3954345002e-003  -3.9840046168e-004   6.1007369365e-004
  4.0480000000e+008   2.3772946975e-004   3.4880830520e-004   9.9368385724e-001  -7.7501894590e-003   1.0003113164e+000  -1.1029198270e-003   1.2726888506e-004   3.7840416771e-004
  4.1338750000e+008   3.6754018956e-004   2.3676030445e-004   9.9349524742e-001  -5.9734456609e-003   1.0010109456e+000  -1.2136316144e-003   1.5395151871e-004   3.0298605772e-004
  4.2197500000e+008   2.0919716375e-004  -2.0111412728e-004   9.9392990986e-001  -6.8576682355e-003   1.0008514690e+000  -1.1481814021e-003   3.5804930258e-004   7.8017998464e-004
  4.3056250000e+008   2.2422568117e-004  -1.6551071040e-004   9.9460072517e-001  -6.7478996127e-003   1.0004464945e+000  -1.4527151183e-003   3.4026072532e-004   2.4940053530e-004
  4.3915000000e+008   1.7642318451e-004   5.1213036571e-005   9.9593399566e-001  -6.0302002016e-003   1.0003280191e+000  -1.6787357265e-003   7.3810845389e-004   2.3140077289e-004
  4.4773750000e+008   1.5628847305e-004  -3.8171615313e-004   9.9502989188e-001  -5.9023581266e-003   1.0005517222e+000  -2.1072348936e-003   7.0788071225e-004   1.3957344985e-004
  4.5632500000e+008  -3.5300445826e-004  -4.4135839658e-004   9.9343364872e-001  -6.9406165444e-003   1.0005599956e+000  -1.8617612031e-003   6.0543172611e-004   2.2706689030e-005
  4.6491250000e+008  -3.0313433546e-004  -3.2730488218e-004   9.9407654978e-001  -7.9593854300e-003   1.0004746430e+000  -1.7465933462e-003   5.0131387294e-004   7.5385462039e-005
  4.7350000000e+008  -3.7600545979e-004  -1.3293201702e-004   9.9238093841e-001  -7.1821322872e-003   1.0004677301e+000  -1.8789838851e-003   4.5756745641e-004  -9.0374081638e-006
  4.8208750000e+008  -4.0362600641e-004  -1.0387066347e-004   9.9017254549e-001  -8.2989141224e-003   9.9983684021e-001  -1.4435102918e-003   7.2746570297e-004   1.5692481899e-004
  4.9067500000e+008  -4.4359667064e-005  -2.1185143165e-004   9.8993566878e-001  -8.0801499303e-003   1.0000859075e+000  -1.6678073965e-003   3.6562861924e-004  -3.4596747150e-005
  4.9926250000e+008  -3.0857172508e-004  -3.7547184392e-004   9.9107307567e-001  -8.2623178815e-003   9.9973309290e-001  -1.6551960615e-003   5.8357597633e-004   9.7475467304e-006
  5.0785000000e+008  -4.9388726297e-004  -1.2274471731e-004   9.9143515535e-001  -7.3750271007e-003   9.9989899279e-001  -1.1245313977e-003   3.9340014175e-004   3.3715578623e-004
  5.1643750000e+008  -5.5395087146e-004   9.5874002003e-005   9.8932674660e-001  -7.6152140008e-003   1.0004524019e+000  -1.3480455273e-003   6.5427802392e-004  -3.0866051019e-005
  5.2502500000e+008  -3.4512190388e-004   5.2348204578e-004   9.9205502327e-001  -6.1811531777e-003   1.0009429379e+000  -7.9487924035e-004   3.0608677681e-004  -4.6087266110e-004
  5.3361250000e+008   3.9994038157e-004   3.6712638889e-004   9.9151660606e-001  -8.4820440540e-003   1.0008325784e+000  -1.7376228657e-003  -1.8732250484e-005  -5.0801168926e-004
  5.4220000000e+008   7.2845248011e-004   3.4653549737e-005   9.9319283891e-001  -8.3606705507e-003   1.0006438125e+000  -1.7716333470e-003  -9.2285394637e-004  -3.4046608421e-004
  5.5078750000e+008   5.2394996497e-004  -5.1902440477e-004   9.9264056562e-001  -8.6138577118e-003   1.0000618680e+000  -2.2930568317e-003  -9.5848350742e-004  -1.6280423598e-004
  5.5937500000e+008   4.9193242549e-004  -7.3870932270e-004   9.9101386958e-001  -7.0225861594e-003   1.0003728887e+000  -2.3292751074e-003  -9.3397735851e-004   1.6634975732e-004
  5.6796250000e+008   2.7783015123e-004  -8.6874969424e-004   9.9261023767e-001  -7.4741442268e-003   1.0007581450e+000  -2.0584336941e-003  -1.0094789175e-003   4.5391116361e-004
  5.7655000000e+008  -1.9576464011e-004  -1.0555075463e-003   9.9242035995e-001  -1.0696298410e-002   1.0002148579e+000  -2.6072997131e-003  -8.2662718384e-004   7.6422490539e-004
  5.8513750000e+008  -5.1050468841e-004  -9.0863817965e-004   9.9254765977e-001  -8.9023730299e-003   9.9939778749e-001  -2.0953556964e-003  -6.6692372460e-004   1.0133586621e-003
  5.9372500000e+008  -6.6532289923e-004  -8.3388607458e-004   9.9154597739e-001  -7.4669420282e-003   9.9982622834e-001  -1.8047480812e-003  -6.1239021317e-004   9.6307738655e-004
  6.0231250000e+008  -9.8653137188e-004  -7.2505973401e-004   9.9078712687e-001  -8.3600832852e-003   1.0005387785e+000  -1.6342266298e-003  -3.9115472929e-004   8.9121908687e-004
  6.1090000000e+008  -9.1718678752e-004  -3.5448346378e-004   9.9317292671e-001  -9.1506397806e-003   9.9987159441e-001  -1.7282074547e-003  -4.9172774502e-004   1.0102462827e-003
  6.1948750000e+008  -9.5753589810e-004   8.6932646812e-005   9.9069537832e-001  -7.8788814276e-003   1.0000700949e+000  -2.8128105690e-003  -2.4094064559e-004   7.1720984226e-004
  6.2807500000e+008  -8.1633195248e-004   3.4405819937e-005   9.9201104797e-001  -9.1866817970e-003   1.0003077091e+000  -2.5453268302e-003   1.1651919953e-004   4.2925598096e-004
  6.3666250000e+008  -4.1341279466e-004   6.2356064834e-004   9.9322714384e-001  -8.4097256490e-003   1.0004321541e+000  -2.4600849092e-003   1.1127753656e-004   2.2667074306e-004
  6.4525000000e+008   6.3466568665e-005   4.1472233210e-004   9.9409845840e-001  -6.2560453671e-003   1.0006089796e+000  -2.0004305110e-003   1.8338827541e-004  -3.7895567945e-005
  6.5383750000e+008   2.8133291287e-004   2.7351370315e-004   9.9304202192e-001  -7.9609151148e-003   9.9954993510e-001  -1.4410146437e-003   4.4653766255e-004  -1.5856490015e-004
  6.6242500000e+008   3.5144981363e-004   1.2471134497e-004   9.9241623029e-001  -7.6540462605e-003   1.0010459304e+000  -2.8579581330e-003   3.7250524399e-004  -5.0793468513e-004
  6.7101250000e+008   4.9642447541e-004  -2.0726069900e-004   9.9283470982e-001  -6.8718080945e-003   1.0001970164e+000  -1.2009101685e-003   3.9938316015e-004  -6.5784287437e-004
  6.7960000000e+008   6.7286754805e-004  -4.7344978508e-004   9.9253460760e-001  -7.6571153830e-003   1.0000125894e+000  -2.4350197837e-003   2.3568672518e-004  -1.0520663744e-003
  6.8818750000e+008   2.7857101720e-004  -8.6077663200e-004   9.9232689710e-001  -7.5400356302e-003   1.0000161238e+000  -2.1676893952e-003   6.4653399109e-005  -1.1825752160e-003
  6.9677500000e+008   1.0036743835e-004  -1.0750270835e-003   9.9244085455e-001  -7.1557389312e-003   9.9959614567e-001  -2.2734797575e-003  -2.3830970491e-004  -1.2528179535e-003
  7.0536250000e+008  -2.1469240350e-004  -1.1464373692e-003   9.9310711728e-001  -8.1159833474e-003   1.0003053780e+000  -2.3587708302e-003  -4.1824912338e-004  -1.3604165707e-003
  7.1395000000e+008  -6.6713965321e-004  -1.0722319672e-003   9.9169883972e-001  -7.9010128762e-003   1.0002379313e+000  -2.2952087053e-003  -5.5559911634e-004  -1.3240978674e-003
  7.2253750000e+008  -1.1753471111e-003  -9.1503078177e-004   9.9063003485e-001  -8.3303868770e-003   9.9977221577e-001  -2.7025239910e-003  -8.8871522064e-004  -1.1296486042e-003
  7.3112500000e+008  -1.2152449083e-003  -4.3090509559e-004   9.9244538747e-001  -7.7162104921e-003   1.0005701811e+000  -1.6030307385e-003  -9.9927083833e-004  -9.2866376135e-004
  7.3971250000e+008  -1.1969329841e-003  -7.9327247082e-005   9.9156694700e-001  -8.6225580098e-003   9.9976878052e-001  -2.5666795771e-003  -1.2399462924e-003  -8.3423971799e-004
  7.4830000000e+008  -9.7426181865e-004   4.7153813064e-004   9.9307582398e-001  -8.0835157743e-003   9.9989032025e-001  -2.4498826370e-003  -1.0885472983e-003  -5.6125001655e-004
  7.5688750000e+008  -7.1467136699e-004   6.7825884950e-004   9.9106701983e-001  -7.7128899976e-003   9.9957670675e-001  -2.9177266855e-003  -1.1785318364e-003  -1.9172305487e-004
  7.6547500000e+008  -3.0909051631e-004   9.1576471329e-004   9.9200585814e-001  -8.4747675357e-003   9.9970699144e-001  -2.5583365416e-003  -1.1181064647e-003   9.2363142176e-005
  7.7406250000e+008   3.5514765677e-006   8.6789860505e-004   9.9184613365e-001  -8.8330178479e-003   9.9975349355e-001  -2.5036898749e-003  -6.8405715406e-004   2.4581467129e-004
  7.8265000000e+008   3.6859597153e-004   5.9310444029e-004   9.9109345237e-001  -8.0200910531e-003   9.9960967160e-001  -2.3182564028e-003  -6.5963318052e-004   6.4579551481e-004
  7.9123750000e+008   6.4679556574e-004   3.4510004128e-004   9.9228079602e-001  -7.1351950931e-003   9.9940824317e-001  -2.3936257947e-003  -5.3513967114e-004   7.1219096269e-004
  7.9982500000e+008   7.3946025740e-004   2.6869784860e-004   9.9225159532e-001  -8.1368578726e-003   1.0000296033e+000  -1.4166590289e-003  -4.2396916992e-004   7.9443475755e-004
  8.0841250000e+008   1.0460442287e-003   5.0595162056e-005   9.9189167606e-001  -8.8950767905e-003   1.0002949938e+000  -2.0366526618e-003  -3.0688871335e-004   9.2292794810e-004
  8.1700000000e+008   1.1088754939e-003  -1.8586572283e-004   9.9249574160e-001  -8.1897415211e-003   1.0002756543e+000  -2.0943183607e-003  -2.3340565081e-004   8.8233904076e-004
  8.2558750000e+008   1.1079504663e-003  -4.6425865460e-004   9.9344829890e-001  -7.4540730621e-003   1.0003058580e+000  -2.8797343896e-003  -2.7464161738e-004   1.0800984308e-003
  8.3417500000e+008   9.6864796807e-004  -1.1239295638e-003   9.9283908230e-001  -7.4620741425e-003   1.0012605842e+000  -2.8065421898e-003  -1.4599020858e-004   1.1710704934e-003
  8.4276250000e+008   6.2908720749e-004  -1.3822167266e-003   9.9108292063e-001  -8.7762146862e-003   1.0001899299e+000  -2.4473983876e-003   1.6644409182e-004   1.1379523172e-003
  8.5135000000e+008   1.3724119371e-004  -1.2375971263e-003   9.9183391376e-001  -7.6101438402e-003   1.0004805652e+000  -2.0182288561e-003   2.4051123214e-004   1.1706682634e-003
  8.5993750000e+008  -1.7532525170e-004  -1.3690509232e-003   9.9223873782e-001  -6.4178349600e-003   1.0002705299e+000  -2.8301441046e-003   3.2083777140e-004   9.2121171716e-004
  8.6852500000e+008  -5.6230129671e-004  -9.8679713079e-004   9.9019101774e-001  -8.9168160574e-003   9.9962561679e-001  -2.6580307402e-003   5.2095740207e-004   6.4411681904e-004
  8.7711250000e+008  -4.8643590926e-004  -5.9215640157e-004   9.9199018518e-001  -8.5360320231e-003   9.9976891763e-001  -3.2250677917e-003   4.1220201443e-004   2.8881248972e-004
  8.8570000000e+008  -4.2537193687e-004  -4.2983690815e-004   9.9340464203e-001  -6.6105981495e-003   9.9993852070e-001  -3.8502318425e-003   4.7574861349e-004   1.6993217006e-004
  8.9428750000e+008  -2.6348709720e-004  -1.8130155993e-004   9.9078277554e-001  -9.1718198679e-003   9.9952930825e-001  -3.9572808155e-003   1.7463827545e-004  -2.8617905027e-004
  9.0287500000e+008  -2.8545450503e-005  -2.8445729603e-004   9.9329065113e-001  -8.7612781245e-003   9.9935864140e-001  -3.5126397934e-003  -8.7313945789e-005  -4.3139741321e-004
  9.1146250000e+008   3.7085864731e-004  -1.3762954714e-004   9.9172016540e-001  -9.0841211422e-003   9.9860026479e-001  -3.3040785165e-003  -5.2129045544e-004  -4.0494407242e-004
  9.2005000000e+008   3.4150315674e-004  -4.1333675024e-004   9.9100505139e-001  -8.7845605695e-003   9.9900783968e-001  -2.4522586058e-003  -7.3550132499e-004  -5.5260675429e-004
  9.2863750000e+008   5.4106176290e-004  -5.9638347600e-004   9.9332272166e-001  -7.8096544623e-003   9.9923818454e-001  -3.4777050212e-003  -8.0987698889e-004  -5.1843948916e-004
  9.3722500000e+008   3.6454202718e-004  -7.7496240376e-004   9.9371663499e-001  -7.9064045796e-003   9.9897286906e-001  -3.3961308235e-003  -1.1232310441e-003  -7.2342062229e-004
  9.4581250000e+008   3.3440770143e-004  -1.2235411148e-003   9.9218365448e-001  -8.0669578177e-003   9.9961755873e-001  -2.1637592388e-003  -1.3011717509e-003  -4.3590124028e-004
  9.5440000000e+008  -7.1728493186e-005  -1.2704271071e-003   9.9127029680e-001  -9.4578876816e-003   1.0001844518e+000  -2.9526319023e-003  -1.4824251669e-003  -3.6275320657e-004
  9.6298750000e+008  -3.3707699738e-004  -1.4009965792e-003   9.9333827354e-001  -7.2256399347e-003   9.9987956739e-001  -3.5409570047e-003  -1.5484350626e-003   3.1112520082e-005
  9.7157500000e+008  -5.7874346992e-004  -1.2665155364e-003   9.9282753735e-001  -8.0455258991e-003   1.0005665327e+000  -3.8664373800e-003  -1.3774819559e-003  -4.0010551049e-006
  9.8016250000e+008  -8.9802083724e-004  -1.0774667991e-003   9.9220838875e-001  -7.9812403380e-003   9.9952993555e-001  -4.1122635424e-003  -1.3180804555e-003   9.3165752347e-005
  9.8875000000e+008  -1.0365194322e-003  -6.8700999303e-004   9.9307931586e-001  -7.6979074004e-003   9.9927473082e-001  -2.9893901084e-003  -1.2427926567e-003   1.6752540026e-004
  9.9733750000e+008  -1.1439215421e-003  -3.5078939213e-004   9.9136822579e-001  -9.1399158534e-003   9.9959453900e-001  -2.6846571172e-003  -1.1182853777e-003   2.1520943344e-004
  1.0059250000e+009  -1.0168437331e-003   2.8340505640e-005   9.9274821373e-001  -7.4887726046e-003   1.0000260273e+000  -2.6136410318e-003  -6.7482933525e-004   1.6373711633e-004
  1.0145125000e+009  -8.1433749694e-004   4.2856343762e-004   9.9131633432e-001  -1.0278711569e-002   9.9981170539e-001  -3.1782662788e-003  -3.6669815281e-004   2.9808836156e-004
  1.0231000000e+009  -5.6206273428e-004   4.5023892485e-004   9.9172864230e-001  -7.4960528405e-003   9.9925290584e-001  -3.6200607232e-003  -1.5540374910e-004   2.2029880614e-004
  1.0316875000e+009  -2.1509814605e-004   7.0365734976e-004   9.9115855744e-001  -7.3778551873e-003   9.9966237323e-001  -3.4940073529e-003   1.0978293447e-004   1.6324856812e-005
  1.0402750000e+009   3.1723767131e-004   6.8540000025e-004   9.9159504185e-001  -8.6804048605e-003   1.0000970325e+000  -2.9774222714e-003   3.7982813434e-004  -1.2107461338e-004
  1.0488625000e+009   4.6670666223e-004   5.2886879849e-004   9.9204173942e-001  -9.0516542914e-003   9.9898649955e-001  -3.1726951800e-003   6.1094159199e-004  -3.7942240674e-004
  1.0574500000e+009   6.3262583971e-004   2.4557657139e-004   9.9196277483e-001  -8.6761072672e-003   9.9989817781e-001  -3.3181219711e-003   8.0554997002e-004  -5.4475978925e-004
