# Hz S RI R 50.000000
! Metas.Vna.Tools, 2.8.8664.20301
! Metas.Vna.Data, 2.8.8664.20285
! Created: UTC 2024.02.11 10:08:09
! FREQ                re:S1,1             im:S1,1             re:S2,1             im:S2,1             re:S1,2             im:S1,2             re:S2,2             im:S2,2          
  1.3000000000e+008   3.3071598926e-004  -1.7655845966e-004   9.9634347060e-001  -3.0623184820e-003   1.0003499662e+000  -2.1941215540e-003   3.6379188590e-004   6.2267121799e-004
  1.3858750000e+008  -9.8796982893e-004  -9.9257812012e-004   9.9619944571e-001  -3.5272870082e-003   1.0002857802e+000  -1.0775536795e-003   5.9173332103e-004  -6.0170338387e-006
  1.4717500000e+008  -1.0993444772e-003  -8.3018853518e-004   9.9648834975e-001  -4.8621990342e-003   1.0001106604e+000  -1.9223421231e-003   3.7903280284e-004   1.3684107999e-004
  1.5576250000e+008  -5.1007978855e-004   4.9919420422e-004   9.9948823348e-001  -2.3410197863e-003   1.0005282560e+000  -1.2124864576e-003   4.8249457251e-004  -6.4150092011e-004
  1.6435000000e+008  -5.0551395819e-004   7.6803343635e-004   9.9889667264e-001  -3.0088468607e-003   1.0008105458e+000  -2.5181051524e-003   8.5310755074e-005   4.3464947521e-005
  1.7293750000e+008  -4.2179123117e-004   4.5994533870e-004   9.9594625997e-001  -2.8276309374e-003   9.9973031878e-001  -1.8714270787e-003   1.2454790654e-004  -8.2992191164e-004
  1.8152500000e+008  -1.7825521272e-004   4.4574049184e-004   9.9567972559e-001  -4.4871112217e-003   1.0001753212e+000  -2.2319664692e-003   6.6553575059e-005  -6.0961920597e-004
  1.9011250000e+008  -5.0499986021e-004   2.5119022187e-004   9.9993417902e-001  -2.2728860996e-003   1.0008337293e+000  -1.7026226525e-003   2.8908895969e-004  -1.0743736346e-003
  1.9870000000e+008  -1.9586963617e-004   4.2687393093e-004   9.9888544906e-001  -2.9727648832e-003   1.0007457807e+000  -2.4235884437e-003   1.8712001218e-004   1.7591390147e-004
  2.0728750000e+008   3.4878283457e-004  -2.9350469902e-004   9.9775915031e-001  -3.4034782343e-003   1.0008227355e+000  -2.4542077614e-003   3.2887602562e-004   2.4370505358e-004
  2.1587500000e+008   2.0207152280e-004  -3.3644542959e-004   9.9982348807e-001  -3.4463426798e-003   9.9963322033e-001  -1.9455261198e-003  -5.0436268516e-004   3.3844979772e-004
  2.2446250000e+008   2.6122450053e-004  -3.8311973451e-004   9.9911704581e-001  -2.9275757785e-003   1.0001392425e+000  -1.5999695761e-003  -1.3803903834e-004   1.3694602137e-005
  2.3305000000e+008   6.7436313067e-005  -1.9452680850e-004   9.9872251975e-001  -2.6320203513e-003   1.0004224233e+000  -2.0132186185e-003   1.3231606218e-005   4.4869502411e-004
  2.4163750000e+008  -1.0042729201e-004  -4.4756673961e-004   9.9852137997e-001  -4.5802138961e-003   1.0000812816e+000  -2.4805576362e-003  -4.1647050360e-004   2.4027750248e-004
  2.5022500000e+008  -5.5585666084e-004  -6.2325255909e-004   1.0003253017e+000  -1.6808816999e-003   9.9951393034e-001  -2.3795464101e-003  -5.3470498402e-004   7.3988918488e-004
  2.5881250000e+008  -2.3766580005e-004  -4.5182365992e-004   9.9860847138e-001  -2.3054122725e-003   1.0001129806e+000  -3.0799631566e-003  -5.7294629805e-004   5.4073658318e-004
  2.6740000000e+008  -8.1369838491e-004  -2.1039604753e-004   9.9846671219e-001  -3.4774132374e-003   1.0000295012e+000  -2.8003361646e-003  -3.0427273804e-004   2.4631001569e-004
  2.7598750000e+008  -1.1899406597e-004  -1.9168246434e-004   9.9709815637e-001  -3.7062758124e-003   1.0008731383e+000  -2.6886441855e-003  -3.1575386282e-004   5.6602005067e-004
  2.8457500000e+008  -6.5774683334e-004  -1.2545992617e-004   9.9769108098e-001  -3.3038360634e-003   1.0009904232e+000  -2.0628479010e-003   6.5616412055e-005  -9.6737284898e-005
  2.9316250000e+008  -2.9511150640e-004  -2.8916475374e-004   9.9548219980e-001  -3.6875431782e-003   1.0002195963e+000  -2.7157665992e-003   5.5105674143e-005  -9.9350553269e-005
  3.0175000000e+008  -5.4868265247e-004   1.7297057248e-004   9.9531101961e-001  -5.3689474351e-003   1.0004069751e+000  -1.9054886932e-003  -2.5336923683e-004   1.7086360255e-004
  3.1033750000e+008  -3.7233420118e-004   1.6243768120e-004   9.9563960863e-001  -3.8754467558e-003   1.0011578533e+000  -2.8837540089e-003  -4.3659043001e-004   4.6053738770e-004
  3.1892500000e+008  -5.6411412683e-004   1.3624832726e-005   9.9467858712e-001  -5.0080779331e-003   1.0006552623e+000  -2.2510016522e-003  -6.0994706172e-004   2.4153873192e-004
  3.2751250000e+008  -4.6384836743e-004  -1.6482368036e-005   9.9887696595e-001  -4.6095361661e-003   9.9996589437e-001  -3.5394824897e-003  -5.9476290033e-004   1.6055943453e-004
  3.3610000000e+008  -1.9275163341e-004   2.4929371108e-004   9.9765637179e-001  -3.4259716308e-003   1.0018952579e+000  -3.2884983836e-003  -4.0178352310e-004  -7.7691322001e-006
  3.4468750000e+008  -5.3909266281e-004   3.5785142862e-004   9.9743251944e-001  -3.3594299382e-003   1.0003604245e+000  -2.3480005858e-003  -3.6840465267e-004  -4.8887917019e-005
  3.5327500000e+008  -3.4764494827e-004   1.0457701645e-004   9.9696301473e-001  -3.5812638121e-003   9.9955397844e-001  -3.2492962553e-003  -7.6350623377e-004  -6.5721883818e-005
  3.6186250000e+008  -4.2172749022e-004   2.2466177301e-004   1.0003107976e+000  -4.4092406274e-003   1.0005529415e+000  -2.3342380434e-003  -5.3450320989e-004   1.4483943810e-004
  3.7045000000e+008  -4.1167885921e-004   3.3094114963e-004   9.9932302406e-001  -3.6317675373e-003   1.0006270709e+000  -3.3401234707e-003  -3.9450903713e-004   2.2941432690e-004
  3.7903750000e+008  -3.5938925793e-004   6.3100609532e-004   9.9800170864e-001  -2.7289945902e-003   1.0001503871e+000  -2.8480801992e-003  -1.4822269608e-004   3.2512314227e-004
  3.8762500000e+008  -5.0230273591e-004   3.2188839597e-004   1.0000241333e+000  -2.6385543052e-003   9.9969320701e-001  -2.8185893391e-003  -2.8832460794e-004   3.4389743249e-004
  3.9621250000e+008  -1.3668324144e-004   9.0907286334e-005   9.9978247849e-001  -2.6711924218e-003   1.0005606704e+000  -2.9138776207e-003  -4.8064949679e-004   7.2140436655e-004
  4.0480000000e+008   9.4800720872e-005   1.2479667500e-004   1.0002909628e+000  -3.6643267476e-003   1.0002762825e+000  -3.2571164392e-003   8.9395921479e-005   3.0274726115e-004
  4.1338750000e+008   1.9102551558e-004   2.1673383019e-004   9.9921110285e-001  -2.9146374414e-003   1.0004564490e+000  -3.0448017991e-003   1.6878513308e-004   2.5215945019e-004
  4.2197500000e+008  -1.7675210084e-004  -2.0924862018e-005   9.9927209959e-001  -4.4217310705e-003   1.0002313358e+000  -2.7711066916e-003   6.5489498985e-006   7.5770558694e-004
  4.3056250000e+008   1.2624273119e-004   7.8326655535e-006   9.9985485884e-001  -3.1101846536e-003   1.0004070104e+000  -3.0840479556e-003   4.6781339972e-004   3.5373383455e-004
  4.3915000000e+008   9.0565081159e-005  -6.5279366513e-005   1.0023156777e+000  -2.3866806361e-003   1.0002917020e+000  -3.0822593253e-003   5.4832494769e-004   2.4749515719e-004
  4.4773750000e+008   1.7538014880e-004  -2.7701843397e-004   1.0011052149e+000  -3.6340613127e-003   1.0002346932e+000  -3.3157043254e-003   6.1412334997e-004   2.5110469245e-004
  4.5632500000e+008  -1.5881401611e-004  -1.7791290237e-004   9.9952667989e-001  -2.2061281761e-003   9.9994556800e-001  -3.4640384085e-003   6.6387497238e-004   1.2125926040e-004
  4.6491250000e+008  -2.6976407093e-004  -1.4267765829e-004   9.9958959060e-001  -4.2976408233e-003   1.0000459478e+000  -3.0932303492e-003   5.9848325984e-004  -3.3288478800e-005
  4.7350000000e+008  -2.2387609390e-004  -3.5239493417e-004   9.9696321887e-001  -4.2648509446e-003   1.0001902339e+000  -3.4009515529e-003   4.1857119583e-004  -8.5950541255e-006
  4.8208750000e+008  -2.4499829807e-004   5.2079464777e-005   9.9663545405e-001  -4.5973067834e-003   9.9992019797e-001  -2.9544837094e-003   6.5544783943e-004   4.6541156712e-005
  4.9067500000e+008  -1.8319977422e-004  -2.6165663101e-004   9.9606495115e-001  -4.1566713251e-003   9.9990183756e-001  -3.1699269299e-003   2.4195920103e-004  -1.2262158767e-004
  4.9926250000e+008  -1.5103220966e-004  -5.0480716801e-004   9.9676043072e-001  -4.1244874478e-003   9.9996582599e-001  -2.9787507702e-003   5.3514978070e-004   3.3259034488e-006
  5.0785000000e+008  -4.4893177658e-004  -2.9141421292e-004   9.9584428901e-001  -3.4209414246e-003   9.9953331758e-001  -2.3667474068e-003   4.0291345273e-004   3.5416839319e-004
  5.1643750000e+008  -8.0409694576e-004  -1.0547813634e-004   9.9528612651e-001  -3.7357244586e-003   1.0003876847e+000  -3.0298559350e-003   6.9568115603e-004   1.9490287212e-004
  5.2502500000e+008  -3.6529472384e-004   4.6231111435e-004   9.9814756852e-001  -3.5272842754e-003   1.0005854040e+000  -2.0594052928e-003   2.5570601960e-004  -3.8394170192e-004
  5.3361250000e+008   2.5448699490e-004   4.4104371126e-004   9.9899365733e-001  -4.6133529682e-003   1.0006041532e+000  -2.8526368599e-003   3.4328541834e-005  -6.5459115557e-004
  5.4220000000e+008   5.0383959193e-004   1.8676719177e-004   9.9787874001e-001  -3.5224957716e-003   1.0010281746e+000  -3.0008420980e-003  -6.7104198925e-004  -2.5100862479e-004
  5.5078750000e+008   3.7878126576e-004  -3.7050802621e-004   9.9884448707e-001  -5.3757889907e-003   1.0003935980e+000  -3.1817974741e-003  -8.0738720288e-004  -3.1538231652e-004
  5.5937500000e+008   2.9438567809e-004  -4.3628576552e-004   9.9766568555e-001  -3.8642249818e-003   1.0006487437e+000  -3.4472571122e-003  -9.2391215176e-004   1.1334007588e-004
  5.6796250000e+008   2.4145651295e-004  -5.4021036908e-004   9.9819849445e-001  -4.0116830882e-003   9.9985967573e-001  -3.3403671351e-003  -8.5685472994e-004   3.8068535335e-004
  5.7655000000e+008  -1.3763625817e-004  -9.8153012851e-004   9.9792553798e-001  -5.9490130748e-003   1.0006200403e+000  -3.7160456041e-003  -6.6529741063e-004   7.5714516726e-004
  5.8513750000e+008  -3.2457109978e-004  -6.5621276962e-004   9.9692144612e-001  -4.5579139267e-003   9.9935605188e-001  -2.9664480665e-003  -6.2135087984e-004   7.6765861156e-004
  5.9372500000e+008  -5.1105910092e-004  -7.1628621573e-004   9.9629014453e-001  -4.8426026811e-003   1.0004808735e+000  -3.9038143650e-003  -3.8818696684e-004   8.2444377453e-004
  6.0231250000e+008  -7.6791732383e-004  -2.5256366478e-004   9.9717844465e-001  -3.9002563243e-003   1.0000583109e+000  -2.7176701578e-003  -2.0070579380e-004   8.5548013617e-004
  6.1090000000e+008  -5.4697127824e-004  -2.1859284396e-004   9.9728980073e-001  -4.9582199806e-003   9.9934270537e-001  -3.2887756289e-003  -3.8909393812e-004   7.9419560225e-004
  6.1948750000e+008  -5.9321571416e-004   6.8866967613e-005   9.9748898456e-001  -4.9905946793e-003   9.9978118189e-001  -3.2288002122e-003  -1.4148931535e-005   5.1622248010e-004
  6.2807500000e+008  -6.2203612697e-004   9.2194653900e-006   9.9782156751e-001  -4.5295325699e-003   1.0005688770e+000  -2.8316714598e-003   2.1436175777e-004   3.1126877493e-004
  6.3666250000e+008  -3.3004725900e-004   3.1405596701e-004   9.9952550339e-001  -4.5967290046e-003   1.0000392920e+000  -3.8021496058e-003   6.7006289562e-005   2.2798487190e-004
  6.4525000000e+008   5.0180767023e-005   2.7861431400e-004   9.9798841887e-001  -2.6226598523e-003   1.0004419877e+000  -3.6964318223e-003   4.5972497514e-004   7.0070602233e-005
  6.5383750000e+008   2.3377407233e-004   2.2048288396e-004   9.9620293007e-001  -4.7358935424e-003   1.0003555636e+000  -3.1113717024e-003   4.8990355533e-004  -2.6586191572e-004
  6.6242500000e+008   3.3552748941e-004   2.3333030239e-004   9.9488455899e-001  -5.4047432996e-003   1.0003229128e+000  -3.8000804323e-003   4.8776287880e-004  -3.1161132947e-004
  6.7101250000e+008   1.8355450104e-004  -3.4925571343e-006   9.9715060522e-001  -4.8816208920e-003   1.0003104016e+000  -2.4255834202e-003   2.5691335113e-004  -5.5319690181e-004
  6.7960000000e+008   4.4724744154e-004  -5.2310587684e-004   9.9623635007e-001  -3.6759219692e-003   1.0005791688e+000  -3.0626948630e-003   1.4247778591e-004  -9.5164738706e-004
  6.8818750000e+008   3.5849288950e-005  -6.5533256484e-004   9.9672509811e-001  -4.6529896074e-003   1.0003310891e+000  -3.7218809344e-003  -1.2046751595e-004  -1.0148135820e-003
  6.9677500000e+008   7.2410083568e-005  -6.2127624933e-004   9.9913373701e-001  -4.7393723040e-003   1.0003642603e+000  -3.9697180769e-003  -2.8897517146e-004  -1.0576503224e-003
  7.0536250000e+008  -2.1005383429e-004  -7.8075136135e-004   9.9772060460e-001  -4.5024831881e-003   9.9955145584e-001  -3.4197677487e-003  -2.8805632554e-004  -9.9462818937e-004
  7.1395000000e+008  -5.0549926707e-004  -6.4358348981e-004   9.9697463351e-001  -4.3064447144e-003   9.9998178251e-001  -3.7682578693e-003  -5.4125716399e-004  -9.5434660218e-004
  7.2253750000e+008  -8.7418585626e-004  -4.8100541406e-004   9.9637152346e-001  -4.7174513512e-003   9.9985587710e-001  -3.6581069184e-003  -6.2816361659e-004  -9.8392350013e-004
  7.3112500000e+008  -7.9772500488e-004  -1.6814377610e-004   9.9689289742e-001  -4.7578556679e-003   9.9999046718e-001  -3.3578184451e-003  -6.1367777877e-004  -7.3397985286e-004
  7.3971250000e+008  -7.5522156792e-004   1.3566072727e-004   9.9789357930e-001  -5.9306733922e-003   9.9929240611e-001  -4.3747189829e-003  -1.1901347049e-003  -3.9206872819e-004
  7.4830000000e+008  -5.7866907275e-004   5.1249426761e-004   9.9832820101e-001  -4.2700604194e-003   9.9945536940e-001  -3.8913288423e-003  -8.6860613210e-004  -4.1678689554e-004
  7.5688750000e+008  -4.2366379373e-004   5.3597059651e-004   9.9669648547e-001  -5.4712279133e-003   9.9930761229e-001  -3.5928570420e-003  -1.0505553014e-003  -6.1631318767e-005
  7.6547500000e+008   4.4370403876e-005   6.5852504036e-004   9.9774123248e-001  -4.7681831265e-003   9.9943577993e-001  -4.0962030177e-003  -9.9384520411e-004   1.6152579836e-004
  7.7406250000e+008   9.5953970637e-005   5.4196747501e-004   9.9624740036e-001  -5.4572236837e-003   1.0000672320e+000  -3.4990891708e-003  -5.0816218632e-004   5.4187617693e-004
  7.8265000000e+008   2.5804453113e-004   3.0144031218e-004   9.9685059667e-001  -4.6290808767e-003   9.9926171330e-001  -2.7252004438e-003  -3.5257104967e-004   7.0287296577e-004
  7.9123750000e+008   4.5665766497e-004   2.6418694568e-005   9.9779297528e-001  -3.6580628816e-003   9.9970874956e-001  -3.4884987630e-003  -2.5209982807e-004   4.6297220671e-004
  7.9982500000e+008   2.1519995601e-004   1.1282318778e-004   9.9780029562e-001  -4.9681061232e-003   1.0003242374e+000  -2.6725570034e-003  -6.0027586837e-005   7.4024514213e-004
  8.0841250000e+008   5.4874524826e-004   1.7460079246e-004   9.9655535016e-001  -5.0429619705e-003   1.0001556476e+000  -2.9104999699e-003   8.7381564867e-006   6.4987844816e-004
  8.1700000000e+008   7.7955050184e-004   1.1898364957e-004   9.9878526007e-001  -3.6741720358e-003   1.0002102292e+000  -3.0230772332e-003  -1.4325458183e-004   5.3874067257e-004
  8.2558750000e+008   9.8032536857e-004  -1.5179911074e-004   9.9903402993e-001  -3.5360459831e-003   1.0001852259e+000  -3.5292747327e-003  -2.3624761544e-004   6.0085407515e-004
  8.3417500000e+008   1.0545767886e-003  -6.4328950768e-004   9.9851983034e-001  -4.8698785397e-003   1.0011480429e+000  -4.0034037516e-003  -2.3275992646e-005   8.1608200428e-004
  8.4276250000e+008   6.0667225360e-004  -8.1834578130e-004   9.9798081256e-001  -4.1400317152e-003   1.0002386736e+000  -3.8935622233e-003  -1.4870552258e-004   9.0284537459e-004
  8.5135000000e+008   3.3825184055e-004  -1.0724800687e-003   9.9991010634e-001  -4.1066977670e-003   1.0006517782e+000  -4.1971300335e-003   4.6318882928e-006   1.0461160023e-003
  8.5993750000e+008  -5.5679731999e-005  -1.0899505482e-003   9.9841039858e-001  -5.6392142850e-003   1.0001024722e+000  -4.3588030510e-003   2.5744160311e-004   8.6014901851e-004
  8.6852500000e+008  -3.8905946010e-004  -7.7121914909e-004   9.9764259820e-001  -4.6951535013e-003   1.0001266621e+000  -4.3096048532e-003   4.8964578997e-004   7.0375289192e-004
  8.7711250000e+008  -4.6504683706e-004  -5.4865457259e-004   9.9800883499e-001  -5.0785194874e-003   1.0002003117e+000  -4.8199564735e-003   5.6617944424e-004   1.9296672438e-004
  8.8570000000e+008  -5.1712863508e-004  -3.7993168961e-004   1.0005394274e+000  -4.5290018272e-003   9.9946329587e-001  -4.7896537033e-003   4.9269232131e-004   4.6687584643e-005
  8.9428750000e+008  -2.7674213015e-004  -2.3139155030e-004   1.0001051254e+000  -5.6771277025e-003   1.0003856018e+000  -4.0780857290e-003   3.1389233481e-004  -2.3040963244e-004
  9.0287500000e+008  -1.0833181234e-004  -9.2349635660e-005   9.9990629072e-001  -4.4321864543e-003   9.9911057805e-001  -5.0288665827e-003   6.5927702865e-005  -3.5588096709e-004
  9.1146250000e+008   2.6009437707e-005  -1.2957946021e-004   9.9859447704e-001  -5.2013260028e-003   9.9961103596e-001  -4.7834746670e-003  -2.5494629092e-004  -3.1992686301e-004
  9.2005000000e+008   8.2944389199e-005  -2.1190706155e-004   9.9684641836e-001  -4.0413288064e-003   9.9860702310e-001  -2.8740083504e-003  -4.9179163990e-004  -4.2618484918e-004
  9.2863750000e+008   4.2311013299e-004  -3.4683080822e-004   9.9897858794e-001  -3.7364818237e-003   9.9959919414e-001  -4.7807902240e-003  -6.7685523983e-004  -5.5690171981e-004
  9.3722500000e+008   2.3634759466e-004  -5.8690051940e-004   9.9727831179e-001  -5.1370110024e-003   9.9903202502e-001  -4.6047709257e-003  -1.0274857928e-003  -5.1514000015e-004
  9.4581250000e+008   2.1899649666e-004  -7.1093506752e-004   9.9956713337e-001  -2.8146463166e-003   9.9881596435e-001  -4.7123496925e-003  -9.7888795094e-004  -3.1220334322e-004
  9.5440000000e+008  -1.2154943124e-004  -1.0962100512e-003   9.9715544394e-001  -5.4250551046e-003   9.9986619934e-001  -3.6381414302e-003  -1.2455556127e-003  -1.1195145644e-006
  9.6298750000e+008  -4.0538140297e-004  -9.3800295478e-004   9.9810946510e-001  -3.9909892293e-003   9.9938539523e-001  -4.6118971872e-003  -1.2570477722e-003   1.3950166922e-004
  9.7157500000e+008  -4.6541140574e-004  -9.6243741306e-004   9.9778315039e-001  -6.3634305258e-003   1.0003280852e+000  -4.6913796482e-003  -1.1368630814e-003   1.5012648208e-004
  9.8016250000e+008  -7.4653182249e-004  -7.3998004672e-004   9.9910413841e-001  -4.4229952727e-003   9.9953643150e-001  -5.3043050509e-003  -1.1164052484e-003   3.0903691641e-004
  9.8875000000e+008  -9.8780608015e-004  -5.2580271653e-004   1.0008240901e+000  -3.8502626283e-003   9.9914878379e-001  -3.9198643614e-003  -9.8598300456e-004   3.7017791207e-004
  9.9733750000e+008  -1.0156049693e-003  -2.2696514423e-004   9.9655932353e-001  -4.1752677355e-003   9.9954426961e-001  -3.9389074402e-003  -7.6413600779e-004   2.8588704219e-004
  1.0059250000e+009  -8.3238605045e-004   2.0365690116e-004   9.9864932558e-001  -3.9363018672e-003   1.0000844777e+000  -3.4682227700e-003  -4.3313109027e-004   1.2820731552e-004
  1.0145125000e+009  -7.3965783255e-004   4.5291071255e-004   9.9879153679e-001  -7.3032801932e-003   9.9980398678e-001  -3.7931433675e-003  -1.5358319026e-004   3.4446294557e-004
  1.0231000000e+009  -4.4312728898e-004   4.7671918952e-004   9.9650893141e-001  -4.6546057133e-003   9.9932309501e-001  -4.2512920076e-003   7.2914776764e-005   2.8748078626e-004
  1.0316875000e+009  -2.1460844927e-004   8.0302848675e-004   9.9867049096e-001  -5.1899177264e-003   9.9937373260e-001  -4.8463538945e-003   1.6293292566e-004   1.7590539015e-004
  1.0402750000e+009   1.1045641982e-004   7.3542566388e-004   9.9989445858e-001  -5.2307098087e-003   9.9929375344e-001  -3.7778279479e-003   4.4311116406e-004   2.1322546987e-005
  1.0488625000e+009   3.5443485900e-004   5.6737375005e-004   1.0005656521e+000  -4.8338490788e-003   9.9911923985e-001  -4.2794111678e-003   6.2949674550e-004  -2.6466100272e-004
  1.0574500000e+009   4.4681856399e-004   2.9585879314e-004   9.9915911539e-001  -5.3746027996e-003   9.9938555803e-001  -4.2147407090e-003   6.8236575207e-004  -4.6401544403e-004
