# Hz S RI R 50.000000
! Metas.Vna.Tools, 2.8.8664.20301
! Metas.Vna.Data, 2.8.8664.20285
! Created: UTC 2024.02.11 10:08:07
! FREQ                re:S1,1             im:S1,1             re:S2,1             im:S2,1             re:S1,2             im:S1,2             re:S2,2             im:S2,2          
  1.3000000000e+008   3.9918463049e-004   1.4247646580e-004   1.0007558556e+000  -1.1727557047e-003   9.9964258364e-001  -3.9788323112e-004   3.0052675697e-004   1.0474800053e-003
  1.3858750000e+008   3.5340116166e-004   2.0979383450e-004   1.0018922740e+000   8.6682304235e-005   9.9996883244e-001   4.6913114225e-005   2.3553417696e-004   1.7482776088e-004
  1.4717500000e+008  -6.0571458666e-004  -6.7202620861e-004   1.0014318774e+000  -1.4956349672e-003   9.9927562711e-001  -3.5130404302e-004  -4.4815769587e-004   4.5734883032e-004
  1.5576250000e+008   1.6647632171e-004   1.2083053048e-004   1.0026664592e+000   5.4082535857e-004   1.0000683921e+000   2.4064556798e-004   1.1253659801e-004  -1.3938102132e-004
  1.6435000000e+008  -1.4927024507e-004   3.2740830405e-004   1.0024126408e+000   2.9805600630e-004   9.9994050368e-001  -6.0924722285e-004  -8.0250587805e-005  -8.9454000102e-005
  1.7293750000e+008   6.0212465984e-005  -8.2234747558e-005   1.0020269204e+000   1.0636671643e-003   9.9978992252e-001  -4.4654345497e-005   2.1446105485e-004  -7.4035546183e-005
  1.8152500000e+008   3.0170284178e-004  -9.3001798399e-005   1.0014343176e+000   1.1102385941e-004   1.0000155088e+000  -2.8261937330e-004   4.6570457523e-005  -6.4899149950e-006
  1.9011250000e+008  -1.9075754414e-004   1.1907146957e-005   1.0021546705e+000  -1.0829507987e-003   1.0004203822e+000  -3.0762710357e-004   1.8985712804e-004   2.6897638563e-006
  1.9870000000e+008  -5.5905283027e-004   5.9930837246e-005   1.0015879073e+000  -3.2379062840e-004   1.0003026412e+000  -4.0362564890e-004   1.4684588566e-004  -1.6753376229e-004
  2.0728750000e+008   1.1365660877e-004   3.4683553725e-004   1.0014141753e+000   8.0324198913e-004   1.0004996574e+000  -5.4053651752e-004   2.5825234894e-004  -3.9317469041e-005
  2.1587500000e+008  -1.6191185960e-004  -4.7025515728e-004   1.0014843280e+000   7.4169095051e-005   9.9971819084e-001   4.3118372490e-007   1.6915718929e-004   1.1455038355e-005
  2.2446250000e+008  -1.3493469958e-004  -4.6120437138e-004   1.0022321498e+000   7.4207271809e-006   9.9967584634e-001  -3.7878181593e-004   1.4895202423e-004  -2.5468304591e-004
  2.3305000000e+008  -3.0424154961e-004   2.5456056490e-004   1.0007622118e+000   8.4883119576e-004   1.0005574000e+000  -4.3145461023e-004   1.5896819033e-004   4.0290154444e-005
  2.4163750000e+008  -1.1857846567e-005  -2.4615789708e-005   1.0018840325e+000   1.6897337544e-005   9.9912759901e-001  -8.2340301845e-004  -1.1164640203e-004  -4.6390778469e-005
  2.5022500000e+008  -1.9300571915e-004  -2.5561955635e-004   1.0014696592e+000   7.6299500014e-004   9.9973869740e-001  -3.5597356433e-004  -5.2701246439e-004   1.5203946490e-004
  2.5881250000e+008   4.9077540053e-005  -1.8257738532e-004   1.0006660633e+000   1.7363304239e-003   9.9983344544e-001  -6.7016155727e-004  -1.9780129037e-004   9.4444246415e-005
  2.6740000000e+008  -7.4195884331e-004  -2.9200115216e-004   1.0015400745e+000   2.0115789757e-004   9.9989995055e-001  -1.0683836401e-003   1.8907903919e-004  -4.8264858331e-004
  2.7598750000e+008   2.2898933599e-004   2.0179343825e-004   1.0003137670e+000  -1.4512841522e-004   1.0004040816e+000  -2.1318294736e-004  -1.7259534180e-005   1.7218965888e-004
  2.8457500000e+008  -1.6361187876e-004  -3.3743492962e-004   1.0017421789e+000   6.3612694645e-004   9.9988449003e-001   6.8096304723e-005   1.6548218494e-004   2.1941732534e-004
  2.9316250000e+008   1.3544275210e-004   4.7230055593e-006   1.0011223710e+000  -2.9809938684e-004   9.9954982263e-001   2.2728810007e-004   1.1150829153e-004  -2.4117466612e-006
  3.0175000000e+008  -1.7977610337e-004   4.0721024761e-004   1.0013439860e+000  -1.3206090211e-003   9.9999436660e-001   1.6706413759e-004   2.3557671687e-004   1.0956658523e-004
  3.1033750000e+008  -3.9098457509e-004   3.2720161738e-004   1.0019497829e+000   9.8978553944e-005   1.0012441699e+000  -4.1811378267e-004  -1.1373214131e-004   3.0917145260e-004
  3.1892500000e+008  -2.5609719226e-004   5.2737423044e-005   1.0009417948e+000  -2.4359835238e-006   9.9968658610e-001   4.3285307725e-004   1.1469481561e-004   1.2459947791e-004
  3.2751250000e+008  -7.7493031801e-005  -1.0412227564e-005   1.0011231719e+000  -7.6175415033e-004   1.0003523759e+000  -4.7444323931e-004   7.1517900079e-005   2.1830520572e-005
  3.3610000000e+008  -8.7881210345e-005   6.4966371144e-006   1.0015528515e+000   1.1860157795e-003   1.0009124888e+000  -8.1328658700e-004   6.7724984510e-005   6.7652730693e-007
  3.4468750000e+008  -1.6219771103e-004   2.3409863713e-004   1.0016623780e+000   3.1898564616e-004   9.9946017282e-001  -6.3912888796e-005   2.0881781580e-004   1.3397614746e-004
  3.5327500000e+008   4.7261557846e-005   1.3142287124e-004   1.0020252728e+000  -1.7583336534e-004   9.9955114769e-001  -9.7917427832e-004   2.6417576432e-004   7.0600767620e-005
  3.6186250000e+008   1.9700465348e-004  -3.8581333982e-005   9.9961402271e-001  -5.7429443818e-004   1.0002565877e+000   8.1766038408e-006   1.3316096411e-005   3.0822709678e-004
  3.7045000000e+008   1.7461218133e-004   1.4746366448e-004   9.9703001928e-001  -1.1829780403e-003   1.0002524438e+000  -6.3927999821e-004  -3.4621853207e-005   1.2307719206e-004
  3.7903750000e+008  -1.7109854146e-004   1.6952488376e-004   9.9729944224e-001  -5.6590070656e-004   1.0003297541e+000  -2.0201022430e-004   8.8524021497e-005  -9.8538960824e-005
  3.8762500000e+008  -2.3701997590e-004  -1.1580068971e-005   1.0013543582e+000   3.3761973651e-004   1.0004176665e+000  -4.3994420517e-004  -2.1666310515e-004   5.1879123946e-004
  3.9621250000e+008  -3.0406512206e-004  -1.2476445792e-004   1.0025884229e+000   2.5113839418e-004   9.9991644220e-001  -3.3854654491e-004  -2.2816932744e-004   1.1324582935e-004
  4.0480000000e+008  -5.8128835082e-005  -1.9086451266e-005   1.0037102389e+000  -3.2222974863e-004   1.0001706416e+000  -3.2283694166e-004   5.2946390864e-005  -2.9523048542e-004
  4.1338750000e+008  -8.6564110325e-005   3.0791794875e-005   1.0035023019e+000   1.4699188247e-003   1.0005632565e+000  -2.7900883191e-004   3.4874487626e-005   1.9460671111e-005
  4.2197500000e+008  -3.4343806946e-004  -2.7060630766e-004   1.0033280790e+000   7.5262683868e-004   1.0002005858e+000  -4.8727915985e-004   6.6222776285e-005   3.1546926519e-004
  4.3056250000e+008   1.1291398480e-005   1.9232814204e-004   1.0043271399e+000   6.5935731121e-004   9.9981066600e-001  -3.8507864293e-004   2.0139648567e-004   2.6778164317e-004
  4.3915000000e+008  -1.0860556181e-004   1.1913294526e-004   1.0051455455e+000   1.1182423520e-003   9.9997394980e-001  -7.1732997351e-004   2.2127870631e-004   1.5230115255e-004
  4.4773750000e+008   3.5778587059e-006   5.0366416143e-005   1.0046324124e+000   1.1052254818e-003   1.0004081884e+000  -6.3040751022e-004   2.2456108619e-004   5.7344221270e-005
  4.5632500000e+008   6.5565408077e-005  -2.3583618711e-005   1.0023987293e+000   1.1870340545e-003   1.0002351532e+000  -2.3076385260e-004   2.3544558335e-004   1.3114508872e-004
  4.6491250000e+008  -5.8102428396e-005   1.7184112180e-004   1.0031630724e+000  -4.6417771059e-004   9.9986507761e-001  -5.1993342585e-004   1.3673405245e-004   1.1502848734e-004
  4.7350000000e+008  -1.8661539306e-004   1.0059405153e-004   1.0028079451e+000  -4.3935045636e-005   1.0003627256e+000  -5.1535269220e-004   1.4705224896e-004   4.3161584640e-005
  4.8208750000e+008   1.2655413342e-005   1.5173656730e-004   1.0005001766e+000  -7.9910660720e-004   9.9973413937e-001  -3.0790261237e-004   4.9234628171e-004   1.5802911592e-004
  4.9067500000e+008   1.5624436656e-004  -1.4570524919e-004   9.9980722225e-001  -4.6699788733e-004   9.9993911338e-001  -1.0131578428e-003   8.8852012362e-005   6.6849840488e-005
  4.9926250000e+008   4.8599893612e-005  -2.3834841104e-004   1.0003283900e+000  -5.4154205186e-004   9.9969952036e-001  -4.2806372641e-004   3.2681854371e-004  -5.5549022522e-005
  5.0785000000e+008  -3.0516248218e-004  -2.1530928053e-004   1.0008062390e+000  -8.1082446956e-004   1.0000354160e+000  -9.6948068790e-005   1.1723696957e-004   1.1075256611e-004
  5.1643750000e+008  -1.0321055405e-004   2.9972054049e-005   1.0007336117e+000   4.4426085535e-004   1.0000830868e+000  -8.0961931117e-004   3.6937937091e-004   9.2000297250e-005
  5.2502500000e+008  -2.6788476983e-004   1.4869943161e-004   1.0000521341e+000   7.5066866071e-004   9.9996261468e-001  -2.8337231566e-004   7.2440277210e-005   7.7807831112e-005
  5.3361250000e+008  -3.4334517788e-005  -3.6454412745e-005   1.0023676264e+000  -1.4405495840e-004   1.0000992865e+000  -3.9666165320e-004   2.4140993212e-004  -7.9377441049e-005
  5.4220000000e+008   2.1059358421e-005   3.6029358711e-005   1.0005977681e+000  -1.3015587955e-004   1.0000516696e+000  -4.6753992766e-004  -1.0468426953e-004  -4.7762583145e-005
  5.5078750000e+008  -3.4923215811e-005  -1.8147012561e-004   1.0017136354e+000  -8.1922413516e-004   9.9969528077e-001  -1.5039514568e-004   1.3705717816e-005  -2.9922337432e-004
  5.5937500000e+008  -1.5092753136e-005  -9.5252931736e-005   1.0004056064e+000   1.4595773903e-004   9.9997289817e-001  -5.6950187686e-004  -1.6581127919e-004  -1.9470621000e-004
  5.6796250000e+008  -5.2470129474e-005   7.1383385606e-005   1.0018379468e+000   6.8033175147e-004   9.9960457238e-001  -2.2428510140e-004  -2.0379230361e-004  -8.1826739862e-005
  5.7655000000e+008  -2.2587379695e-004  -4.3891699498e-005   1.0016180709e+000  -8.6236822336e-004   1.0004239050e+000  -5.9623572003e-004   1.7152262755e-005   1.4149359794e-004
  5.8513750000e+008  -1.1012582645e-004   5.4550435782e-005   1.0004592354e+000  -5.9589112882e-004   9.9940765015e-001  -3.1001460486e-004  -5.1618848092e-005   3.3872873830e-004
  5.9372500000e+008  -1.2570721163e-004   9.5098028386e-005   1.0004274937e+000  -5.1326626522e-004   1.0003139451e+000  -8.8850982553e-004   4.8042834552e-005   2.3485084805e-004
  6.0231250000e+008  -3.4695300686e-004   1.8139805101e-004   1.0016967040e+000   7.9696017642e-004   9.9964017430e-001  -8.7813016678e-004   8.0190944070e-005   6.2778964745e-005
  6.1090000000e+008  -2.1282303772e-004   2.7389841543e-005   1.0014545719e+000  -9.3243227441e-004   9.9990036964e-001   3.3529223462e-006  -1.2427460082e-004   2.3680430054e-004
  6.1948750000e+008  -2.1833226704e-004   3.3499040028e-005   1.0015238178e+000   5.9656142309e-004   9.9996160770e-001  -3.5447094190e-004   5.1062280089e-006   2.8695591445e-004
  6.2807500000e+008  -1.0749402940e-004  -1.3801792337e-004   1.0018933284e+000  -2.3225162190e-003   1.0006515684e+000  -5.4632996759e-004   1.6593921478e-004   1.0811400834e-004
  6.3666250000e+008  -3.2670612675e-004   1.7466210685e-004   1.0034867820e+000  -5.4309200782e-004   9.9985673891e-001  -8.3612971456e-004  -5.4736855754e-006  -8.7321881486e-006
  6.4525000000e+008  -1.0274129116e-004  -3.8779488446e-005   1.0032498103e+000   3.2278188821e-004   9.9969578847e-001  -6.3994842583e-004   9.3017885594e-005   1.2909023390e-004
  6.5383750000e+008  -9.5484762176e-005   3.9086710613e-005   1.0003831247e+000  -6.6575122891e-004   9.9951908203e-001  -1.9686552866e-004   1.8511722944e-004   6.5738904631e-005
  6.6242500000e+008  -1.4150660308e-004   4.2099034342e-005   1.0003470033e+000   3.4006756361e-004   9.9990363114e-001  -1.6242210138e-003   1.4469956482e-004  -3.4446181268e-005
  6.7101250000e+008  -2.2764380226e-004   7.6049356162e-005   1.0018077029e+000   1.0814293128e-003   9.9992768354e-001   3.5939029004e-004   4.9012543019e-005  -9.8242608413e-005
  6.7960000000e+008   5.0152605996e-005  -2.7189629567e-005   1.0021997479e+000  -1.2501390659e-003   1.0000639789e+000  -5.7378456080e-004   1.5035281106e-004  -1.5416776327e-004
  6.8818750000e+008  -4.3423677871e-004  -6.1509309602e-006   1.0017395393e+000   1.2069380444e-003   1.0004589720e+000  -1.1393801289e-003   8.1375520101e-005  -8.8618385182e-005
  6.9677500000e+008   2.4943349061e-006   3.9835179045e-005   1.0022222140e+000   8.0057841609e-004   1.0006012454e+000  -6.1869459530e-004   2.0121281830e-004  -4.1337349830e-005
  7.0536250000e+008  -5.9481992623e-006  -2.7706315375e-005   1.0007749061e+000  -3.7440280093e-004   9.9992247958e-001  -5.6414321023e-004   2.4619404180e-005  -1.7743184033e-004
  7.1395000000e+008  -2.1308488702e-004   1.4164078415e-004   1.0020112529e+000  -3.4180409983e-004   1.0002147628e+000  -7.7092061661e-004  -1.7345540958e-005   3.6783172920e-005
  7.2253750000e+008  -2.3420698659e-004   8.0617154148e-005   1.0009427645e+000  -1.6117414532e-004   9.9991499736e-001  -8.2124531868e-004  -5.5630754719e-005  -1.2982488511e-005
  7.3112500000e+008  -1.0708484616e-004   1.4417869356e-004   1.0016120182e+000   9.0638784385e-004   1.0004531708e+000  -4.5642471201e-004  -1.4224907057e-004   2.5463256386e-005
  7.3971250000e+008  -4.4654206960e-005   1.1639893912e-004   1.0026861810e+000  -1.3903639699e-003   1.0000548273e+000  -1.4380203584e-003  -1.8986542513e-004  -3.4677336368e-005
  7.4830000000e+008  -2.7625602272e-005   2.4740102017e-004   1.0007816248e+000   4.7420038802e-004   1.0000208284e+000   7.4910585026e-005  -1.0865186734e-005  -4.1801627599e-005
  7.5688750000e+008   2.6248463465e-005   1.9295555913e-004   1.0010258503e+000  -9.5148929460e-004   9.9960454058e-001  -1.8214167271e-005  -7.4950769759e-005  -2.9914242266e-005
  7.6547500000e+008   2.3568234753e-004   1.9614562026e-004   1.0012116599e+000  -1.2246838195e-003   9.9957917957e-001  -5.2206053108e-004  -2.6621270747e-004   7.3154691303e-005
  7.7406250000e+008   2.5059771553e-004   1.1462723403e-004   1.0014017612e+000  -3.2855455439e-004   1.0000003958e+000  -1.5846087287e-004  -8.8010999001e-005   9.0091829404e-006
  7.8265000000e+008   8.5920290452e-005  -5.2741428620e-005   1.0023405233e+000  -4.5525670360e-005   1.0002009891e+000  -5.2395046491e-004  -1.5789696588e-004   2.7299102767e-004
  7.9123750000e+008   2.0767379286e-004  -1.1214339945e-004   1.0013390888e+000   4.4492566322e-004   9.9937076911e-001  -8.2202234003e-004  -1.8752534648e-004   8.3398159868e-005
  7.9982500000e+008   1.2280990969e-005   2.4659299138e-005   1.0021454328e+000   4.1361868636e-006   1.0007957136e+000   5.3825317863e-004  -1.3275903325e-004   1.2026269540e-004
  8.0841250000e+008  -1.2708702487e-005   1.2849662079e-004   1.0006624215e+000  -1.3110248770e-003   9.9973818933e-001  -1.7880896401e-004  -2.8298804592e-005   9.7043314735e-005
  8.1700000000e+008   1.2444539351e-004  -4.4361292636e-005   1.0016582430e+000  -6.4104420679e-004   1.0003943144e+000  -7.6704181448e-004  -5.8216897214e-005   1.2080785559e-004
  8.2558750000e+008   1.1843903442e-004   1.2853471527e-004   1.0029497973e+000   1.1786128370e-004   1.0004030082e+000  -5.8152112816e-004  -2.4670549697e-004   9.5983509506e-005
  8.3417500000e+008   1.0775100832e-004  -2.0918613535e-004   1.0022502121e+000  -1.0167853513e-003   1.0007792657e+000  -5.4137947094e-004  -9.5200868472e-005   2.2276501353e-004
  8.4276250000e+008   1.3916838612e-005  -9.0375222182e-005   1.0001339781e+000  -7.2008042821e-004   9.9948405922e-001  -1.1676866989e-003  -4.7216463500e-005  -3.6902366052e-005
  8.5135000000e+008  -9.6522416629e-005  -1.0985798430e-004   1.0014422957e+000   8.6100658471e-004   1.0008824120e+000   1.8280598658e-004  -1.3427380033e-004   2.3827558413e-004
  8.5993750000e+008   2.7755762279e-005  -2.1011870492e-004   1.0020117948e+000   9.5885463192e-004   1.0000766554e+000  -6.8667578987e-004  -1.8294170424e-004   2.9441662623e-004
  8.6852500000e+008  -2.3481599324e-004  -1.1754870838e-004   9.9981940470e-001  -1.2136939162e-003   9.9996867385e-001  -1.6676777711e-004   2.8137276384e-005   1.3643919009e-004
  8.7711250000e+008  -1.9280860578e-004  -1.8706486251e-004   1.0001668462e+000   5.4388213646e-006   1.0002159339e+000  -9.3548572093e-004   9.4967021802e-005   2.8328800532e-005
  8.8570000000e+008  -1.2321239922e-004  -2.4880958866e-004   1.0025790449e+000   1.7670113788e-003   9.9996161624e-001  -1.1711258100e-003   1.3017234587e-004   3.9781240634e-005
  8.9428750000e+008  -2.7871000016e-004  -1.6019467360e-004   1.0017217623e+000   7.0448118826e-004   1.0002749839e+000  -1.1712277005e-003   5.9285161333e-005  -1.0769042775e-004
  9.0287500000e+008  -1.3554472536e-004  -2.1851920545e-004   1.0016160377e+000  -3.2402422770e-004   1.0000320662e+000  -1.5402045322e-003   7.9877768564e-005  -1.6676104444e-004
  9.1146250000e+008  -1.1012248006e-004  -9.4148944928e-005   1.0021876074e+000  -1.5240222861e-003   9.9970254254e-001  -1.6993612527e-003  -3.7981987469e-005  -1.2266862203e-004
  9.2005000000e+008  -3.3931269578e-004  -1.3261702700e-004   1.0016360891e+000   4.5252018927e-004   9.9924357510e-001  -4.5458716835e-004  -1.1425163726e-004  -9.3468014673e-005
  9.2863750000e+008  -2.1398126122e-004  -5.9600421897e-005   1.0019017837e+000   5.2832383105e-005   9.9926921380e-001  -1.1253539839e-003  -4.7610142215e-005  -1.1091898305e-004
  9.3722500000e+008  -2.7159118835e-004  -1.1985348068e-004   1.0029391182e+000  -7.7056697816e-004   9.9880280977e-001  -5.9281166761e-004  -1.2044821963e-004  -2.9538774811e-004
  9.4581250000e+008  -3.0661978113e-004  -8.9333528000e-005   1.0024521002e+000   1.6856499616e-003   9.9920217474e-001  -1.6192826911e-004  -1.8829268485e-004  -1.9012036116e-006
  9.5440000000e+008  -4.1753880727e-004  -1.8825739651e-004   1.0009534361e+000  -5.5424994219e-004   1.0002294008e+000  -4.1728341453e-004  -1.1243750789e-004  -3.1673133700e-005
  9.6298750000e+008  -4.1408826631e-004  -1.2359204791e-004   1.0025419566e+000  -7.6050077736e-004   9.9966862635e-001  -7.1722418777e-004  -2.8435773410e-004  -1.7859959848e-005
  9.7157500000e+008  -4.1909130613e-004  -8.9435316150e-005   1.0037204724e+000   7.0366882468e-005   1.0005508353e+000  -9.8572363904e-004  -2.2563598089e-004  -7.8827279391e-005
  9.8016250000e+008  -3.7569402091e-004  -6.3363168006e-005   1.0019157014e+000  -5.5610549621e-004   1.0001662100e+000  -2.4979459796e-003  -2.0264188276e-004   1.0756454160e-004
  9.8875000000e+008  -4.2219709938e-004   2.0540202537e-004   1.0022574837e+000  -2.6723939885e-004   9.9929242818e-001  -8.3301696293e-004  -1.9935224657e-004   9.3614517316e-005
  9.9733750000e+008  -3.2393643929e-004   2.1375172471e-004   1.0019675600e+000  -6.0773925495e-004   9.9940684955e-001  -2.8982932548e-004  -1.8937366304e-004   5.0099503253e-006
  1.0059250000e+009  -2.2517602228e-004   2.4440588374e-004   1.0033144762e+000  -1.1417256976e-004   9.9995271245e-001  -1.2226444973e-003  -8.3513967995e-005   7.6874035576e-005
  1.0145125000e+009  -2.6123734471e-004   3.8602004754e-004   1.0016561851e+000  -3.0587385759e-003   1.0004009259e+000  -4.7754168862e-004   3.0230973564e-005   1.6713206065e-004
  1.0231000000e+009  -2.5711405993e-004   3.5836400568e-004   1.0010127572e+000  -9.4184736658e-004   9.9936521644e-001  -9.0062239664e-004   6.5910463890e-005   1.2351940951e-004
  1.0316875000e+009  -1.7706910439e-004   4.0601445054e-004   1.0011639023e+000  -9.2458920112e-004   9.9908539813e-001  -1.4800557390e-003   1.3512426472e-004   4.1637764012e-005
  1.0402750000e+009  -1.6319808146e-004   5.1085209450e-004   9.9920493365e-001  -1.3906853101e-003   9.9981365037e-001  -1.9883718485e-004   1.9868989736e-004  -1.0879986681e-004
  1.0488625000e+009  -7.4055862755e-005   4.5131534297e-004   1.0005237354e+000  -1.6998490712e-003   1.0003140541e+000  -8.4256558031e-004   1.8588546651e-004  -2.4724878872e-005
  1.0574500000e+009  -1.2195539907e-004   3.1294703218e-004   9.9892345870e-001  -1.4537900669e-003   1.0004994024e+000  -1.0485579543e-003   1.7651181402e-004  -1.7612119387e-004
