# Hz S RI R 50.000000
! Metas.Vna.Tools, 2.8.8664.20301
! Metas.Vna.Data, 2.8.8664.20285
! Created: UTC 2024.02.11 10:08:49
! FREQ                re:S1,1             im:S1,1             re:S2,1             im:S2,1             re:S1,2             im:S1,2             re:S2,2             im:S2,2          
  1.3000000000e+008   3.2407977671e-005  -1.3934112725e-003   9.9728322389e-001  -4.6296732521e-003   1.0007722944e+000   6.1473677975e-004   1.2818015058e-003   5.0694916414e-004
  1.3858750000e+008  -4.7534585722e-004  -1.4912239424e-003   9.9291225800e-001  -5.5622548008e-003   1.0008784883e+000   7.8411515046e-004   1.6535576996e-003  -1.0458236581e-004
  1.4717500000e+008  -1.7102654546e-003  -1.0853880898e-003   9.9234165293e-001  -6.6590182808e-003   1.0004349832e+000   5.6616128329e-004   8.0966587883e-004  -2.3867873450e-004
  1.5576250000e+008  -9.1225163456e-004  -6.1905052653e-005   9.9451373398e-001  -5.7345448156e-003   9.9995534518e-001   3.4384112473e-004   9.9412203065e-004  -9.4753202029e-004
  1.6435000000e+008  -9.1995086528e-004   7.2281580799e-004   9.9601753310e-001  -4.7977302952e-003   1.0006965233e+000  -9.5450385165e-005   6.7460590805e-004  -5.4630915989e-004
  1.7293750000e+008  -6.9934531762e-004   9.5988880641e-004   9.9384087369e-001  -5.1462760257e-003   1.0002967479e+000   1.7394126033e-004   6.7108864958e-004  -1.3382343645e-003
  1.8152500000e+008  -2.4504447758e-004   5.9371728850e-004   9.9177767951e-001  -7.3410983053e-003   1.0006946053e+000   1.4784284767e-004  -1.8140809307e-005  -5.2548405006e-004
  1.9011250000e+008  -7.2586316536e-004   6.9002015702e-004   9.9839167384e-001  -6.3632579203e-003   1.0010043350e+000   5.8768705495e-005   2.3194153150e-004  -9.6887187644e-004
  1.9870000000e+008  -4.5722431547e-004   8.1681745086e-004   9.9445533710e-001  -6.0101865821e-003   1.0009992781e+000  -6.3374289821e-004   2.7906901306e-004  -1.0013838893e-003
  2.0728750000e+008   7.2772153106e-005   3.0208071353e-005   9.9289991183e-001  -4.8068914825e-003   1.0003943226e+000  -3.9595880967e-004   5.2019926069e-005  -3.3168136235e-004
  2.1587500000e+008   4.5446219343e-004  -6.1439449617e-004   9.9290011756e-001  -6.6457020300e-003   1.0000517384e+000  -7.6347478608e-005  -3.9219652540e-004   1.6058715782e-004
  2.2446250000e+008   4.2370295377e-004  -4.4650075442e-004   9.9253728076e-001  -7.3462460878e-003   1.0002962777e+000  -1.5147385247e-004  -2.8132846586e-004   1.2050205284e-004
  2.3305000000e+008   2.0711986540e-005  -1.5525658453e-004   9.8913177994e-001  -7.5060034076e-003   1.0004915633e+000  -6.3876660944e-004  -3.9694821106e-004   7.2480437740e-005
  2.4163750000e+008  -8.3866743442e-005  -5.3291592852e-004   9.9303311899e-001  -6.9719680987e-003   1.0001976416e+000  -6.8906291326e-004  -9.4979109369e-004   1.3063440820e-004
  2.5022500000e+008  -5.2102769324e-004  -7.6550125244e-004   9.9454350079e-001  -6.7441938599e-003   1.0000625912e+000  -2.4920055409e-004  -9.4793506022e-004   6.4261977323e-004
  2.5881250000e+008  -4.1129698155e-004  -4.6661591783e-004   9.9324966559e-001  -6.8474483369e-003   1.0008017259e+000  -9.4159475084e-004  -4.9261968917e-004   5.6867449299e-004
  2.6740000000e+008  -7.4855900646e-004  -6.9162492314e-004   9.9339476860e-001  -7.1963815767e-003   1.0005114741e+000  -1.0675349034e-003  -9.6560071741e-005   4.4184882255e-004
  2.7598750000e+008  -3.3016002181e-004  -1.5839079974e-004   9.9239439325e-001  -8.1418451129e-003   9.9987613333e-001  -1.1885791335e-004  -2.2924549983e-004   2.7414631205e-004
  2.8457500000e+008  -7.1525163185e-004  -2.6534243100e-004   9.9286404085e-001  -5.4667075352e-003   1.0005524663e+000   7.2799483942e-004  -2.5107321683e-004   7.1245477582e-004
  2.9316250000e+008  -4.8588332702e-004  -4.7560565619e-004   9.9332534004e-001  -6.4368098322e-003   1.0001451030e+000  -1.0667775478e-003  -2.2344888963e-004   5.2206615139e-004
  3.0175000000e+008  -9.4338000186e-004   2.9680388275e-004   9.9374405677e-001  -8.5544086946e-003   1.0006480724e+000  -3.6912092558e-004  -5.4922672036e-004   3.1485968879e-004
  3.1033750000e+008  -9.7468973599e-004   1.5352455970e-004   9.9424635774e-001  -6.4719454781e-003   1.0011687711e+000  -5.2036002461e-004  -8.2883089030e-004   3.2432199823e-004
  3.1892500000e+008  -9.5438443904e-004  -4.5015130233e-005   9.9292959203e-001  -6.5683596203e-003   9.9983451453e-001  -5.0595270895e-005  -8.9735115777e-004   2.9753441816e-004
  3.2751250000e+008  -7.2456318885e-004  -1.4743641725e-004   9.9337874359e-001  -8.1979228732e-003   1.0004566894e+000  -9.5296789318e-004  -8.0627018215e-004   1.0951139248e-004
  3.3610000000e+008  -8.0454309109e-004   1.5169870949e-004   9.9510220684e-001  -6.3740193840e-003   1.0006797533e+000  -1.6258710338e-003  -7.1914377657e-004   1.3658356438e-004
  3.4468750000e+008  -7.5073751239e-004   3.3974516000e-004   9.9367116857e-001  -5.5987903450e-003   1.0011097792e+000  -3.9655568285e-004  -4.7938578209e-004   4.2673231824e-004
  3.5327500000e+008  -4.5988890355e-004   1.0846057818e-004   9.9359114198e-001  -7.0827983210e-003   9.9933059855e-001  -1.6299980003e-003  -7.5820785995e-004   2.3076695437e-004
  3.6186250000e+008  -7.0321282472e-004   3.2808778373e-004   9.9750397850e-001  -5.5116452601e-003   1.0009503820e+000  -8.2821125086e-004  -6.6701564063e-004   2.8910375230e-004
  3.7045000000e+008  -6.7151825558e-004   5.3034688460e-004   9.9525721546e-001  -6.4625183173e-003   1.0005071026e+000  -1.4243182599e-003  -7.3626739931e-004   1.2731545072e-004
  3.7903750000e+008  -2.6356349433e-004   6.4684805084e-004   9.9353712319e-001  -5.6782204884e-003   1.0007713521e+000  -6.4829895784e-004  -5.2481532608e-004   1.2837331330e-004
  3.8762500000e+008  -3.9477770423e-004   4.7863683615e-004   9.9871061190e-001  -5.0222915235e-003   9.9977927917e-001  -1.1569018096e-003  -4.2884716745e-004   4.7876267632e-004
  3.9621250000e+008  -1.9870237095e-004   3.8727911137e-004   9.9433688963e-001  -6.7283816948e-003   1.0009653848e+000  -1.0201293099e-003  -4.4137089552e-004   3.4673817226e-004
  4.0480000000e+008   3.6909916407e-004   1.8974765027e-004   9.9481763228e-001  -7.4156508397e-003   1.0005486992e+000  -4.7919928578e-004  -3.4655353162e-004   1.6431626066e-004
  4.1338750000e+008   3.1479793865e-004   2.0042107811e-004   9.9294335065e-001  -5.4604330117e-003   1.0004736850e+000  -8.9024335873e-004   4.7149604571e-005   6.3280402140e-004
  4.2197500000e+008   1.3875844742e-004  -3.2257004295e-004   9.9442008271e-001  -6.9504552005e-003   1.0005861465e+000  -1.1720508543e-003   2.4609459628e-004   5.4320811546e-004
  4.3056250000e+008   2.9544178643e-004  -2.7752593432e-004   9.9449997867e-001  -6.5867687276e-003   1.0004294229e+000  -1.0663548389e-003   4.1246235802e-004   3.2517035915e-004
  4.3915000000e+008   1.1840988383e-004  -3.4794643188e-004   9.9636513440e-001  -5.7448001299e-003   1.0004921925e+000  -1.1725812290e-003   5.4172903348e-004   2.2275172678e-004
  4.4773750000e+008  -7.1574908146e-005  -6.1867674968e-004   9.9561284422e-001  -6.6776168790e-003   1.0006557086e+000  -1.1827212105e-003   5.7892758742e-004   5.9378680053e-007
  4.5632500000e+008  -1.3980441558e-004  -3.0224495662e-004   9.9334983814e-001  -6.2212930151e-003   1.0005152096e+000  -1.2717649190e-003   6.1547016554e-004   2.0707421074e-004
  4.6491250000e+008  -3.2534219237e-004  -2.7973271686e-004   9.9474996702e-001  -6.8966571715e-003   9.9988109261e-001  -1.3269379510e-003   6.1940603633e-004   1.7560348452e-004
  4.7350000000e+008  -5.8635547496e-004  -1.4751460059e-004   9.9247286580e-001  -6.8531385885e-003   1.0002993704e+000  -1.5133706724e-003   6.4131652766e-004   5.1555747460e-005
  4.8208750000e+008  -3.4696546390e-004  -2.7337252424e-005   9.9064936720e-001  -7.8267995834e-003   9.9994903540e-001  -9.5356092708e-004   5.8865295198e-004   2.2553293189e-004
  4.9067500000e+008  -1.8181594810e-004  -1.8816226791e-004   9.9121204709e-001  -8.1349461386e-003   1.0001099293e+000  -1.4265040103e-003   5.8346948378e-004  -1.3859535679e-004
  4.9926250000e+008  -2.0219434377e-004  -9.5077144548e-005   9.9187335506e-001  -7.1361101790e-003   9.9976105376e-001  -1.0398896900e-003   7.9470289590e-004  -1.1617877183e-004
  5.0785000000e+008  -3.6176934221e-004  -2.5902721089e-004   9.9082838709e-001  -7.8446338099e-003   1.0000680973e+000  -4.2728415114e-004   4.1541548980e-004   3.4331931143e-004
  5.1643750000e+008  -4.8042413429e-004   1.5073148419e-004   9.9131560058e-001  -5.9188678420e-003   1.0005600207e+000  -8.3856351721e-004   6.9012460734e-004   4.5317184367e-005
  5.2502500000e+008  -1.3939493505e-004   5.1803881812e-004   9.9206759628e-001  -6.4910547628e-003   1.0004730411e+000  -3.7697632173e-004   8.1191641664e-005  -4.0712038594e-004
  5.3361250000e+008   3.9057059675e-004   1.7572261174e-004   9.9246016340e-001  -6.9946202788e-003   1.0002962092e+000  -1.2455424791e-003  -2.0190280802e-004  -4.9803432025e-004
  5.4220000000e+008   6.4366653727e-004  -1.2710313415e-004   9.9235897754e-001  -7.8613448147e-003   1.0006520201e+000  -1.0830830218e-003  -8.5826754007e-004  -2.6426978335e-004
  5.5078750000e+008   5.7400642132e-004  -6.4106543483e-004   9.9372357456e-001  -8.3401575548e-003   1.0005924008e+000  -1.6952765369e-003  -8.7845704816e-004  -2.1599753810e-004
  5.5937500000e+008   5.5456968104e-004  -7.6151518657e-004   9.9354237346e-001  -7.4291524061e-003   1.0001557440e+000  -1.4891548876e-003  -9.9220762655e-004   7.0828528268e-005
  5.6796250000e+008   1.4015938513e-004  -7.6715936702e-004   9.9490133739e-001  -6.8762608898e-003   1.0006491072e+000  -1.2328172616e-003  -1.1864380699e-003   3.7378123446e-004
  5.7655000000e+008  -3.2388703215e-004  -1.0196825114e-003   9.9499313723e-001  -8.6191193541e-003   1.0002836824e+000  -1.3439975131e-003  -7.5311955114e-004   6.4061721494e-004
  5.8513750000e+008  -5.0079326037e-004  -9.4721858617e-004   9.9471806163e-001  -7.7095242442e-003   1.0001572461e+000  -1.8947402037e-003  -7.9517732326e-004   9.3641789395e-004
  5.9372500000e+008  -5.6255088127e-004  -7.7969051455e-004   9.9320393451e-001  -6.7230734386e-003   1.0004625200e+000  -1.9537073883e-003  -8.0093808259e-004   9.4442989103e-004
  6.0231250000e+008  -9.3956954304e-004  -4.7832452441e-004   9.9336664470e-001  -7.0898347329e-003   1.0005012292e+000  -8.8917592918e-004  -5.0560619592e-004   9.9448708999e-004
  6.1090000000e+008  -9.0065281949e-004  -2.9003797373e-004   9.9515218868e-001  -7.9849491890e-003   1.0002692481e+000  -1.1599139331e-003  -4.8709511416e-004   8.7288037588e-004
  6.1948750000e+008  -8.8206237987e-004   3.7996679118e-005   9.9355220475e-001  -5.7561018305e-003   9.9949360201e-001  -1.7535879167e-003  -3.1348872715e-004   8.2316099400e-004
  6.2807500000e+008  -6.3362650668e-004  -3.6179416290e-006   9.9459956563e-001  -8.5877773902e-003   1.0000946854e+000  -1.1379030086e-003   1.4453379495e-004   5.1513426170e-004
  6.3666250000e+008  -3.4591836644e-004   5.4440340827e-004   9.9511838296e-001  -6.1249136021e-003   9.9991119406e-001  -2.1161648674e-003  -4.1226140446e-005   3.5982677737e-004
  6.4525000000e+008  -7.4679099585e-005   5.0125948382e-004   9.9646928763e-001  -5.5384365874e-003   1.0006382036e+000  -1.9479488370e-003   3.2226271912e-004   1.6630973838e-005
  6.5383750000e+008   2.0503476469e-004   2.6884833650e-004   9.9726480810e-001  -6.3712049323e-003   1.0000441139e+000  -1.2873027035e-003   4.6256294155e-004  -1.9022696643e-004
  6.6242500000e+008   4.6399371978e-004   1.6514010734e-004   9.9471625551e-001  -6.5233939979e-003   1.0003450196e+000  -2.5935313476e-003   2.4850401956e-004  -3.6799905144e-004
  6.7101250000e+008   3.8842876761e-004  -3.1984146685e-004   9.9641430983e-001  -3.7021964548e-003   9.9974094528e-001  -1.1872130212e-003   3.4772475630e-004  -6.0911192667e-004
  6.7960000000e+008   7.1224090176e-004  -5.4529320691e-004   9.9588589632e-001  -5.1475368030e-003   1.0003050639e+000  -2.0599746189e-003   3.5145780524e-004  -9.9020141317e-004
  6.8818750000e+008   1.7310685889e-004  -9.3653298226e-004   9.9511814365e-001  -5.6079822590e-003   9.9993957552e-001  -1.4594378089e-003   3.1914546776e-005  -1.1586439115e-003
  6.9677500000e+008   1.5157043587e-004  -1.0216845556e-003   9.9586796847e-001  -6.1312100398e-003   9.9968363236e-001  -2.2413995306e-003  -1.8280507994e-004  -1.2785324860e-003
  7.0536250000e+008  -3.1273273909e-004  -1.1107002255e-003   9.9562910278e-001  -6.4909734054e-003   9.9994988785e-001  -2.0170100266e-003  -2.6183649076e-004  -1.3576612061e-003
  7.1395000000e+008  -6.4130938873e-004  -9.3988043923e-004   9.9513682055e-001  -6.7877381346e-003   9.9981087272e-001  -1.6181592464e-003  -5.2052493268e-004  -1.2327495830e-003
  7.2253750000e+008  -1.0267348796e-003  -8.7982121529e-004   9.9396327600e-001  -6.6264379290e-003   9.9985222857e-001  -2.0625838644e-003  -7.8399714801e-004  -1.2557370998e-003
  7.3112500000e+008  -1.1397744521e-003  -4.1795959220e-004   9.9567149762e-001  -5.9134508204e-003   1.0001541800e+000  -1.1634407980e-003  -8.6954581017e-004  -1.0723718047e-003
  7.3971250000e+008  -1.0482602729e-003  -3.7620524553e-005   9.9600044883e-001  -7.6709005961e-003   9.9969120052e-001  -2.9207827801e-003  -1.1648067089e-003  -8.7403446468e-004
  7.4830000000e+008  -8.5191390632e-004   4.9464144262e-004   9.9573318903e-001  -4.7831346508e-003   9.9938784331e-001  -1.5172657535e-003  -1.0885416553e-003  -7.6391953779e-004
  7.5688750000e+008  -8.4419304774e-004   7.2257222434e-004   9.9460949255e-001  -6.3957308623e-003   9.9923072268e-001  -1.5985315842e-003  -1.1810555911e-003  -2.8926210965e-004
  7.6547500000e+008  -1.9697439124e-004   8.1460729162e-004   9.9530581877e-001  -7.8624072902e-003   9.9948994911e-001  -2.3057909108e-003  -1.1750234904e-003  -1.2022405503e-004
  7.7406250000e+008   4.1108556152e-005   8.4589435394e-004   9.9542527106e-001  -7.7277319879e-003   1.0001344239e+000  -2.1141465990e-003  -9.1685571679e-004   2.3865387862e-004
  7.8265000000e+008   3.2586436035e-004   6.3250627945e-004   9.9431474227e-001  -7.4553153824e-003   9.9956254705e-001  -1.8630406687e-003  -8.0542517595e-004   6.6388127618e-004
  7.9123750000e+008   7.4669069230e-004   4.0123364671e-004   9.9401142004e-001  -6.6175432712e-003   9.9914196654e-001  -1.8306661185e-003  -8.6986330379e-004   6.6872670351e-004
  7.9982500000e+008   8.0173621634e-004   3.6813338945e-004   9.9388446420e-001  -6.6346773170e-003   1.0004271833e+000  -1.1509887437e-003  -5.4726132970e-004   7.4914114663e-004
  8.0841250000e+008   9.7120948305e-004   2.3740003705e-005   9.9443685203e-001  -7.2516343674e-003   9.9901525201e-001  -1.8591864482e-003  -4.6104971733e-004   1.0535830788e-003
  8.1700000000e+008   1.2099051024e-003  -4.5703251420e-004   9.9455729934e-001  -7.2370388633e-003   1.0000034599e+000  -1.5847823472e-003  -3.9374507964e-004   1.0712334145e-003
  8.2558750000e+008   1.1075172445e-003  -5.6653489608e-004   9.9621128594e-001  -6.1153322603e-003   1.0008286901e+000  -2.2841167027e-003  -5.1880009113e-004   1.0822713011e-003
  8.3417500000e+008   9.6538234470e-004  -1.1355259077e-003   9.9611655802e-001  -7.5645029435e-003   1.0007974023e+000  -2.3129264296e-003  -1.4655011782e-004   1.4446883191e-003
  8.4276250000e+008   5.3873386173e-004  -1.2841761637e-003   9.9386101888e-001  -6.3485395975e-003   9.9945513577e-001  -2.4753441038e-003   1.2828704073e-004   1.3041008583e-003
  8.5135000000e+008  -4.5675680485e-005  -1.1868795643e-003   9.9498050858e-001  -6.9134941344e-003   1.0003257972e+000  -1.9702610025e-003   3.8473002752e-004   1.4239695361e-003
  8.5993750000e+008  -2.3366890667e-004  -1.1255294107e-003   9.9606469459e-001  -5.5268175306e-003   1.0000619519e+000  -2.4574263354e-003   4.3452156575e-004   1.2195151232e-003
  8.6852500000e+008  -5.2838798604e-004  -7.6501401091e-004   9.9353297023e-001  -7.7835143489e-003   1.0000764827e+000  -2.0993940898e-003   6.6841878893e-004   8.6605290942e-004
  8.7711250000e+008  -3.8544297530e-004  -6.5080642591e-004   9.9464638428e-001  -6.9031803433e-003   1.0007941146e+000  -2.6474571534e-003   6.5593617819e-004   3.1731491725e-004
  8.8570000000e+008  -2.7407283848e-004  -4.3705986859e-004   9.9521598363e-001  -6.3447045476e-003   9.9957091458e-001  -2.5605329538e-003   4.4505695536e-004   1.6667059605e-004
  8.9428750000e+008  -2.2473846297e-004  -1.3084575940e-004   9.9322920675e-001  -8.1905633437e-003   9.9985722162e-001  -2.5814174795e-003   1.9029028146e-004  -2.5206640971e-004
  9.0287500000e+008   5.1866896770e-005  -2.1387343306e-004   9.9437630397e-001  -8.4246919712e-003   9.9945821191e-001  -2.9605868434e-003  -7.8935305043e-005  -4.2771440458e-004
  9.1146250000e+008   3.8752319083e-004  -3.3353868521e-004   9.9473418306e-001  -7.2746379408e-003   9.9888553736e-001  -2.9480553060e-003  -4.1661715117e-004  -4.3595106378e-004
  9.2005000000e+008   3.0848260679e-004  -4.9640156069e-004   9.9649644518e-001  -6.9966692393e-003   9.9940441272e-001  -2.0218309383e-003  -7.2788076259e-004  -7.2041552244e-004
  9.2863750000e+008   4.7638130106e-004  -6.3462775829e-004   9.9380903532e-001  -5.5900450563e-003   9.9937102841e-001  -3.4835432251e-003  -9.1788974151e-004  -5.2261734318e-004
  9.3722500000e+008   3.1042347261e-004  -9.6460785940e-004   9.9505966480e-001  -6.7101988093e-003   9.9911077160e-001  -2.0996861265e-003  -1.0941118451e-003  -6.6067597106e-004
  9.4581250000e+008   1.8878872697e-004  -1.2009856524e-003   9.9303291778e-001  -6.1234081544e-003   1.0005168122e+000  -1.7708074672e-003  -1.3868916250e-003  -5.5789411920e-004
  9.5440000000e+008  -1.5094341680e-004  -1.3724893446e-003   9.9358357088e-001  -7.9912644514e-003   9.9966917339e-001  -2.1685947321e-003  -1.4791229694e-003  -3.7791976545e-004
  9.6298750000e+008  -3.8996207660e-004  -1.3141684660e-003   9.9529726317e-001  -6.8195788349e-003   9.9973768230e-001  -3.3080502562e-003  -1.5043825759e-003  -2.4393805785e-004
  9.7157500000e+008  -7.1074452994e-004  -1.2780592258e-003   9.9519815936e-001  -7.7172177023e-003   1.0004270951e+000  -2.2742603002e-003  -1.5038245305e-003  -1.9294715497e-004
  9.8016250000e+008  -9.9581685665e-004  -9.9250688546e-004   9.9485218762e-001  -7.5314304603e-003   9.9961485421e-001  -2.3714825264e-003  -1.5895979584e-003  -4.4570185111e-005
  9.8875000000e+008  -1.2196922002e-003  -5.8347698482e-004   9.9238694898e-001  -6.3519611837e-003   9.9923117230e-001  -1.7873578506e-003  -1.4665633772e-003   3.1755218864e-005
  9.9733750000e+008  -1.0911013064e-003  -3.4900955299e-004   9.9149014922e-001  -8.0632363949e-003   9.9962128684e-001  -2.5021717791e-003  -1.2243658809e-003   1.4176729240e-004
  1.0059250000e+009  -9.1537748105e-004   1.1472546502e-004   9.9518846901e-001  -5.8422243029e-003   9.9933653680e-001  -2.1841625374e-003  -9.1763206615e-004   1.9051109849e-004
  1.0145125000e+009  -6.8708023175e-004   3.7268212498e-004   9.9489583264e-001  -9.3975082499e-003   1.0003209358e+000  -1.6548530179e-003  -5.3980278090e-004   2.0224761203e-004
  1.0231000000e+009  -4.7880407292e-004   4.5226062090e-004   9.9398726811e-001  -6.4568065198e-003   9.9947318940e-001  -2.7248548495e-003  -2.7169880114e-004   2.0443639026e-004
  1.0316875000e+009  -1.7745339586e-004   6.6271121706e-004   9.9466030496e-001  -8.4279187992e-003   9.9877662923e-001  -2.0486766430e-003  -6.2091868480e-006   1.0532477252e-004
  1.0402750000e+009   2.8341677843e-004   4.5393640957e-004   9.9350443126e-001  -7.8077413125e-003   9.9913410947e-001  -1.4230862534e-003   3.6039142182e-004  -1.5036619947e-004
  1.0488625000e+009   4.2094092561e-004   3.9033387970e-004   9.9308977707e-001  -7.7227183643e-003   9.9935199755e-001  -2.3619565934e-003   6.6630410477e-004  -2.4947073039e-004
  1.0574500000e+009   6.5084568997e-004   1.4921692313e-005   9.9298725276e-001  -7.3173258731e-003   9.9922780870e-001  -2.7486982196e-003   7.4795112859e-004  -4.7231920070e-004
