# Hz S RI R 50.000000
! Metas.Vna.Tools, 2.8.8664.20301
! Metas.Vna.Data, 2.8.8664.20285
! Created: UTC 2024.02.11 10:08:13
! FREQ                re:S1,1             im:S1,1             re:S2,1             im:S2,1             re:S1,2             im:S1,2             re:S2,2             im:S2,2          
  1.3000000000e+008  -4.4314065168e-004  -1.2893984839e-003   1.0009493527e+000  -2.7986270616e-003   1.0007804370e+000  -1.3024994704e-003   1.0412061017e-003   9.8082008459e-004
  1.3858750000e+008  -4.1035594114e-004  -1.5495949669e-003   1.0025207635e+000  -2.0675520695e-003   1.0003219367e+000  -8.3225388942e-004   1.2163522061e-003   8.6308939386e-005
  1.4717500000e+008  -1.6940483849e-003  -7.7567774659e-004   1.0029852224e+000  -3.2960663296e-003   1.0004599530e+000  -1.0510375922e-003   8.8645211503e-004  -5.1449005132e-004
  1.5576250000e+008  -1.0509655736e-003  -2.5224173294e-004   1.0024503091e+000  -3.3128280722e-003   1.0002661895e+000  -1.1455429444e-003   9.0029344976e-004  -6.4830289136e-004
  1.6435000000e+008  -7.5930991921e-004   7.0949184327e-004   1.0030031445e+000  -2.3395559405e-003   1.0005227720e+000  -1.0213957077e-003   9.6580140310e-004  -8.5866217093e-004
  1.7293750000e+008  -8.7749561159e-004   8.8955127303e-004   1.0025573705e+000  -2.4206871648e-003   1.0001318217e+000  -1.3994566803e-003   5.9400199329e-004  -6.6653542188e-004
  1.8152500000e+008  -4.6947582134e-004   8.0436153984e-004   1.0028115934e+000  -3.4897348900e-003   9.9988172162e-001  -1.5300029406e-003   4.1788528647e-004  -4.9906581423e-004
  1.9011250000e+008  -5.7176768032e-004   5.1543516938e-004   1.0021327587e+000  -4.1492542656e-003   1.0005316278e+000  -1.6314822814e-003   2.2586913205e-004  -1.4810830523e-003
  1.9870000000e+008  -2.8266565574e-004   2.5242662742e-004   1.0018908940e+000  -3.8573961278e-003   1.0008768454e+000  -1.7293180839e-003   3.7522221720e-004  -4.3713493973e-004
  2.0728750000e+008   1.3635106031e-004   3.3080039144e-004   1.0003811860e+000  -3.5114303430e-003   1.0002265830e+000  -1.6545336686e-003   3.1961282092e-004  -2.4402635954e-004
  2.1587500000e+008   3.0054792349e-004  -1.6181589544e-004   1.0011391616e+000  -3.5985689137e-003   9.9988975805e-001  -1.5319898464e-003  -3.2555960488e-004   2.9877361079e-004
  2.2446250000e+008   2.4031306053e-004  -4.4713636675e-004   1.0024218782e+000  -3.0905659661e-003   1.0000286313e+000  -1.5516163150e-003  -2.4503415290e-004   3.7848115847e-004
  2.3305000000e+008   3.1027351900e-004  -2.1079204298e-004   1.0026423367e+000  -3.1987619423e-003   1.0002494946e+000  -1.8642366302e-003  -2.9593380278e-004  -1.0969592928e-004
  2.4163750000e+008  -4.3984290898e-004  -3.1448613851e-004   9.9957740298e-001  -4.4090235744e-003   1.0005647166e+000  -1.9398508524e-003  -6.9755120843e-004   5.4440318949e-004
  2.5022500000e+008  -4.2306639923e-004  -3.0517984588e-004   1.0021716539e+000  -3.6708594474e-003   1.0009143242e+000  -2.4770330340e-003  -8.9338664114e-004   7.4069126215e-004
  2.5881250000e+008  -2.5359773882e-004  -4.9652609133e-004   1.0013715523e+000  -2.7868960018e-003   1.0005835673e+000  -2.3492737840e-003  -4.8399503059e-004   1.0019425316e-003
  2.6740000000e+008  -5.7090484923e-004  -3.2464865663e-004   1.0022145771e+000  -4.5322691505e-003   1.0006437450e+000  -3.0371418673e-003  -5.4062810089e-004   2.9372160606e-004
  2.7598750000e+008  -5.2541890101e-004  -1.6245284383e-004   1.0016483130e+000  -4.2566200751e-003   1.0004744491e+000  -1.9675881770e-003  -7.4956669604e-004   7.4164769763e-004
  2.8457500000e+008  -1.0138705745e-003  -6.6749810150e-004   1.0024127360e+000  -3.9115734190e-003   1.0009101520e+000  -1.3771749570e-003  -1.0262759440e-004   5.7334021194e-004
  2.9316250000e+008  -7.1768244142e-004  -1.3630115504e-004   1.0031968827e+000  -3.5725905626e-003   1.0006914160e+000  -2.6928493435e-003  -3.8263801970e-004   4.4155155229e-004
  3.0175000000e+008  -8.6605784473e-004   3.9005979805e-004   1.0019991353e+000  -4.6140334080e-003   1.0003994307e+000  -1.9525412119e-003  -4.1902849169e-004   1.7443828380e-004
  3.1033750000e+008  -1.0531343850e-003   2.4072708611e-004   1.0021994810e+000  -3.4796997556e-003   1.0013532182e+000  -2.2293924302e-003  -4.8382332867e-004   8.2636428996e-004
  3.1892500000e+008  -1.0108894896e-003   3.7818303346e-004   1.0015507312e+000  -5.2189853390e-003   9.9986973359e-001  -2.4513445165e-003  -5.7031951028e-004   2.7581001256e-004
  3.2751250000e+008  -7.5486673191e-004   1.9594802305e-004   1.0032817634e+000  -4.4273662211e-003   1.0005602098e+000  -3.3921344329e-003  -3.2401987368e-004   2.9243935684e-004
  3.3610000000e+008  -8.3746418492e-004   2.4748817912e-004   1.0033312184e+000  -3.0892652741e-003   1.0012074087e+000  -2.7218581473e-003  -3.6968464139e-004   3.0994136501e-004
  3.4468750000e+008  -9.9359502819e-004   3.4062219274e-004   1.0018757753e+000  -3.7376228914e-003   1.0004749123e+000  -2.4583526150e-003  -3.9890213769e-004   1.8932337606e-004
  3.5327500000e+008  -5.2252358843e-004   2.0016431422e-004   1.0021028996e+000  -3.5444157668e-003   1.0001579414e+000  -3.1537228129e-003  -6.0579866812e-004   3.6693480287e-004
  3.6186250000e+008  -5.5243743979e-004   4.1663760191e-004   1.0036442977e+000  -4.0418182143e-003   1.0005691560e+000  -2.3587477380e-003  -5.0394415253e-004   2.6797504544e-004
  3.7045000000e+008  -5.3918624722e-004   6.1796947322e-004   1.0009650052e+000  -3.0708850836e-003   1.0005614587e+000  -2.9849858323e-003  -5.1737735725e-004   1.7531027707e-004
  3.7903750000e+008  -3.2489763864e-004   4.7039079480e-004   1.0019814431e+000  -3.0823991026e-003   1.0003827367e+000  -2.8057235386e-003  -3.7730550512e-004   6.4402444531e-005
  3.8762500000e+008  -4.5346929020e-004   6.8683101716e-004   1.0037637043e+000  -3.2544142515e-003   9.9976084452e-001  -2.7356592546e-003  -4.5458561921e-004   3.8655158056e-004
  3.9621250000e+008  -2.8384870962e-004   2.0336729425e-005   1.0024550504e+000  -4.0714822201e-003   1.0003225022e+000  -2.8961159377e-003  -6.3200457205e-004   4.8724807410e-004
  4.0480000000e+008   6.1297003260e-005   2.2497647586e-004   1.0041362752e+000  -4.9477626375e-003   1.0005805533e+000  -2.5313479411e-003  -3.4326553022e-004   3.6802835613e-004
  4.1338750000e+008   1.6428210917e-004   2.1875131833e-004   1.0029850840e+000  -2.7401765460e-003   1.0006045168e+000  -2.7607301683e-003  -3.7305481720e-005   1.2279576263e-004
  4.2197500000e+008  -1.3426882467e-004  -1.6204129919e-004   1.0032793660e+000  -3.2208345606e-003   1.0007167423e+000  -3.2256803885e-003   4.3839544464e-005   7.9671094200e-004
  4.3056250000e+008  -3.5418257506e-005   1.2748974278e-004   1.0022907492e+000  -4.2388329851e-003   1.0005699130e+000  -2.3186198281e-003   2.3987417976e-004   3.8868368814e-004
  4.3915000000e+008   1.5329631194e-004  -1.3789621549e-004   1.0051783408e+000  -2.8223361099e-003   1.0002847266e+000  -3.0891284996e-003   3.3259675563e-004   3.7802197215e-004
  4.4773750000e+008   1.9747808973e-005  -1.1671980486e-004   1.0044972640e+000  -2.7288115524e-003   1.0003524652e+000  -3.2718096195e-003   5.3606285226e-004   3.1768243820e-004
  4.5632500000e+008  -2.7122387500e-004  -2.8288417576e-004   1.0017204616e+000  -3.3832503274e-003   1.0004268694e+000  -2.8364174111e-003   7.9796197737e-004   2.0379137042e-004
  4.6491250000e+008  -2.4481382734e-004  -2.5424225599e-005   1.0020067410e+000  -3.8220329150e-003   1.0000578242e+000  -3.3133406732e-003   5.0522872503e-004   1.2283221271e-004
  4.7350000000e+008  -3.3934297676e-004  -1.2856229344e-004   1.0022028842e+000  -3.8222764057e-003   1.0005570107e+000  -2.8360489865e-003   6.5914795839e-004   1.1610405344e-005
  4.8208750000e+008  -2.0961538149e-004  -9.1374205613e-005   1.0002257269e+000  -4.6101360088e-003   9.9965599044e-001  -2.5664640790e-003   7.3942821791e-004   1.2232342099e-004
  4.9067500000e+008  -2.1828917927e-005  -4.3585408243e-004   9.9937454820e-001  -4.4247346701e-003   1.0000117662e+000  -2.9749183084e-003   4.6894199454e-004   1.8285598647e-004
  4.9926250000e+008  -1.2409013182e-004  -5.7634535589e-004   9.9998792009e-001  -4.6380918097e-003   1.0000706924e+000  -2.8182741121e-003   6.3938683162e-004   3.6496984948e-005
  5.0785000000e+008  -6.6976720127e-004  -2.6976548534e-004   1.0004662117e+000  -3.5278758957e-003   9.9991287410e-001  -1.8487751921e-003   6.4681900498e-004   4.3748991694e-004
  5.1643750000e+008  -7.8729863337e-004   2.2532440594e-006   9.9988208892e-001  -2.7640335907e-003   1.0002162536e+000  -2.7553633106e-003   9.4155071546e-004   5.4472998396e-005
  5.2502500000e+008  -5.8722031512e-004   7.2142531440e-004   1.0021374981e+000  -3.5264884121e-003   1.0008911906e+000  -1.7457844481e-003   5.0134772075e-004  -4.8992681586e-004
  5.3361250000e+008   4.0010006275e-004   5.5250914772e-004   1.0022705613e+000  -4.3169533483e-003   1.0003517656e+000  -2.9528193353e-003   1.4282499395e-004  -7.9012009771e-004
  5.4220000000e+008   8.4709859834e-004   2.4841766406e-004   1.0012210164e+000  -5.0405961382e-003   1.0010069764e+000  -2.5108127198e-003  -7.1611016529e-004  -4.3954592838e-004
  5.5078750000e+008   5.8348437392e-004  -5.0075967620e-004   1.0023237184e+000  -5.9163570583e-003   9.9988895836e-001  -3.4922887754e-003  -1.0349907508e-003  -4.2190236512e-004
  5.5937500000e+008   5.2273482852e-004  -6.8285853983e-004   1.0002751579e+000  -4.6693297956e-003   1.0006119698e+000  -3.1292622279e-003  -1.0935973186e-003   9.5360520906e-005
  5.6796250000e+008   2.0242388641e-004  -1.0113725541e-003   1.0016988749e+000  -4.9557545341e-003   1.0004453213e+000  -2.5464998364e-003  -1.0966486139e-003   4.8463570891e-004
  5.7655000000e+008  -4.1580004652e-004  -1.0267162225e-003   1.0020381692e+000  -5.0174175776e-003   1.0000986540e+000  -3.4920423502e-003  -8.4485798084e-004   7.7339541556e-004
  5.8513750000e+008  -6.2155911532e-004  -8.5755383511e-004   1.0003254135e+000  -3.8605505950e-003   9.9925337623e-001  -2.5405360120e-003  -7.4952321305e-004   9.1018516085e-004
  5.9372500000e+008  -6.1051730209e-004  -8.9431898440e-004   9.9991196797e-001  -4.5077389317e-003   1.0002729841e+000  -3.5796122227e-003  -6.9563081527e-004   1.1345422698e-003
  6.0231250000e+008  -9.1598552495e-004  -4.5168814026e-004   1.0002649530e+000  -3.9346762570e-003   1.0002007611e+000  -3.0209931531e-003  -2.9636400240e-004   9.7122910185e-004
  6.1090000000e+008  -9.4041164368e-004  -3.2697268310e-004   1.0009888316e+000  -4.9421581947e-003   1.0000442322e+000  -2.8323870925e-003  -5.2640028820e-004   8.9950792616e-004
  6.1948750000e+008  -7.6493014135e-004   8.8779556138e-005   9.9907874607e-001  -4.4803683456e-003   9.9959402149e-001  -3.2769702496e-003  -1.8557180286e-004   7.6913382871e-004
  6.2807500000e+008  -7.0632420743e-004   8.2625994709e-005   1.0011041575e+000  -5.9845039536e-003   1.0000307061e+000  -2.8450560668e-003   1.3060662384e-004   5.4260311048e-004
  6.3666250000e+008  -3.8655540110e-004   5.0271935945e-004   1.0019778197e+000  -4.0796306761e-003   1.0002332568e+000  -3.6238255337e-003   2.3778024637e-004   4.8914622385e-004
  6.4525000000e+008  -4.5933451836e-006   3.1291695720e-004   1.0026262080e+000  -4.1211724174e-003   1.0005653487e+000  -3.3391302209e-003   4.6581688933e-004   2.3251673587e-004
  6.5383750000e+008   1.2278014420e-004   2.6155838887e-004   1.0007175664e+000  -4.0583116656e-003   1.0000396212e+000  -2.7749720171e-003   4.4820998372e-004  -6.0048334574e-005
  6.6242500000e+008   2.5034157977e-004   5.9152808085e-005   9.9963574531e-001  -4.9946512044e-003   1.0001565736e+000  -4.5047395909e-003   2.9787162734e-004  -3.7709315249e-004
  6.7101250000e+008   2.1301537672e-004  -2.2557970825e-004   1.0015960418e+000  -1.7292465610e-003   9.9986729074e-001  -2.6002491932e-003   3.9438744057e-004  -5.4739764166e-004
  6.7960000000e+008   4.2750464513e-004  -5.0745375676e-004   1.0013803461e+000  -4.0923149922e-003   1.0002724226e+000  -3.6472801889e-003   4.4877739568e-004  -7.8930181850e-004
  6.8818750000e+008   5.5740762645e-005  -7.9821515911e-004   1.0005918886e+000  -4.2492065098e-003   1.0003211179e+000  -3.8307936888e-003   2.1639334734e-004  -1.0738537495e-003
  6.9677500000e+008  -1.1388368188e-005  -9.7418709793e-004   9.9998990494e-001  -3.8995321067e-003   1.0001548246e+000  -3.8242398376e-003  -6.6882854097e-005  -1.0719103997e-003
  7.0536250000e+008  -3.5386206514e-004  -8.8732403904e-004   1.0019871517e+000  -4.3031455159e-003   9.9970389870e-001  -3.6967573445e-003  -2.2219269590e-004  -1.2905649947e-003
  7.1395000000e+008  -5.7697134251e-004  -8.6728232131e-004   1.0006849430e+000  -4.2843061662e-003   9.9990758701e-001  -3.3832360351e-003  -3.8048488080e-004  -1.3512930906e-003
  7.2253750000e+008  -1.0127133250e-003  -6.5244870595e-004   9.9944231886e-001  -6.2616038043e-003   9.9978607892e-001  -3.4414899656e-003  -7.7779236435e-004  -1.1776119680e-003
  7.3112500000e+008  -1.0362698086e-003  -2.4104127971e-004   1.0002020674e+000  -4.4520589023e-003   1.0000849950e+000  -3.6167076337e-003  -9.4378801535e-004  -9.8861694925e-004
  7.3971250000e+008  -9.8426597913e-004  -7.7322762128e-006   1.0014444470e+000  -5.3479010898e-003   9.9973821559e-001  -3.9011468758e-003  -1.0805848629e-003  -8.0889588337e-004
  7.4830000000e+008  -8.2401828811e-004   4.7008084191e-004   1.0007402380e+000  -4.5345972344e-003   9.9956946523e-001  -4.0730724170e-003  -1.0564228377e-003  -7.3704913442e-004
  7.5688750000e+008  -6.6549781838e-004   6.1726125838e-004   1.0003356197e+000  -6.0556179055e-003   9.9922178943e-001  -3.6539349267e-003  -1.1413513207e-003  -2.2754182264e-004
  7.6547500000e+008  -2.1475846339e-004   7.4510791535e-004   9.9932802998e-001  -5.2497201677e-003   9.9984218276e-001  -3.9655391474e-003  -1.2115666549e-003   2.0898353566e-005
  7.7406250000e+008   4.8559508363e-006   6.7133191987e-004   9.9822488538e-001  -5.5233840869e-003   9.9977348513e-001  -3.7389412686e-003  -8.1348518086e-004   3.2706999750e-004
  7.8265000000e+008   2.7644042775e-004   4.4404982538e-004   9.9838301529e-001  -5.3575023034e-003   9.9999948409e-001  -3.1208877819e-003  -6.2019869435e-004   7.2333990243e-004
  7.9123750000e+008   4.1315084423e-004   2.9715079774e-004   9.9896880248e-001  -5.4464213337e-003   9.9984161190e-001  -3.0133466055e-003  -7.2033338864e-004   7.4254319458e-004
  7.9982500000e+008   4.5736725651e-004   2.7272041536e-004   9.9993100003e-001  -4.3830890310e-003   1.0002480996e+000  -3.0156574642e-003  -3.5696279709e-004   7.9319228541e-004
  8.0841250000e+008   6.4704354705e-004   3.5498203338e-004   9.9797893682e-001  -6.2640741207e-003   9.9983020950e-001  -2.9495028997e-003  -2.9096506053e-004   8.7335801255e-004
  8.1700000000e+008   9.6772370802e-004   2.0945583168e-004   1.0008429053e+000  -5.2659881634e-003   1.0005057355e+000  -3.2443064876e-003  -4.5687506656e-004   9.9537760542e-004
  8.2558750000e+008   1.1307495962e-003  -1.3809123299e-004   9.9893423155e-001  -4.1788930469e-003   1.0008068001e+000  -3.0348843080e-003  -4.1638493964e-004   8.9580107610e-004
  8.3417500000e+008   1.3607293001e-003  -7.8372839466e-004   9.9992843380e-001  -5.0133789424e-003   1.0006417356e+000  -3.2956417068e-003  -2.3431169615e-004   1.2904265775e-003
  8.4276250000e+008   8.4427034045e-004  -1.1962361671e-003   9.9993258830e-001  -4.9497961018e-003   1.0000204147e+000  -3.9333997201e-003   1.6249677102e-005   1.4458610472e-003
  8.5135000000e+008   3.4870281168e-004  -1.2781608311e-003   9.9999656917e-001  -4.9628305348e-003   1.0004194895e+000  -3.7821061032e-003   2.1561188343e-004   1.6240794444e-003
  8.5993750000e+008   7.8198194025e-005  -1.3604036520e-003   9.9951868461e-001  -5.6038351549e-003   1.0003442224e+000  -4.3220282673e-003   3.0679867494e-004   1.3463299952e-003
  8.6852500000e+008  -5.3040528677e-004  -1.0488971034e-003   9.9772963525e-001  -5.5690377744e-003   9.9969772161e-001  -3.8249583217e-003   7.5050594470e-004   1.0894005030e-003
  8.7711250000e+008  -5.4545458707e-004  -8.8282562012e-004   9.9885004067e-001  -4.8506069835e-003   1.0002080468e+000  -4.7553918555e-003   7.4724286971e-004   6.6194589278e-004
  8.8570000000e+008  -5.4905740736e-004  -4.5726462043e-004   1.0007424676e+000  -4.9715347231e-003   9.9974415611e-001  -4.2278687614e-003   8.0578740170e-004   2.5885741771e-004
  8.9428750000e+008  -4.1874939141e-004  -1.0084836542e-004   9.9898753773e-001  -7.0913732707e-003   9.9993821984e-001  -4.7976365881e-003   5.0546859794e-004  -2.0029796825e-004
  9.0287500000e+008   2.3127177164e-005  -1.6593314382e-004   9.9910010036e-001  -6.9421704703e-003   9.9897822712e-001  -4.0457810024e-003   1.9708128158e-004  -3.6116902640e-004
  9.1146250000e+008   2.3066069126e-004  -1.7212002866e-004   9.9869817864e-001  -6.4403369691e-003   9.9921697678e-001  -4.3493600261e-003  -1.6385770773e-004  -4.7346518900e-004
  9.2005000000e+008   2.5914362465e-004  -2.1408186953e-004   9.9874863527e-001  -4.6448627130e-003   9.9956324858e-001  -3.5498650884e-003  -4.4172760641e-004  -6.4819596363e-004
  9.2863750000e+008   4.2469610888e-004  -4.6872760762e-004   9.9946894074e-001  -6.0870578009e-003   9.9917985985e-001  -4.9714528702e-003  -7.9754541191e-004  -7.0743972080e-004
  9.3722500000e+008   3.7598051075e-004  -8.0317124993e-004   1.0002581023e+000  -5.5199571700e-003   9.9913850831e-001  -4.0652439903e-003  -9.8927099157e-004  -8.2647314148e-004
  9.4581250000e+008   3.3513156017e-004  -1.0259510764e-003   9.9928293559e-001  -4.7676611443e-003   9.9952766514e-001  -4.5557384568e-003  -1.3437736361e-003  -6.4416339793e-004
  9.5440000000e+008  -2.8334466910e-005  -1.2204544369e-003   9.9918696438e-001  -5.9292175382e-003   9.9987792637e-001  -3.4320084156e-003  -1.5259637223e-003  -5.2394781006e-004
  9.6298750000e+008  -4.1931409771e-004  -1.2352100763e-003   1.0001493695e+000  -5.3485228716e-003   1.0000344292e+000  -4.2636588872e-003  -1.5909270740e-003  -3.0420854715e-004
  9.7157500000e+008  -5.8074353300e-004  -1.3708079647e-003   1.0018483766e+000  -5.0984911815e-003   1.0008626774e+000  -4.6014303986e-003  -1.5964023882e-003  -2.1330955896e-004
  9.8016250000e+008  -8.3187465895e-004  -1.0493460756e-003   9.9920273138e-001  -6.1602469084e-003   9.9900650303e-001  -5.5594006319e-003  -1.5630966645e-003   1.2627628091e-004
  9.8875000000e+008  -9.8714896652e-004  -6.6330685005e-004   1.0011026080e+000  -4.2143441610e-003   9.9922661253e-001  -4.4086283221e-003  -1.4389969071e-003   2.3780048216e-004
  9.9733750000e+008  -1.1082016469e-003  -4.1162983239e-004   9.9848449533e-001  -6.2438456893e-003   9.9978588120e-001  -3.9252106474e-003  -1.3677636091e-003   2.9949960269e-004
  1.0059250000e+009  -1.0406774210e-003   5.8559953664e-006   9.9852719908e-001  -5.4720581146e-003   1.0002630808e+000  -4.0101368237e-003  -8.4281319217e-004   4.2192755299e-004
  1.0145125000e+009  -9.3506434316e-004   3.3257295047e-004   9.9922674790e-001  -8.8546444892e-003   9.9976433634e-001  -3.9334374651e-003  -4.6864604680e-004   4.3481772268e-004
  1.0231000000e+009  -6.5122038887e-004   4.3786009268e-004   9.9972381686e-001  -5.1324256891e-003   9.9886055896e-001  -5.0374825118e-003  -3.0339577394e-004   4.4157177863e-004
  1.0316875000e+009  -4.1480661102e-004   7.1820999597e-004   1.0004000598e+000  -7.3678793044e-003   9.9960875076e-001  -4.6157554332e-003   8.2956201132e-005   4.4016401186e-004
  1.0402750000e+009   9.3612970005e-005   7.1148849296e-004   9.9841326911e-001  -5.1928439518e-003   9.9968179410e-001  -4.1364361938e-003   4.5708117063e-004   2.0655027729e-004
  1.0488625000e+009   4.7555925114e-004   5.5263426728e-004   1.0002869989e+000  -6.2749034438e-003   9.9958550229e-001  -4.4879873183e-003   7.4871505743e-004  -6.0627055813e-005
  1.0574500000e+009   5.8459883873e-004   2.1415402978e-004   9.9908458792e-001  -5.2787787347e-003   9.9943749906e-001  -4.8404188115e-003   8.3205059333e-004  -2.7152630337e-004
