# Hz S RI R 50.000000
! Metas.Vna.Tools, 2.8.8664.20301
! Metas.Vna.Data, 2.8.8664.20285
! Created: UTC 2024.02.11 10:08:16
! FREQ                re:S1,1             im:S1,1             re:S2,1             im:S2,1             re:S1,2             im:S1,2             re:S2,2             im:S2,2          
  1.3000000000e+008   3.0421091500e-004  -1.5316204390e-003   9.9379459979e-001  -5.3350433821e-003   1.0001826472e+000  -1.2260923470e-003   1.1438367192e-003   6.5398257985e-004
  1.3858750000e+008  -1.0569476916e-003  -1.0154921796e-003   9.9406924079e-001  -4.7231482654e-003   1.0005502880e+000  -3.2147926884e-004   1.7619214912e-003  -3.3841720956e-004
  1.4717500000e+008  -1.6850803771e-003  -9.7953886466e-004   9.9399274936e-001  -6.2515409267e-003   1.0001630402e+000  -1.2093052736e-003   6.5753682968e-004  -3.3930960957e-004
  1.5576250000e+008  -1.4669072795e-003   3.1805904393e-004   9.9484341382e-001  -5.0284119728e-003   1.0002477089e+000  -9.0281093161e-004   1.4155315967e-003  -3.5139883951e-004
  1.6435000000e+008  -8.9248615429e-004   5.6847562062e-004   9.9556943696e-001  -4.6092917428e-003   1.0004168482e+000  -1.4190725851e-003   9.7923080381e-004  -2.2760559762e-004
  1.7293750000e+008  -1.1692479003e-003   1.1406806626e-003   9.9515467739e-001  -4.2570191572e-003   1.0006379136e+000  -1.0565869098e-003   7.3695835657e-004  -4.5129103434e-004
  1.8152500000e+008  -2.1879279230e-004   6.0575348762e-004   9.9491835127e-001  -5.5398766470e-003   1.0002241668e+000  -1.4897323588e-003   5.5878369374e-004  -4.7728054683e-004
  1.9011250000e+008  -1.7943346629e-004   3.7956201671e-004   9.9608180731e-001  -5.6020286841e-003   1.0003611061e+000  -9.2647741753e-004   2.8379485357e-004  -1.1809038014e-003
  1.9870000000e+008  -1.6942929933e-004   8.9293735697e-004   9.9468867734e-001  -5.7605320546e-003   1.0003200751e+000  -1.4765895056e-003   4.7740871816e-004  -3.6374223488e-004
  2.0728750000e+008   6.6889667452e-004   1.1376236493e-004   9.9557368242e-001  -5.0930073784e-003   1.0011114640e+000  -1.0744684894e-003   8.3187945036e-005  -4.9656060864e-004
  2.1587500000e+008   2.2902074416e-004  -3.9034074935e-004   9.9602510203e-001  -5.8303482765e-003   1.0002635594e+000  -1.0820814690e-003  -5.2333629924e-004   2.4318733093e-004
  2.2446250000e+008   8.6873834241e-006  -3.7836984034e-004   9.9468619739e-001  -5.2468506910e-003   1.0000870475e+000  -9.6513528945e-004  -3.1137584353e-004   3.6237283116e-004
  2.3305000000e+008  -4.3168030125e-007  -2.4486641577e-004   9.9585467532e-001  -5.0593185373e-003   1.0003403127e+000  -1.2886191875e-003  -4.9846125123e-004   7.6405283416e-005
  2.4163750000e+008  -3.6939537539e-005  -3.5582589888e-004   9.9504470606e-001  -6.2831949638e-003   1.0002957077e+000  -2.4484095486e-003  -4.2429930594e-004   1.7496295033e-004
  2.5022500000e+008  -4.0211522370e-004  -6.6642967413e-004   9.9529221324e-001  -5.0575829865e-003   1.0001352371e+000  -1.4686588099e-003  -9.1221160222e-004   9.2690687772e-004
  2.5881250000e+008  -2.9046921609e-004  -4.7005441142e-004   9.9411213447e-001  -3.9013111868e-003   1.0000471268e+000  -1.7071246110e-003  -7.8205957525e-004   1.0177783006e-003
  2.6740000000e+008  -6.9024599154e-004  -5.8058000918e-004   9.9418200802e-001  -5.6708866726e-003   1.0003511522e+000  -2.7718726755e-003  -5.9283728640e-004   3.1070470684e-004
  2.7598750000e+008  -1.3388949489e-004  -2.4904777133e-004   9.9342551598e-001  -6.6654519880e-003   1.0004212824e+000  -1.6533142865e-003  -3.4467839870e-004   3.8812063725e-004
  2.8457500000e+008  -6.4868776368e-004  -1.8940963318e-004   9.9468531209e-001  -5.4889640251e-003   1.0012863693e+000  -1.4491102977e-003  -2.7491713605e-004   7.3750562537e-004
  2.9316250000e+008  -3.8442337679e-004  -4.4522661600e-004   9.9390192960e-001  -5.6843299580e-003   1.0007520133e+000  -2.2154274976e-003  -2.2078330255e-004   3.8903270936e-004
  3.0175000000e+008  -8.4944268679e-004   1.5177783430e-004   9.9369489102e-001  -7.6054879003e-003   1.0011789232e+000  -1.0929264347e-003  -4.0399969000e-004   2.1141851934e-004
  3.1033750000e+008  -1.0040459890e-003  -4.9490752160e-005   9.9536058976e-001  -4.7609056167e-003   1.0013846477e+000  -1.3288376538e-003  -5.7213838751e-004   6.0469193026e-004
  3.1892500000e+008  -7.9734458211e-004   2.1951333012e-004   9.9427729715e-001  -6.3625051411e-003   1.0000960226e+000  -1.7727175114e-003  -7.5790774690e-004   3.4717091045e-005
  3.2751250000e+008  -9.9346633473e-004   2.4643256386e-004   9.9464448621e-001  -6.9039541999e-003   9.9989098883e-001  -1.9626862140e-003  -7.0714287988e-004   2.3289041940e-004
  3.3610000000e+008  -5.7087558192e-004  -1.7738622562e-005   9.9401360849e-001  -4.6052155999e-003   1.0012395357e+000  -2.0805743372e-003  -7.4873366212e-004   6.1125118466e-005
  3.4468750000e+008  -6.3400989793e-004   1.3459139035e-004   9.9325493870e-001  -5.7184470820e-003   1.0004321692e+000  -2.1620620909e-003  -6.7591998240e-004   2.6777117884e-006
  3.5327500000e+008  -5.9611605466e-004   1.5275392204e-004   9.9348214590e-001  -5.8857727493e-003   9.9953633829e-001  -2.3063007548e-003  -6.3463607204e-004  -1.3007140913e-005
  3.6186250000e+008  -4.6268315009e-004   2.9329014437e-004   9.9523525062e-001  -7.2989328898e-003   1.0003703333e+000  -1.9864597907e-003  -4.2245727080e-004   1.6285999232e-004
  3.7045000000e+008  -4.1753755658e-004   4.6853982504e-004   9.9315181623e-001  -5.8631847760e-003   1.0006003986e+000  -2.4721287525e-003  -4.3178369323e-004   1.8520573364e-004
  3.7903750000e+008  -2.1611567349e-004   6.4669953929e-004   9.9246369412e-001  -5.4533611740e-003   1.0008731940e+000  -2.4754439860e-003  -5.6369307789e-004   1.6558252639e-004
  3.8762500000e+008  -2.2497449356e-004   4.9988508903e-004   9.9697776059e-001  -6.1302528490e-003   1.0002317093e+000  -1.8572041798e-003  -5.2847108880e-004   6.3999376267e-004
  3.9621250000e+008  -3.6489919866e-004   2.8874072265e-004   9.9378206778e-001  -6.4130013267e-003   1.0007581923e+000  -2.4084344306e-003  -5.3218265116e-004   4.1212350547e-004
  4.0480000000e+008   6.8966690709e-005   4.2304249747e-004   9.9424977499e-001  -6.2199663171e-003   1.0002770426e+000  -2.2747400071e-003  -1.3632841189e-004   2.7409202658e-004
  4.1338750000e+008   4.1745001166e-004   3.3114539121e-005   9.9349977267e-001  -4.7416270026e-003   1.0009298413e+000  -2.3696432879e-003   2.1678402269e-004   3.4446222873e-004
  4.2197500000e+008  -2.0621340721e-004  -1.5223171312e-004   9.9457562176e-001  -6.0669353198e-003   1.0005240533e+000  -2.0143291879e-003   1.6638867483e-004   5.8336573412e-004
  4.3056250000e+008   3.3219160652e-004  -1.1090124539e-004   9.9535546348e-001  -5.9659691020e-003   1.0004857277e+000  -2.6034619412e-003   3.7608265511e-004   3.5300137006e-004
  4.3915000000e+008  -5.2112762646e-005  -1.4442832171e-004   9.9726142625e-001  -5.0514870305e-003   1.0000566003e+000  -2.6686611913e-003   5.3953034146e-004   5.3110268106e-004
  4.4773750000e+008   2.1256521986e-004  -1.5767243758e-004   9.9683296316e-001  -5.7126253761e-003   1.0005019474e+000  -2.5198223949e-003   5.7843246750e-004   1.0372860733e-004
  4.5632500000e+008  -3.7791372148e-005  -4.2845883452e-004   9.9445479159e-001  -5.6107059110e-003   9.9997090042e-001  -2.3583338027e-003   6.1441491447e-004   2.4183284303e-004
  4.6491250000e+008  -3.1461588013e-004  -9.0293774136e-005   9.9595736340e-001  -6.3692744852e-003   1.0000694153e+000  -2.5764103604e-003   5.8387755192e-004  -5.0542390981e-005
  4.7350000000e+008  -5.2495959511e-004  -2.9575638734e-004   9.9376381242e-001  -5.9463878533e-003   1.0002614960e+000  -2.3726469364e-003   6.0460700982e-004   5.5007020981e-005
  4.8208750000e+008  -2.0236862657e-004  -5.0632206095e-005   9.9297020516e-001  -7.3349830565e-003   9.9972916938e-001  -2.1510054579e-003   6.8244368753e-004   1.7321035363e-004
  4.9067500000e+008   3.3402176767e-005  -2.3429665474e-004   9.9280540719e-001  -7.2398017549e-003   1.0000531992e+000  -2.4278176693e-003   4.1594637043e-004  -1.8548835239e-004
  4.9926250000e+008   2.9220157727e-005  -4.7679317273e-004   9.9245368872e-001  -5.7655995261e-003   9.9952801729e-001  -2.4015949739e-003   7.3787615755e-004   4.1592430886e-005
  5.0785000000e+008  -4.3913258549e-004  -5.1959767206e-004   9.9242325270e-001  -5.4831376050e-003   1.0000629702e+000  -2.0145722623e-003   5.4185134204e-004   3.8215216519e-004
  5.1643750000e+008  -6.0713451057e-004   4.5507585635e-005   9.9446772269e-001  -4.5130525134e-003   9.9999825842e-001  -2.2038517602e-003   9.4067456405e-004  -1.0574240777e-004
  5.2502500000e+008  -4.2392615846e-004   6.7432066443e-004   9.9501314012e-001  -4.6259350950e-003   1.0007822621e+000  -1.8489896259e-003   4.3301419375e-004  -6.9163802721e-004
  5.3361250000e+008   3.6781052286e-004   6.0069087031e-004   9.9546091110e-001  -5.9475602090e-003   1.0003527766e+000  -2.1215307925e-003   2.7053923024e-005  -7.5199585999e-004
  5.4220000000e+008   6.3720314770e-004   3.3409044039e-004   9.9493874646e-001  -5.9915085006e-003   1.0007131532e+000  -2.3846747251e-003  -8.4168540850e-004  -4.9606579835e-004
  5.5078750000e+008   6.0290424917e-004  -6.8224146978e-004   9.9463849378e-001  -7.6451083872e-003   1.0003548003e+000  -3.2888490335e-003  -1.0913732023e-003  -3.7836862895e-004
  5.5937500000e+008   5.1364012306e-004  -6.0629509850e-004   9.9416266138e-001  -6.4829291578e-003   1.0001534767e+000  -2.6615112436e-003  -1.0435802964e-003  -5.2210170562e-005
  5.6796250000e+008   2.9032614852e-004  -8.8592604780e-004   9.9689437564e-001  -6.2531674223e-003   1.0003929240e+000  -2.8458996383e-003  -1.1627927941e-003   4.5505163722e-004
  5.7655000000e+008  -7.4641272933e-005  -1.0454558987e-003   9.9551853156e-001  -8.2238694749e-003   1.0005135922e+000  -2.9947827673e-003  -7.6118236881e-004   7.6466276130e-004
  5.8513750000e+008  -5.7200014552e-004  -9.6106983955e-004   9.9371893625e-001  -6.9398720671e-003   9.9987033957e-001  -2.9364141068e-003  -8.8006912024e-004   8.3875897038e-004
  5.9372500000e+008  -5.6755764463e-004  -8.4232768195e-004   9.9451457355e-001  -5.8849544336e-003   9.9988822846e-001  -3.5861069743e-003  -6.5449556441e-004   1.1359460164e-003
  6.0231250000e+008  -9.6711859116e-004  -5.6868148000e-004   9.9362813967e-001  -5.9470465976e-003   1.0005595115e+000  -3.4488315881e-003  -4.8495335820e-004   9.2380482715e-004
  6.1090000000e+008  -8.0579047421e-004  -3.9831403156e-004   9.9432851197e-001  -7.0260233770e-003   1.0000265587e+000  -2.3251265714e-003  -3.8419110406e-004   9.3586536460e-004
  6.1948750000e+008  -8.5141080258e-004   9.4366703162e-005   9.9364404700e-001  -6.3056869960e-003   9.9994557677e-001  -3.0917864613e-003  -3.2046593131e-004   5.5900755932e-004
  6.2807500000e+008  -7.3126463149e-004  -5.9737578642e-005   9.9401322581e-001  -7.9635566063e-003   9.9969729439e-001  -2.2594707664e-003   2.6752041813e-004   5.7866471236e-004
  6.3666250000e+008  -2.7832504655e-004   4.8720144925e-004   9.9553483713e-001  -6.8536315393e-003   9.9988809344e-001  -2.8445294663e-003   1.5382784388e-004   3.2874576616e-004
  6.4525000000e+008  -8.1136684222e-005   3.3075466969e-004   9.9523153726e-001  -5.7909912984e-003   1.0007491936e+000  -3.0561327867e-003   4.0939886467e-004   1.2092222333e-004
  6.5383750000e+008   6.4074610209e-005   1.6816096432e-004   9.9589108060e-001  -5.6366865400e-003   1.0000051653e+000  -2.6991813678e-003   5.3179394875e-004  -8.5300970147e-005
  6.6242500000e+008   2.8325998542e-004   1.4517625968e-004   9.9216801670e-001  -7.5845187259e-003   1.0003652418e+000  -3.9703956831e-003   2.6290735688e-004  -3.2918736656e-004
  6.7101250000e+008   5.0317900928e-004  -2.0831771982e-004   9.9484245792e-001  -5.7025135964e-003   9.9986569417e-001  -2.5063977173e-003   1.7857550853e-004  -6.0514150840e-004
  6.7960000000e+008   5.8201396907e-004  -4.7883502398e-004   9.9318709517e-001  -6.9096222181e-003   1.0003408972e+000  -3.4456285173e-003   2.1312419705e-004  -9.4791040317e-004
  6.8818750000e+008   1.1650999888e-004  -7.1114585676e-004   9.9627311803e-001  -6.2913067984e-003   1.0004063511e+000  -2.9885566983e-003  -4.6554883886e-005  -1.1047307452e-003
  6.9677500000e+008   1.8634074291e-004  -9.3631545814e-004   9.9426752183e-001  -6.7078127694e-003   9.9973052026e-001  -3.1395175595e-003  -1.5970779907e-004  -1.0412531110e-003
  7.0536250000e+008  -3.5458602748e-004  -1.0995034225e-003   9.9236366835e-001  -6.9042391429e-003   9.9991895813e-001  -3.0389051008e-003  -3.5816641081e-004  -1.3483987314e-003
  7.1395000000e+008  -6.9065704470e-004  -9.8961211950e-004   9.9288314270e-001  -6.6491812828e-003   9.9991192018e-001  -3.2917045707e-003  -5.8427909829e-004  -1.1954249624e-003
  7.2253750000e+008  -1.0294011699e-003  -8.7477989067e-004   9.9185102082e-001  -7.5865673436e-003   9.9975144695e-001  -2.8315756103e-003  -7.9967509689e-004  -1.2170203290e-003
  7.3112500000e+008  -9.4601057213e-004  -3.9471623102e-004   9.9195808207e-001  -7.4904028831e-003   9.9983056133e-001  -2.8980328502e-003  -9.2579008660e-004  -9.7506993901e-004
  7.3971250000e+008  -9.3425227991e-004   1.3315890464e-004   9.9113097836e-001  -8.1715327833e-003   9.9993119616e-001  -3.3365531851e-003  -1.1954424455e-003  -6.5997724825e-004
  7.4830000000e+008  -8.8709128403e-004   5.0007296102e-004   9.9232463890e-001  -6.4084379323e-003   9.9949316632e-001  -3.7285831611e-003  -1.0735417014e-003  -6.6589730078e-004
  7.5688750000e+008  -7.6905572343e-004   7.3019641038e-004   9.8973996794e-001  -8.4037302067e-003   9.9946619929e-001  -3.1350415377e-003  -1.2813141178e-003  -2.4768003236e-004
  7.6547500000e+008  -2.1150188069e-004   7.6842666006e-004   9.9056962227e-001  -8.8284414507e-003   9.9886950679e-001  -3.4292272475e-003  -1.1338420578e-003  -6.3699390945e-005
  7.7406250000e+008   1.9214987841e-004   7.2442459206e-004   9.9024841194e-001  -7.8903616585e-003   9.9991938055e-001  -3.0430862137e-003  -8.9814999707e-004   2.0056768346e-004
  7.8265000000e+008   3.2275611349e-004   5.0136739781e-004   9.9167518807e-001  -8.1730564880e-003   9.9895877745e-001  -3.4686998667e-003  -7.5490341472e-004   6.5356361418e-004
  7.9123750000e+008   6.4204133115e-004   3.1759782303e-004   9.9086692967e-001  -7.3825496414e-003   9.9924527981e-001  -2.7387926854e-003  -5.7454984310e-004   5.4559083742e-004
  7.9982500000e+008   5.1677279601e-004   1.2724332191e-004   9.9266358735e-001  -7.6936894489e-003   1.0004258138e+000  -2.8107043297e-003  -4.0657238598e-004   7.6864784833e-004
  8.0841250000e+008   7.8482036466e-004   3.0685294016e-005   9.9083777758e-001  -8.2045429891e-003   9.9989008805e-001  -2.6793876156e-003  -3.4097725162e-004   8.0652603483e-004
  8.1700000000e+008   1.0293586335e-003  -9.0163987053e-006   9.9473485779e-001  -6.0687849319e-003   9.9958357779e-001  -2.4211876786e-003  -5.6973730561e-004   7.9368237631e-004
  8.2558750000e+008   1.1179030458e-003  -2.6350148784e-004   9.9422778455e-001  -5.7914244960e-003   1.0006058767e+000  -3.4399869629e-003  -5.6516280538e-004   9.7138594527e-004
  8.3417500000e+008   1.1111162697e-003  -9.6585293528e-004   9.9371898385e-001  -6.5385396757e-003   1.0007815973e+000  -3.4309868496e-003  -3.4565595422e-004   1.2246159287e-003
  8.4276250000e+008   6.1543149645e-004  -1.1431325835e-003   9.9362848622e-001  -7.2015692713e-003   1.0003481975e+000  -3.7664737674e-003  -8.8235746251e-005   1.2524277686e-003
  8.5135000000e+008   1.0619846392e-004  -1.2638776670e-003   9.9366333098e-001  -7.0783217571e-003   1.0007779463e+000  -3.7983183516e-003   2.3304426337e-004   1.5540988555e-003
  8.5993750000e+008  -3.2160260865e-005  -1.3788015768e-003   9.9358430807e-001  -7.0532717485e-003   1.0001174652e+000  -3.9831702800e-003   2.9384861675e-004   1.1692826990e-003
  8.6852500000e+008  -4.6625609341e-004  -1.0586484805e-003   9.9065558576e-001  -7.5615331768e-003   9.9949016758e-001  -3.2676810016e-003   5.8958614329e-004   9.6086213498e-004
  8.7711250000e+008  -6.7376116922e-004  -7.4004026712e-004   9.9175305649e-001  -7.7912876622e-003   1.0003394509e+000  -3.3798650076e-003   6.1515655913e-004   4.9189437197e-004
  8.8570000000e+008  -4.8135685799e-004  -3.3776214563e-004   9.9207531938e-001  -4.6387853296e-003   9.9899129817e-001  -4.0011275410e-003   6.6677550555e-004   2.7612291679e-004
  8.9428750000e+008  -3.6417265054e-004  -2.5550491496e-004   9.9199074431e-001  -8.6431253893e-003   1.0005897693e+000  -3.5569496745e-003   3.6673064444e-004  -2.9634517095e-004
  9.0287500000e+008  -1.1074050273e-004  -1.4759013186e-004   9.9114663380e-001  -9.1080038595e-003   9.9925636698e-001  -3.8371396704e-003   6.1726670987e-005  -4.5033691853e-004
  9.1146250000e+008   1.2692998211e-004  -1.8233331053e-004   9.9118295060e-001  -8.8159573957e-003   9.9898017408e-001  -3.8024705144e-003  -2.8275526465e-004  -5.0847118613e-004
  9.2005000000e+008   1.6982238911e-004  -2.9743483181e-004   9.9241429267e-001  -6.3784680613e-003   9.9883211598e-001  -3.8729191199e-003  -5.9622607851e-004  -7.3445831151e-004
  9.2863750000e+008   5.1331146521e-004  -4.7892463227e-004   9.9429087420e-001  -6.8077782849e-003   9.9878617141e-001  -4.6865317299e-003  -7.6631231450e-004  -7.8895087536e-004
  9.3722500000e+008   3.9416844540e-004  -6.4646224203e-004   9.9515390505e-001  -6.4881422345e-003   9.9844566398e-001  -3.6261388701e-003  -1.0764644815e-003  -8.9691419001e-004
  9.4581250000e+008   3.7970148964e-004  -1.0833685387e-003   9.9567952414e-001  -6.3029655374e-003   9.9917643973e-001  -3.4501701314e-003  -1.3346419614e-003  -7.3220327753e-004
  9.5440000000e+008   6.9783689903e-005  -1.1257008195e-003   9.9490755351e-001  -8.0347160194e-003   1.0005366349e+000  -2.6748826778e-003  -1.5061467438e-003  -4.7008426155e-004
  9.6298750000e+008  -2.6505296502e-004  -1.2384469629e-003   9.9754001421e-001  -4.8770339295e-003   1.0008637036e+000  -4.7072269978e-003  -1.6702174899e-003  -3.5266456364e-004
  9.7157500000e+008  -5.6136208289e-004  -1.2894681730e-003   9.9539794768e-001  -7.8457277708e-003   1.0008715041e+000  -3.7400625778e-003  -1.5772869127e-003  -2.3553106301e-004
  9.8016250000e+008  -8.4638924036e-004  -1.0647556061e-003   9.9431317463e-001  -7.3497218696e-003   1.0000934372e+000  -4.7872827608e-003  -1.5441423759e-003   1.1691816447e-004
  9.8875000000e+008  -1.1937441185e-003  -6.8576196735e-004   9.9067632335e-001  -7.6272909443e-003   9.9904050072e-001  -3.6006428551e-003  -1.3062139422e-003   3.8173988375e-004
  9.9733750000e+008  -1.0948064186e-003  -3.8057216192e-004   9.9053130536e-001  -8.6353680821e-003   9.9921272439e-001  -3.3739015977e-003  -1.0520326330e-003   1.7963195390e-004
  1.0059250000e+009  -1.0063169303e-003   5.2461705014e-006   9.9077574174e-001  -7.5064219165e-003   1.0005879686e+000  -3.5925187509e-003  -7.8977265192e-004   3.2168604705e-004
  1.0145125000e+009  -8.3752662181e-004   4.5628057955e-004   9.8996854786e-001  -1.0341244205e-002   9.9913289869e-001  -3.4714997013e-003  -4.5420993105e-004   2.6839486407e-004
  1.0231000000e+009  -6.6496670973e-004   5.6543203999e-004   9.9002697372e-001  -8.2473186096e-003   9.9939255691e-001  -4.2701626046e-003  -1.5818038986e-004   3.7552616050e-004
  1.0316875000e+009  -3.0307622725e-004   8.1010002872e-004   9.9369853588e-001  -8.5903628728e-003   9.9942939233e-001  -4.1870511935e-003   4.9155930068e-005   3.5986250572e-004
  1.0402750000e+009   1.2232423474e-004   7.8566135607e-004   9.9314603530e-001  -6.8482873321e-003   9.9935505886e-001  -3.6650611466e-003   3.9965143294e-004  -2.1923279365e-005
  1.0488625000e+009   4.2410614054e-004   6.0789608381e-004   9.9333169662e-001  -7.7538550965e-003   9.9988524636e-001  -3.5074952786e-003   6.8456058819e-004  -4.9658351082e-005
  1.0574500000e+009   5.7561027835e-004   2.5714981230e-004   9.9338525713e-001  -7.8370488179e-003   9.9925355837e-001  -3.4314507114e-003   8.6975977897e-004  -5.0155854036e-004
