# Hz S RI R 50.000000
! Metas.Vna.Tools, 2.8.8664.20301
! Metas.Vna.Data, 2.8.8664.20285
! Created: UTC 2024.02.11 10:08:43
! FREQ                re:S1,1             im:S1,1             re:S2,1             im:S2,1             re:S1,2             im:S1,2             re:S2,2             im:S2,2          
  1.3000000000e+008   3.9020061097e-004  -8.1873575724e-004   9.9050127054e-001  -7.1715732050e-003   1.0001043034e+000  -4.4370123177e-005   1.0083350022e-003   5.2239912755e-004
  1.3858750000e+008  -8.7012533846e-004  -1.2426286156e-003   9.9208771650e-001  -6.2562035817e-003   1.0004623730e+000   3.5603236621e-004   1.4213142955e-003  -2.6675817508e-004
  1.4717500000e+008  -1.4011126908e-003  -9.5296556048e-004   9.9046045613e-001  -6.8023571972e-003   1.0006607077e+000  -1.9181895705e-004   7.6320476030e-004  -2.8578025510e-004
  1.5576250000e+008  -1.4574923898e-003   6.1570951773e-005   9.9219623639e-001  -6.1028082215e-003   1.0003437782e+000   4.4655940040e-004   8.5505252071e-004  -6.8591612587e-004
  1.6435000000e+008  -1.4564733808e-003   7.4096336660e-004   9.9219617792e-001  -6.3943280948e-003   1.0009882001e+000  -4.6221631331e-005   7.4276562678e-004  -4.4505264108e-004
  1.7293750000e+008  -1.2695877185e-003   1.0194192985e-003   9.9240734561e-001  -6.2177019739e-003   1.0003890729e+000   3.4824941083e-004   7.4014229640e-004  -6.0904442277e-004
  1.8152500000e+008  -9.2241444748e-005   5.3926637987e-004   9.9094665477e-001  -6.5387393156e-003   1.0000279164e+000  -8.4666573682e-004   4.3452525919e-004  -9.8749486968e-004
  1.9011250000e+008  -3.0707942474e-004   6.3194261275e-004   9.9233155078e-001  -7.3125390718e-003   1.0007875064e+000  -6.0999184668e-004  -9.5347431377e-006  -1.0604578531e-003
  1.9870000000e+008  -1.3274537377e-004   7.4776041813e-004   9.9243037351e-001  -5.7185974256e-003   1.0007743870e+000  -9.5265325267e-005   4.5780269627e-004  -6.7349024763e-005
  2.0728750000e+008   2.7429351373e-004   1.0055773643e-004   9.9235366326e-001  -6.1745776489e-003   1.0006253239e+000  -7.5689246190e-004   2.1038034466e-004  -6.9385022168e-004
  2.1587500000e+008   4.2962551167e-004  -4.4918475766e-004   9.9434696101e-001  -5.9397489982e-003   1.0001551316e+000   7.2376395565e-005  -2.9750942726e-004   1.8898203744e-004
  2.2446250000e+008   4.0990430424e-004  -5.8457645308e-004   9.9347304667e-001  -5.5561530045e-003   1.0003713922e+000  -4.6374575714e-004  -1.3128749649e-004   3.8214840043e-004
  2.3305000000e+008  -1.2840893284e-004  -2.1135863720e-004   9.9256831621e-001  -6.9026645554e-003   1.0005419710e+000  -1.8604015640e-004  -2.3154046425e-004  -3.7263217990e-005
  2.4163750000e+008  -9.9751625914e-005  -4.9012344064e-004   9.9269333130e-001  -7.0653353284e-003   1.0001534154e+000  -1.1770745831e-003  -6.3952074115e-004   9.9875390021e-005
  2.5022500000e+008  -3.6907183577e-004  -3.0834197606e-004   9.9259939272e-001  -5.8992172969e-003   1.0004598222e+000   3.1321097660e-004  -8.6730598119e-004   7.1453905553e-004
  2.5881250000e+008  -5.7897772625e-004  -8.7173545422e-004   9.9270343491e-001  -6.3609608489e-003   1.0007034967e+000  -1.1589190921e-003  -5.7650111180e-004   7.1162367889e-004
  2.6740000000e+008  -6.8412655730e-004  -5.0042418065e-004   9.9273673876e-001  -7.2227779075e-003   1.0008514863e+000  -1.1061288103e-003  -5.5555367576e-004   4.7787403659e-004
  2.7598750000e+008  -1.9474381920e-004   6.2816132692e-005   9.9297598358e-001  -7.3503861882e-003   1.0001465969e+000  -6.2835945308e-004  -3.4928656206e-004   4.7592809063e-004
  2.8457500000e+008  -7.4104599380e-004  -3.1502058707e-004   9.9229113765e-001  -6.6160515960e-003   1.0010357607e+000  -2.2694447632e-004  -2.3810560085e-004   9.7634327300e-004
  2.9316250000e+008  -7.0490299565e-004  -2.4772328207e-004   9.9299542409e-001  -6.2729640018e-003   1.0008656898e+000  -1.5432006177e-003  -3.9381354091e-004   3.8262173482e-004
  3.0175000000e+008  -8.0232213669e-004   3.5250731120e-004   9.9262090106e-001  -8.7879424315e-003   1.0005968442e+000  -7.4158145537e-004  -5.2506203106e-004   3.8012350308e-004
  3.1033750000e+008  -8.5770485923e-004   2.7378913324e-004   9.9304854027e-001  -6.5782147848e-003   1.0012783364e+000  -1.0025753647e-003  -6.6690769894e-004   6.3913494502e-004
  3.1892500000e+008  -8.0493137713e-004  -9.6726535513e-005   9.9138042590e-001  -7.5074002345e-003   1.0002424064e+000  -6.6727948440e-005  -8.1300788249e-004   1.9952996510e-004
  3.2751250000e+008  -6.7031650811e-004   1.2196660355e-004   9.9132552239e-001  -7.4496894941e-003   1.0002254136e+000  -1.0027290588e-003  -7.7151130335e-004   1.8867325543e-004
  3.3610000000e+008  -6.4289565201e-004   1.9280347353e-004   9.9287327687e-001  -5.9122562870e-003   1.0015718220e+000  -1.1592328351e-003  -4.2625923094e-004  -5.5783484251e-005
  3.4468750000e+008  -7.1625189363e-004   3.5529781810e-007   9.9261925088e-001  -5.7578913396e-003   1.0000701179e+000  -7.7915346518e-004  -4.6366559215e-004   1.9962686845e-004
  3.5327500000e+008  -6.6607260960e-004   6.0782045319e-005   9.9257209998e-001  -7.5203914576e-003   9.9959444740e-001  -1.7320625653e-003  -5.5438912473e-004   2.3945592004e-004
  3.6186250000e+008  -4.1083959359e-004   2.4324549679e-004   9.9364527930e-001  -6.5813836462e-003   1.0008896389e+000  -7.8476131406e-004  -5.4836576111e-004   3.8557260724e-004
  3.7045000000e+008  -7.5617548364e-004   4.6808896966e-004   9.9186284701e-001  -7.2863692935e-003   1.0005538661e+000  -1.2565583734e-003  -6.2970645061e-004   1.8960351664e-004
  3.7903750000e+008  -2.5967402828e-004   5.8287708618e-004   9.9211002286e-001  -7.0451893408e-003   1.0004785944e+000  -1.1206860855e-003  -4.3653818360e-004   3.6727644735e-004
  3.8762500000e+008  -2.4580614061e-004   6.4029705062e-004   9.9438269758e-001  -5.8761852766e-003   9.9987333325e-001  -7.9759932131e-004  -3.8081120555e-004   4.0193866847e-004
  3.9621250000e+008  -2.5174970443e-004   1.1268824991e-004   9.9260344033e-001  -7.1296751877e-003   1.0009239813e+000  -1.6376276368e-003  -5.5794373427e-004   5.1298646749e-004
  4.0480000000e+008   2.7181235359e-004   3.6414100019e-004   9.9505448067e-001  -6.5448903238e-003   1.0006664754e+000  -7.9022579676e-004  -2.1879931529e-004   6.1023658329e-004
  4.1338750000e+008   2.1970653755e-004   4.7099514824e-005   9.9282076131e-001  -6.2807477114e-003   1.0006205894e+000  -1.1638545370e-003  -2.2354620751e-006   3.6185044154e-004
  4.2197500000e+008  -2.3545199750e-005  -2.7978191069e-004   9.9357366866e-001  -7.0657545909e-003   1.0003297423e+000  -8.1197457177e-004   1.5039286880e-004   6.1319977007e-004
  4.3056250000e+008   1.9589301420e-004  -1.0156651812e-005   9.9346931606e-001  -7.4784203670e-003   1.0007224136e+000  -1.3439032288e-003   4.1989614004e-004   4.2600575870e-004
  4.3915000000e+008   5.7164356232e-005  -2.9141740019e-004   9.9528110041e-001  -5.4667443388e-003   1.0003968031e+000  -1.6443375310e-003   4.6401368016e-004   2.1311736325e-004
  4.4773750000e+008   1.3530877529e-004  -3.4504856733e-004   9.9557856663e-001  -6.3622532826e-003   1.0002955119e+000  -1.6675142979e-003   5.0759528455e-004   2.5123511912e-004
  4.5632500000e+008  -2.2987150502e-004  -3.9295586569e-004   9.9488917448e-001  -5.9927596871e-003   1.0005680263e+000  -1.3359464451e-003   5.1564415096e-004   1.5101983544e-004
  4.6491250000e+008  -4.2422573650e-004  -4.5512678135e-005   9.9477236793e-001  -7.0947039602e-003   1.0001869009e+000  -1.7044467902e-003   5.8245492169e-004   1.7941714317e-004
  4.7350000000e+008  -5.8965261995e-004  -2.3459438071e-004   9.9505135946e-001  -7.0895831347e-003   1.0003658685e+000  -1.2196976755e-003   6.3653243140e-004   1.2727700629e-005
  4.8208750000e+008  -2.9226908563e-004  -2.5991218058e-005   9.9327336407e-001  -6.5534028439e-003   9.9997280419e-001  -1.2909766485e-003   6.7338945715e-004   1.7997886435e-004
  4.9067500000e+008  -1.9352628909e-004  -1.9616319715e-004   9.9210743281e-001  -7.5962095844e-003   1.0000160191e+000  -1.4626481211e-003   3.9356597784e-004   1.2330519556e-004
  4.9926250000e+008  -2.7570794142e-004  -2.9699254926e-004   9.9293555558e-001  -6.5214307521e-003   9.9991043346e-001  -9.7532943651e-004   7.1946817808e-004  -1.9339842233e-004
  5.0785000000e+008  -5.2050243524e-004  -1.5181742331e-004   9.9203903005e-001  -6.9142181758e-003   1.0002263380e+000  -9.4389132296e-004   4.9060908419e-004   3.1126120224e-004
  5.1643750000e+008  -4.2500208081e-004   1.5188588877e-004   9.9146309254e-001  -6.3485998680e-003   1.0003955209e+000  -1.2672308824e-003   6.0283806062e-004   4.8397397054e-005
  5.2502500000e+008  -2.8256851198e-004   4.3957658291e-004   9.9370079163e-001  -6.2279923664e-003   1.0001871991e+000  -7.8670549663e-004   4.9059196229e-005  -2.7280324471e-004
  5.3361250000e+008   3.8028568517e-004   3.6429385736e-004   9.9382374459e-001  -8.7764472759e-003   1.0001288781e+000  -1.2012626185e-003  -8.6366800810e-005  -6.5761150608e-004
  5.4220000000e+008   6.6520605184e-004   1.8114240490e-004   9.9440308204e-001  -7.4567180947e-003   1.0006024578e+000  -1.3739222536e-003  -7.0175526140e-004  -2.6859515871e-004
  5.5078750000e+008   5.2277820908e-004  -5.6334295871e-004   9.9328922430e-001  -7.8813344612e-003   1.0005472997e+000  -1.3445337058e-003  -9.7787622542e-004  -2.0755753536e-004
  5.5937500000e+008   4.2638146704e-004  -7.1307681603e-004   9.9259803860e-001  -6.8701155279e-003   1.0003518603e+000  -1.7340903329e-003  -8.9561539225e-004   5.8867618586e-005
  5.6796250000e+008   3.8836288430e-004  -8.6101109889e-004   9.9409969540e-001  -6.6344446505e-003   1.0006115086e+000  -8.8529732144e-004  -1.1436417441e-003   3.4175108658e-004
  5.7655000000e+008  -3.1421677215e-004  -9.9642996744e-004   9.9324178063e-001  -9.0618337408e-003   1.0003504301e+000  -2.4060499226e-003  -8.1962823358e-004   6.2504693518e-004
  5.8513750000e+008  -4.0542011035e-004  -9.4430365635e-004   9.9368212541e-001  -7.5441764357e-003   1.0002622703e+000  -1.7290623841e-003  -9.0863371465e-004   8.7383354297e-004
  5.9372500000e+008  -5.6893587135e-004  -7.7923322725e-004   9.9149411970e-001  -7.0620978885e-003   1.0001281284e+000  -2.3536211432e-003  -7.0381540476e-004   1.0291177581e-003
  6.0231250000e+008  -1.0461657151e-003  -5.4554257504e-004   9.9095904455e-001  -7.6351210172e-003   1.0000074716e+000  -1.4242593359e-003  -5.2262124683e-004   1.0100684108e-003
  6.1090000000e+008  -8.7619693019e-004  -4.1015875580e-004   9.9163129058e-001  -8.9894858458e-003   9.9985652487e-001  -2.0926289795e-003  -4.8581735632e-004   8.6130834931e-004
  6.1948750000e+008  -9.9056432260e-004  -1.4915264859e-004   9.8996873630e-001  -7.4916136992e-003   1.0000039828e+000  -2.1456064312e-003  -2.8380408812e-004   6.5044263618e-004
  6.2807500000e+008  -9.4041370139e-004   4.8758739182e-005   9.9048051609e-001  -9.7414960516e-003   1.0006533002e+000  -1.3821186900e-003  -6.0108564373e-005   5.1477268330e-004
  6.3666250000e+008  -3.8502399587e-004   5.8870370501e-004   9.9158715710e-001  -7.3024149291e-003   1.0001172884e+000  -2.0264268972e-003  -8.4009161560e-005   3.8671969095e-004
  6.4525000000e+008  -1.9151367582e-004   5.5831627992e-004   9.9138109749e-001  -7.0978097001e-003   1.0003562169e+000  -2.0759612274e-003   1.9527885637e-004  -5.5497487433e-005
  6.5383750000e+008   8.3704097083e-005   3.1879989034e-004   9.9095891550e-001  -8.3726852416e-003   9.9968413772e-001  -1.6646133852e-003   4.3376712696e-004  -1.4685927628e-004
  6.6242500000e+008   3.0251595106e-004   2.1569240296e-004   9.8906725936e-001  -8.3693073743e-003   1.0006850900e+000  -2.8058405222e-003   3.3993193276e-004  -2.8549845837e-004
  6.7101250000e+008   4.8975882025e-004  -1.6774846265e-004   9.9083411851e-001  -6.3973526950e-003   1.0001699440e+000  -1.0719479439e-003   2.5004558711e-004  -6.0365698842e-004
  6.7960000000e+008   7.2255051047e-004  -4.8212633794e-004   9.9052131769e-001  -7.5160287171e-003   1.0003827161e+000  -2.3726055702e-003   1.5665815478e-004  -9.8634420503e-004
  6.8818750000e+008   3.1041905430e-004  -8.0489075349e-004   9.9132197110e-001  -6.9688954039e-003   1.0000296130e+000  -2.3740692622e-003   1.1051915083e-004  -1.0492888944e-003
  6.9677500000e+008   3.2201061387e-004  -9.4739983843e-004   9.9053331679e-001  -8.0147519965e-003   9.9985349284e-001  -2.1792880527e-003  -2.4938802674e-004  -1.0947198305e-003
  7.0536250000e+008  -1.8580524538e-004  -1.0626304496e-003   9.9067503713e-001  -7.3769426258e-003   9.9983535802e-001  -2.2949729552e-003  -3.7754543237e-004  -1.3318635423e-003
  7.1395000000e+008  -6.1277642156e-004  -9.9975455112e-004   9.8986776331e-001  -7.8114515428e-003   1.0001632532e+000  -1.9035157476e-003  -4.4774013281e-004  -1.3741570175e-003
  7.2253750000e+008  -1.1414008804e-003  -8.7370561120e-004   9.8818246481e-001  -7.0960583799e-003   9.9961791531e-001  -2.0700145946e-003  -8.0267186392e-004  -1.1758071885e-003
  7.3112500000e+008  -9.6980792667e-004  -5.2573972442e-004   9.9027092310e-001  -8.5086837434e-003   9.9963707333e-001  -1.9416525179e-003  -9.1674588716e-004  -9.8561181102e-004
  7.3971250000e+008  -1.0366862843e-003  -1.1608718415e-004   9.9292589573e-001  -8.1949471607e-003   9.9963068053e-001  -2.9849436368e-003  -1.0416308229e-003  -6.8929579916e-004
  7.4830000000e+008  -9.1105039565e-004   3.7170529774e-004   9.9278817594e-001  -6.6715579122e-003   9.9986594530e-001  -2.2001662343e-003  -1.0555739796e-003  -7.4542376389e-004
  7.5688750000e+008  -7.2135997346e-004   6.2541440433e-004   9.9093534351e-001  -7.4633244512e-003   9.9925396814e-001  -2.9438930056e-003  -1.1109120551e-003  -3.2201577392e-004
  7.6547500000e+008  -2.9732348380e-004   8.7117794492e-004   9.9285974592e-001  -8.8663822211e-003   9.9953890271e-001  -2.7753342242e-003  -1.2111938875e-003  -1.1454503720e-004
  7.7406250000e+008  -1.0742454164e-005   8.5795026820e-004   9.9052595574e-001  -7.8622190828e-003   1.0001376534e+000  -2.1132160544e-003  -8.8280578075e-004   1.7055156464e-004
  7.8265000000e+008   3.6821484394e-004   6.2328384446e-004   9.9173030766e-001  -8.3763192460e-003   9.9984637647e-001  -1.6023381256e-003  -8.1666074758e-004   5.9690194647e-004
  7.9123750000e+008   6.9246741390e-004   5.6185022861e-004   9.9196484844e-001  -7.3494460299e-003   9.9976255403e-001  -1.7901595126e-003  -6.7868803400e-004   5.4068024100e-004
  7.9982500000e+008   7.2514950767e-004   3.3867803151e-004   9.9323077259e-001  -8.1493545311e-003   1.0006461798e+000  -1.6464592843e-003  -5.6994343981e-004   7.5475937128e-004
  8.0841250000e+008   1.2049339801e-003   2.3461201710e-004   9.9316449816e-001  -8.1105703502e-003   1.0000835542e+000  -1.7171022512e-003  -6.0237898178e-004   8.0287863870e-004
  8.1700000000e+008   1.2372497320e-003  -3.2522250007e-004   9.9366442957e-001  -6.5016910695e-003   9.9972855179e-001  -2.0863339684e-003  -4.9499575480e-004   1.0398545221e-003
  8.2558750000e+008   1.1158244127e-003  -4.9750687334e-004   9.9488667726e-001  -6.7607788146e-003   1.0001573512e+000  -2.6167041936e-003  -4.2350511728e-004   1.1612375739e-003
  8.3417500000e+008   1.0464177623e-003  -1.2332517935e-003   9.9409468167e-001  -8.7470877732e-003   9.9998963905e-001  -2.7675402957e-003  -1.0124214710e-004   1.3074968751e-003
  8.4276250000e+008   6.3564104015e-004  -1.3756913356e-003   9.9301275793e-001  -6.6239947638e-003   9.9998644257e-001  -2.6555675367e-003   8.5926552424e-006   1.4530813609e-003
  8.5135000000e+008  -8.6843048501e-005  -1.3445272162e-003   9.9393446521e-001  -7.5808321138e-003   1.0008756637e+000  -2.8595004194e-003   3.5827863463e-004   1.3705925966e-003
  8.5993750000e+008  -1.6504030460e-004  -1.3868237917e-003   9.9165743161e-001  -8.5911940247e-003   9.9981008623e-001  -2.7560395325e-003   2.3862539696e-004   1.1145599503e-003
  8.6852500000e+008  -5.9814637282e-004  -1.0331704225e-003   9.9110003749e-001  -8.3635748410e-003   9.9945167446e-001  -2.1765232817e-003   7.0643135190e-004   9.0229678078e-004
  8.7711250000e+008  -5.4098629977e-004  -6.2730169873e-004   9.8976977643e-001  -9.1932575163e-003   1.0001174425e+000  -2.8603468590e-003   5.3158579439e-004   2.8657492224e-004
  8.8570000000e+008  -3.9969474456e-004  -4.2559638064e-004   9.9222979886e-001  -7.5430186895e-003   1.0002257816e+000  -2.6568973493e-003   4.1334515038e-004   1.7053310510e-004
  8.9428750000e+008  -2.9186460806e-004  -3.2537216558e-004   9.9233134152e-001  -8.7758519894e-003   9.9941181150e-001  -3.3128395033e-003   2.0348177449e-004  -2.9921246285e-004
  9.0287500000e+008  -5.3814556926e-005  -1.5020253141e-004   9.9230343937e-001  -8.3479510171e-003   9.9980765675e-001  -2.9904888211e-003   6.3239008101e-005  -3.7817107456e-004
  9.1146250000e+008   2.5404899069e-004  -1.9923643171e-004   9.9301209837e-001  -8.8189741890e-003   9.9953081719e-001  -2.2327355246e-003  -3.1483510519e-004  -5.0331442304e-004
  9.2005000000e+008   2.4054146835e-004  -3.1988346747e-004   9.9273766216e-001  -6.9591932034e-003   9.9879488484e-001  -1.3853553422e-003  -6.1303873113e-004  -4.3674220236e-004
  9.2863750000e+008   4.3491898622e-004  -5.9329456825e-004   9.9335105962e-001  -7.0408582794e-003   9.9899047004e-001  -2.8521579259e-003  -7.8326378444e-004  -5.9689278900e-004
  9.3722500000e+008   3.8815887616e-004  -7.2186697660e-004   9.9395565166e-001  -9.5043353242e-003   9.9891046850e-001  -1.9770777158e-003  -1.1236104424e-003  -7.8785499629e-004
  9.4581250000e+008   4.5239290538e-004  -1.1452059767e-003   9.9272683059e-001  -6.9899880068e-003   9.9943216179e-001  -1.7845839442e-003  -1.3198676106e-003  -5.0358863820e-004
  9.5440000000e+008  -7.8415113139e-005  -1.2746440545e-003   9.9031087540e-001  -7.8558476056e-003   1.0004139335e+000  -1.8057304216e-003  -1.3578780498e-003  -4.7452085112e-004
  9.6298750000e+008  -4.0550781103e-004  -1.2424063014e-003   9.9413630462e-001  -6.3608924063e-003   1.0001268965e+000  -3.8851949871e-003  -1.6078862623e-003  -1.4313738001e-004
  9.7157500000e+008  -5.8720491154e-004  -1.2563952483e-003   9.9307443112e-001  -8.1039859976e-003   1.0003888024e+000  -2.7207075240e-003  -1.4197445253e-003  -2.0886327113e-004
  9.8016250000e+008  -8.8114064127e-004  -1.0838795639e-003   9.9279273288e-001  -8.6789743208e-003   9.9973570937e-001  -3.7852125940e-003  -1.5616402207e-003   6.6216217544e-005
  9.8875000000e+008  -1.2052623106e-003  -6.8073204828e-004   9.9094965445e-001  -7.2671563113e-003   9.9953689868e-001  -2.9077230294e-003  -1.3112660580e-003   3.1344997276e-004
  9.9733750000e+008  -1.1582514192e-003  -3.5783092537e-004   9.9124256438e-001  -8.0693732094e-003   9.9997673064e-001  -1.9948678135e-003  -1.2717596411e-003   1.8397867524e-004
  1.0059250000e+009  -9.7147082734e-004  -3.2247141388e-005   9.9143640235e-001  -8.7319238297e-003   1.0000066412e+000  -2.5443528870e-003  -8.5296537576e-004   2.7038085452e-004
  1.0145125000e+009  -8.5218951292e-004   3.6164934932e-004   9.9138666490e-001  -1.1271467612e-002   9.9904139900e-001  -2.5348458733e-003  -4.8324653973e-004   2.9303049574e-004
  1.0231000000e+009  -7.5639112477e-004   4.3381567892e-004   9.9108742716e-001  -7.0430791926e-003   9.9903394817e-001  -3.0744350816e-003  -2.4179511028e-004   1.7161970128e-004
  1.0316875000e+009  -3.5096029300e-004   6.9489527324e-004   9.9083382430e-001  -9.6827250307e-003   9.9898815029e-001  -3.1194765852e-003   6.7697422691e-005   6.5824306634e-005
  1.0402750000e+009   1.6415229526e-004   6.0834745028e-004   9.8918341209e-001  -8.9569297211e-003   1.0002501930e+000  -1.3846940882e-003   3.8517820986e-004  -6.1704501683e-005
  1.0488625000e+009   4.6742810026e-004   6.1328898902e-004   9.9070227309e-001  -9.2279533776e-003   9.9932948122e-001  -2.5607771039e-003   6.3795712980e-004  -3.0827479944e-004
  1.0574500000e+009   6.0460104384e-004   2.8066872056e-004   9.8986467311e-001  -8.3633616269e-003   9.9970087316e-001  -3.1146544661e-003   7.3790841171e-004  -5.7040358057e-004
