# Hz S RI R 50.000000
! Metas.Vna.Tools, 2.8.8664.20301
! Metas.Vna.Data, 2.8.8664.20285
! Created: UTC 2024.02.11 10:08:32
! FREQ                re:S1,1             im:S1,1             re:S2,1             im:S2,1             re:S1,2             im:S1,2             re:S2,2             im:S2,2          
  1.3000000000e+008   4.1449121832e-004  -1.0575476645e-003   9.8679030302e-001  -8.4698928906e-003   1.0003099305e+000  -2.3227148245e-004   7.3560867756e-004   1.2015179083e-003
  1.3858750000e+008  -1.9950956182e-004  -6.6462617739e-004   9.8758297122e-001  -7.1390775031e-003   1.0006489255e+000   2.5175879254e-004   8.1367797682e-004   3.7695577728e-004
  1.4717500000e+008  -1.5613938095e-003  -4.3520613338e-004   9.8822213153e-001  -8.7972781420e-003   1.0002960010e+000  -3.9184661637e-005   4.3509809338e-004  -6.3464141623e-004
  1.5576250000e+008  -1.7970829816e-003   1.3540785677e-004   9.8898476929e-001  -8.7250801568e-003   1.0000404124e+000   1.2333591029e-004   9.3732812661e-004  -7.7674606704e-004
  1.6435000000e+008  -8.5241626706e-004   2.9595266926e-004   9.8623331003e-001  -7.9319091489e-003   1.0008265866e+000  -8.4629174594e-006   5.4225307761e-004  -1.6288249266e-004
  1.7293750000e+008  -9.0246762499e-004   5.8868607795e-004   9.8864351332e-001  -6.8809990892e-003   9.9993830383e-001  -2.6460714650e-004   1.0027514051e-003  -5.7913825795e-004
  1.8152500000e+008  -2.7408671371e-004   5.5176789139e-004   9.8893091196e-001  -7.7963833071e-003   1.0002992501e+000  -6.0385814623e-004   7.1568925066e-004  -5.0488776897e-004
  1.9011250000e+008  -6.4519367252e-004   5.4758775153e-004   9.8644174656e-001  -9.5531319319e-003   1.0007316020e+000  -1.2333604414e-004   5.1433420098e-004  -7.8539954926e-004
  1.9870000000e+008  -5.6296410931e-005   5.2240975185e-004   9.8543969677e-001  -9.1998893143e-003   1.0005092259e+000  -7.9574886731e-004   3.8375633719e-004   1.5620200998e-004
  2.0728750000e+008   2.3922659841e-004  -1.4675123819e-004   9.8554751248e-001  -8.2171570286e-003   1.0006385223e+000  -6.6882822295e-004   1.8269028156e-004  -5.3458533314e-004
  2.1587500000e+008   3.2703784319e-004  -6.6846643392e-004   9.8907845548e-001  -8.0944508469e-003   1.0000937209e+000  -4.3209113737e-005  -4.7506662734e-004  -6.1456126890e-005
  2.2446250000e+008   3.7948293177e-005  -4.2860688003e-004   9.8825909873e-001  -7.2387880165e-003   1.0003138059e+000  -9.8143840355e-004   2.4966244979e-005  -2.3110173377e-004
  2.3305000000e+008  -2.8864891611e-004  -2.2708752921e-004   9.8960690421e-001  -8.7082103106e-003   1.0006205181e+000  -1.0740441050e-004  -1.7634848414e-004   2.4381042429e-004
  2.4163750000e+008   5.7687148516e-005  -6.0675151804e-004   9.8851190017e-001  -8.5416110562e-003   1.0001930027e+000  -1.4632612023e-003  -4.6449059186e-004   1.2094970933e-004
  2.5022500000e+008  -2.8318489563e-004  -4.2719362547e-004   9.8825211318e-001  -8.2610041058e-003   1.0007380946e+000  -8.1957223970e-005  -7.9661465034e-004   3.4676424566e-004
  2.5881250000e+008  -4.2111369076e-004  -5.4203214313e-004   9.8747948324e-001  -8.7519444429e-003   1.0004211942e+000  -1.3927544343e-003  -6.7367329132e-004   2.0902035229e-004
  2.6740000000e+008  -9.1544192079e-004  -4.7508761339e-004   9.8891586119e-001  -9.4661901386e-003   1.0006918258e+000  -1.1441376751e-003  -5.5199660058e-004   9.4622071851e-005
  2.7598750000e+008  -3.9142370615e-004  -3.6631729385e-004   9.8862259858e-001  -9.0559495034e-003   1.0004552977e+000  -4.3745315173e-004  -7.2828249168e-004   3.1287415967e-004
  2.8457500000e+008  -6.0091391042e-004  -3.5028635447e-004   9.8524952267e-001  -1.0260191717e-002   1.0006146815e+000   1.2764827998e-004  -5.4780918925e-004   4.5300860135e-004
  2.9316250000e+008  -6.7185756253e-004  -6.6135631150e-004   9.8570541637e-001  -9.0681394143e-003   1.0002666557e+000  -1.5624153478e-003  -3.9100577890e-004   1.8360978456e-004
  3.0175000000e+008  -9.4011684616e-004   5.4393221919e-004   9.8585254218e-001  -1.0832037763e-002   1.0010602492e+000  -4.1929852617e-004  -6.0762007299e-004   4.4680050101e-004
  3.1033750000e+008  -9.4505965370e-004   3.9994181772e-005   9.8940661920e-001  -7.8579837470e-003   1.0011707649e+000  -5.2116808292e-004  -8.0042754124e-004   2.8549986213e-004
  3.1892500000e+008  -9.1901072163e-004   1.3181911460e-004   9.8686433040e-001  -8.3916973966e-003   1.0002483237e+000  -1.1933669940e-003  -1.0846925679e-003   1.6996650942e-004
  3.2751250000e+008  -7.7545079447e-004   4.7975490422e-005   9.8745890482e-001  -9.3107783912e-003   1.0005590512e+000  -1.7277275007e-003  -1.0495942922e-003   1.6756482463e-004
  3.3610000000e+008  -8.0162416765e-004   1.1166919782e-004   9.8891735612e-001  -8.3175098911e-003   1.0009182998e+000  -1.6300982035e-003  -9.9788194235e-004   1.3593997133e-004
  3.4468750000e+008  -8.1054967131e-004  -8.4702820756e-006   9.8909570907e-001  -7.4176553362e-003   1.0006285152e+000  -7.7898958498e-004  -6.6985753490e-004   2.7303192296e-004
  3.5327500000e+008  -6.7384131329e-004   1.2862988774e-004   9.9051850322e-001  -8.7166984850e-003   9.9931247960e-001  -1.3051102028e-003  -8.5403875595e-004   3.5290346547e-004
  3.6186250000e+008  -5.4323152587e-004   1.0549631723e-004   9.9004329687e-001  -8.5239027153e-003   1.0010602533e+000  -1.0475594530e-003  -7.0471065626e-004   5.5849889552e-004
  3.7045000000e+008  -5.3009446784e-004   6.9744599238e-004   9.8891157531e-001  -8.7273002786e-003   1.0006718639e+000  -1.3318695553e-003  -7.0466923830e-004   4.8665047723e-004
  3.7903750000e+008  -2.6264562981e-004   6.3507821281e-004   9.8808916278e-001  -7.6365370006e-003   9.9989795420e-001  -1.2029345333e-003  -5.1685458084e-004   2.8757140598e-004
  3.8762500000e+008  -2.4005446240e-004   6.8927177045e-004   9.9151205343e-001  -7.5749850092e-003   1.0002174430e+000  -9.2276660707e-004  -1.7165106115e-004   6.2325536541e-004
  3.9621250000e+008  -2.1114372626e-005   2.4748921591e-004   9.8982240710e-001  -8.2058727738e-003   1.0005556839e+000  -1.3713519331e-003  -3.9355400031e-004   6.1831220207e-004
  4.0480000000e+008   2.9609313160e-004   2.4785995955e-004   9.9119904347e-001  -8.5939388913e-003   1.0003797888e+000  -1.3673459445e-003  -9.7651040131e-006   3.8510130148e-004
  4.1338750000e+008   3.6784472481e-004   7.5830368487e-005   9.8996782002e-001  -7.5613070214e-003   1.0006596807e+000  -1.4747580049e-003   4.9532366285e-004   5.9170046154e-004
  4.2197500000e+008   9.1145431811e-006  -2.0861497374e-004   9.9019875135e-001  -9.3560197067e-003   1.0003625287e+000  -1.5468027154e-003   5.0509693224e-004   5.9628529233e-004
  4.3056250000e+008   2.8637268056e-004  -1.3864645110e-005   9.8963237303e-001  -7.9159584688e-003   1.0006562109e+000  -1.1236355497e-003   6.8596949398e-004   3.7757687080e-004
  4.3915000000e+008   1.0591010994e-004  -3.3835398265e-004   9.9226357755e-001  -7.5636562344e-003   1.0003177020e+000  -1.4450852807e-003   4.8426635190e-004   1.2875200186e-004
  4.4773750000e+008   1.7392700414e-004  -4.6394615299e-004   9.9105798814e-001  -7.6410837563e-003   1.0005503200e+000  -1.6336879897e-003   7.8096935402e-004   2.2769589290e-005
  4.5632500000e+008  -1.6577911193e-004  -4.1735549386e-004   9.8857387649e-001  -7.9395697719e-003   1.0005103644e+000  -1.6888501887e-003   6.3856082082e-004  -1.3289041031e-004
  4.6491250000e+008  -3.0361961063e-004  -4.1346296812e-004   9.8984432346e-001  -9.2021288592e-003   1.0001842410e+000  -1.6063391228e-003   6.9058202458e-004  -2.1182516043e-004
  4.7350000000e+008  -5.2090227570e-004  -2.2923627860e-004   9.8894888570e-001  -8.7278393797e-003   1.0003157819e+000  -1.7405555065e-003   3.9805067421e-004  -5.2188968699e-004
  4.8208750000e+008  -5.0417933148e-004  -3.7540558948e-005   9.8784066862e-001  -9.2169265556e-003   9.9987627766e-001  -1.4232252837e-003   5.0942909385e-004  -2.5822538141e-004
  4.9067500000e+008  -8.5230182410e-005  -2.7806751083e-004   9.8675893244e-001  -9.5920830928e-003   1.0000637140e+000  -1.6102163067e-003   2.2469427562e-004  -3.0927504641e-004
  4.9926250000e+008  -3.3562875603e-004  -3.3722983381e-004   9.8730536760e-001  -9.2718060484e-003   9.9987662412e-001  -1.4107493367e-003   1.6971602116e-004  -1.6080502240e-004
  5.0785000000e+008  -3.9796821449e-004  -1.7198965224e-004   9.8688370874e-001  -8.5408951057e-003   9.9973959724e-001  -1.0326765010e-003   1.0250617816e-004   1.5471871854e-004
  5.1643750000e+008  -3.3227355196e-004   9.4189120903e-005   9.8645956285e-001  -7.7115035971e-003   1.0004832927e+000  -1.1032277351e-003   1.8997089283e-004  -4.6648051651e-005
  5.2502500000e+008  -2.9416402919e-004   5.6141456428e-004   9.8750259919e-001  -7.8731336228e-003   1.0007764423e+000  -6.0119185442e-004  -5.7933450095e-005  -2.1874760211e-004
  5.3361250000e+008   3.6993582073e-004   2.4957476279e-004   9.8928318270e-001  -9.5580634118e-003   1.0003799247e+000  -1.8766370018e-003  -4.0493651702e-004  -5.4007345095e-004
  5.4220000000e+008   7.2860166883e-004   1.9218445030e-006   9.8894253928e-001  -9.3850249886e-003   1.0010186619e+000  -1.5721102770e-003  -1.1536262870e-003  -7.7962555569e-005
  5.5078750000e+008   4.1750532113e-004  -4.8127135427e-004   9.8836975574e-001  -9.4551946510e-003   1.0005103380e+000  -2.7649539911e-003  -1.0570962606e-003  -9.8075261406e-007
  5.5937500000e+008   4.3780234100e-004  -7.0036912067e-004   9.8750307263e-001  -8.4147047109e-003   1.0006168244e+000  -1.9511999516e-003  -1.1013365051e-003   4.5079291878e-004
  5.6796250000e+008   3.0696178618e-004  -8.8899501837e-004   9.9025853325e-001  -8.8511540222e-003   1.0005359990e+000  -1.8801326638e-003  -1.0155534603e-003   9.5865704109e-004
  5.7655000000e+008  -7.9649553715e-005  -1.1719696213e-003   9.8917203988e-001  -1.0782144572e-002   9.9993371011e-001  -2.1803425781e-003  -7.1363796436e-004   1.0097201144e-003
  5.8513750000e+008  -3.9914211896e-004  -9.6212067740e-004   9.8800294791e-001  -9.0335912644e-003   9.9972667637e-001  -2.1573376471e-003  -7.6878067861e-004   1.2470788278e-003
  5.9372500000e+008  -5.8200587073e-004  -1.1161618355e-003   9.8574966629e-001  -9.3234022294e-003   1.0003224697e+000  -2.2995573436e-003  -2.2758124241e-004   1.1998289551e-003
  6.0231250000e+008  -1.0693541677e-003  -5.8898775225e-004   9.8792106856e-001  -8.5155753852e-003   1.0005934459e+000  -1.8211845463e-003  -7.6897210655e-005   1.1877345577e-003
  6.1090000000e+008  -9.9884763391e-004  -3.6655507867e-004   9.8743569127e-001  -1.0951792881e-002   1.0000622888e+000  -1.6424793553e-003  -2.5901802063e-004   9.1461846848e-004
  6.1948750000e+008  -8.9977585239e-004   6.0258757549e-006   9.8632565348e-001  -9.8299258472e-003   9.9988035377e-001  -2.1906364544e-003   4.3150133792e-005   5.3187911286e-004
  6.2807500000e+008  -7.1576493757e-004   1.5706457628e-004   9.8802986517e-001  -1.1035854801e-002   1.0005611603e+000  -1.6257253222e-003   3.8226011866e-004   1.8584373832e-004
  6.3666250000e+008  -5.2586424940e-004   4.6886078537e-004   9.8862354842e-001  -9.2742982262e-003   9.9995287326e-001  -1.8973573016e-003   2.9486483684e-004   3.2168669494e-006
  6.4525000000e+008  -1.0354857456e-005   5.0315658315e-004   9.8934424094e-001  -8.0708356594e-003   9.9963095519e-001  -2.2569335938e-003   3.9067053288e-004  -3.8255023688e-004
  6.5383750000e+008   1.0865566327e-004   3.9047661093e-004   9.8650861717e-001  -8.3573831734e-003   9.9997701400e-001  -1.4912348501e-003   4.0129011549e-004  -6.2168482603e-004
  6.6242500000e+008   4.0396542446e-004   1.3243363245e-004   9.8538768125e-001  -9.2581292229e-003   1.0007522215e+000  -2.1872449343e-003   4.3312948782e-004  -7.0364064782e-004
  6.7101250000e+008   4.7395899544e-004  -1.8427442068e-004   9.8896785643e-001  -9.5347859643e-003   1.0004890334e+000  -1.4110806697e-003   1.8110685003e-004  -1.0631778417e-003
  6.7960000000e+008   7.6388236688e-004  -4.2596439355e-004   9.8705843109e-001  -9.9571176476e-003   1.0008680132e+000  -2.2241977252e-003  -6.1271083337e-005  -1.4773413080e-003
  6.8818750000e+008   3.7287082859e-004  -9.1941640197e-004   9.8662387170e-001  -9.5141344569e-003   9.9997869762e-001  -2.9994505541e-003  -4.0288500456e-004  -1.4125572462e-003
  6.9677500000e+008   3.7801882014e-004  -9.9252695006e-004   9.8681689982e-001  -9.6273046065e-003   9.9998969184e-001  -2.7157926777e-003  -6.9354502732e-004  -1.3430279996e-003
  7.0536250000e+008  -2.9860196518e-004  -1.2112896541e-003   9.8693961519e-001  -9.7972450792e-003   1.0001076515e+000  -1.9546444040e-003  -8.0422083009e-004  -1.4174213801e-003
  7.1395000000e+008  -5.7835777200e-004  -1.1081229024e-003   9.8741984554e-001  -8.2053725513e-003   1.0005831737e+000  -2.4907279101e-003  -1.0750914388e-003  -1.2588739551e-003
  7.2253750000e+008  -9.3954274823e-004  -9.2094211884e-004   9.8586196792e-001  -1.0529154010e-002   9.9981360219e-001  -2.2747522562e-003  -1.2979252504e-003  -1.1434443881e-003
  7.3112500000e+008  -1.0214662215e-003  -4.5425218163e-004   9.8773998775e-001  -1.0353088260e-002   1.0001187444e+000  -2.3192475955e-003  -1.3418943607e-003  -7.9131476217e-004
  7.3971250000e+008  -1.1112018291e-003  -9.9299592742e-005   9.8619333028e-001  -1.0073846440e-002   9.9973828043e-001  -3.1775494317e-003  -1.3687243307e-003  -2.3793928098e-004
  7.4830000000e+008  -9.9715249842e-004   4.0389033960e-004   9.8740154796e-001  -9.0665290003e-003   9.9956885158e-001  -2.1250541770e-003  -1.2346923356e-003  -3.5686767026e-004
  7.5688750000e+008  -8.2671966229e-004   5.8596052681e-004   9.8621996126e-001  -1.0967044651e-002   9.9984865720e-001  -2.7255237892e-003  -1.2661841726e-003   1.6428457275e-004
  7.6547500000e+008  -1.6238221973e-004   8.2844879440e-004   9.8679983670e-001  -1.1228323808e-002   9.9952907801e-001  -2.8608538848e-003  -1.1253602207e-003   3.2267959582e-004
  7.7406250000e+008   3.2230794310e-005   9.7042210980e-004   9.8358355037e-001  -1.1428777367e-002   9.9975536548e-001  -2.8993241472e-003  -6.3391494813e-004   6.9125399548e-004
  7.8265000000e+008   4.2784706345e-004   6.6557553404e-004   9.8520561615e-001  -9.9039078418e-003   9.9980377997e-001  -2.0689976165e-003  -5.1292269009e-004   1.0539057288e-003
  7.9123750000e+008   8.5673417243e-004   4.3002137221e-004   9.8269591133e-001  -9.3940208992e-003   9.9947004352e-001  -1.5231077253e-003  -2.5957479207e-004   7.8164444051e-004
  7.9982500000e+008   9.0520671921e-004   2.5284902641e-004   9.8542987198e-001  -9.8892921957e-003   1.0006589280e+000  -2.2607060837e-003  -3.0777109824e-005   9.0439008435e-004
  8.0841250000e+008   9.4947974473e-004   3.8868870214e-005   9.8537528692e-001  -1.0380827231e-002   9.9974434632e-001  -1.8319506197e-003   1.5820538719e-004   9.1680467665e-004
  8.1700000000e+008   1.1420126657e-003  -4.4156543086e-004   9.8757322506e-001  -8.9012785893e-003   1.0005793968e+000  -1.9099551021e-003   1.3059031202e-004   7.3706492362e-004
  8.2558750000e+008   1.1589036981e-003  -8.2385988505e-004   9.8694866641e-001  -9.4885262847e-003   1.0010024092e+000  -3.0962546871e-003   1.5355658942e-004   6.7294321494e-004
  8.3417500000e+008   9.2509552953e-004  -1.1637129971e-003   9.8452840514e-001  -9.8578226821e-003   1.0008745015e+000  -2.8997324290e-003   2.5145759988e-004   6.1265890766e-004
  8.4276250000e+008   5.2113969190e-004  -1.3193329440e-003   9.8722432746e-001  -1.0246728405e-002   9.9962530216e-001  -3.0450231676e-003   2.3178548973e-004   7.6502726898e-004
  8.5135000000e+008   8.0632784073e-005  -1.3142820489e-003   9.8675682876e-001  -8.9197851007e-003   1.0005061608e+000  -1.9474689412e-003   3.3885667074e-004   6.0716992339e-004
  8.5993750000e+008  -1.8245615182e-004  -1.3777343994e-003   9.8594249500e-001  -1.0496234062e-002   1.0003570034e+000  -3.4365375472e-003   2.8679568060e-004   4.0570012521e-004
  8.6852500000e+008  -5.3530415079e-004  -9.5531287934e-004   9.8468715778e-001  -1.0592267769e-002   1.0000034404e+000  -2.4458105601e-003   2.6036420063e-004   2.1528361292e-004
  8.7711250000e+008  -5.0375564018e-004  -6.9245700455e-004   9.8583623070e-001  -1.0374372347e-002   9.9961555209e-001  -3.0050004548e-003  -1.0755540406e-005  -3.2377428506e-004
  8.8570000000e+008  -3.8266408288e-004  -3.6613312653e-004   9.8655189224e-001  -9.8436970851e-003   1.0003534851e+000  -3.3454797143e-003  -1.2120274547e-004  -2.8990074231e-004
  8.9428750000e+008  -2.5116717228e-004  -2.3436331739e-004   9.8593406038e-001  -1.0948372673e-002   1.0000527802e+000  -2.6656768652e-003  -5.0230696825e-004  -3.8356304319e-004
  9.0287500000e+008  -5.4237422597e-006  -1.8047297880e-004   9.8601769924e-001  -9.9350751820e-003   9.9992809580e-001  -3.3243813617e-003  -6.7950539451e-004  -3.5293607078e-004
  9.1146250000e+008   2.9549391895e-004  -2.2023872219e-004   9.8750299483e-001  -1.0069399482e-002   9.9910148562e-001  -2.9246236836e-003  -1.0655737607e-003  -2.9197326098e-004
  9.2005000000e+008   2.4713943990e-004  -2.8041181640e-004   9.8852570047e-001  -1.0023350012e-002   9.9862213599e-001  -2.1975200051e-003  -1.2607699482e-003  -2.9574042123e-004
  9.2863750000e+008   5.2854776903e-004  -5.7504661007e-004   9.8834885698e-001  -1.0227049049e-002   9.9942682249e-001  -3.7603674825e-003  -1.3416753356e-003  -2.8987166481e-004
  9.3722500000e+008   3.8324695950e-004  -7.8514356614e-004   9.8811234565e-001  -8.5897767317e-003   9.9947706389e-001  -2.6920880942e-003  -1.4247653540e-003  -2.1245268936e-004
  9.4581250000e+008   2.7686587254e-004  -1.0790665807e-003   9.8523172299e-001  -1.0448989257e-002   9.9979113315e-001  -2.9486132929e-003  -1.5739530693e-003   1.9954767368e-004
  9.5440000000e+008  -1.0157198051e-005  -1.2118450181e-003   9.8386522078e-001  -1.1069044906e-002   1.0005994757e+000  -2.3107374093e-003  -1.4002071751e-003   3.0902199923e-004
  9.6298750000e+008  -3.7026713224e-004  -1.3207872895e-003   9.8584078267e-001  -8.6912442551e-003   9.9957618381e-001  -3.2185105394e-003  -1.3047603166e-003   3.9962064987e-004
  9.7157500000e+008  -5.6343061274e-004  -1.2126117988e-003   9.8590980071e-001  -1.0785398226e-002   1.0003335159e+000  -2.7494656495e-003  -1.1818786927e-003   4.8222218368e-004
  9.8016250000e+008  -9.6397682505e-004  -1.0593749617e-003   9.8744254156e-001  -9.9026130005e-003   9.9911535825e-001  -3.1454241112e-003  -9.6424881220e-004   4.4755671772e-004
  9.8875000000e+008  -1.1389525773e-003  -6.6741549517e-004   9.8846641129e-001  -7.5954121164e-003   9.9934197163e-001  -3.1036117608e-003  -7.3218970483e-004   4.3903820445e-004
  9.9733750000e+008  -1.1233128966e-003  -3.3556290978e-004   9.8693752877e-001  -9.5995752987e-003   9.9981225416e-001  -2.1095490713e-003  -4.3140765484e-004   2.9761277090e-004
  1.0059250000e+009  -1.0181292673e-003   3.4298387497e-005   9.8662006976e-001  -9.2710739762e-003   1.0001605585e+000  -3.4009835897e-003  -1.2750469359e-004   2.4283843435e-004
  1.0145125000e+009  -1.0062225454e-003   4.2103956712e-004   9.8650843433e-001  -1.1199807741e-002   9.9992351984e-001  -2.8319851321e-003   9.1499386389e-005  -3.7497651294e-005
  1.0231000000e+009  -5.8863462100e-004   5.8465548233e-004   9.8614830040e-001  -8.7541819523e-003   9.9953670641e-001  -3.0649801780e-003   2.8285012938e-004  -1.6115273975e-004
  1.0316875000e+009  -1.4929797860e-004   7.7344226584e-004   9.8430447942e-001  -1.1440232701e-002   9.9907390080e-001  -3.3347736477e-003   3.9544776908e-004  -3.7126580492e-004
  1.0402750000e+009   2.2318799715e-004   7.2857892607e-004   9.8452107408e-001  -1.1425337204e-002   9.9972645699e-001  -2.8522711352e-003   6.4647188797e-004  -6.2094384118e-004
  1.0488625000e+009   5.6628376686e-004   5.3679599407e-004   9.8803799332e-001  -1.0547188978e-002   9.9919506315e-001  -3.4724072673e-003   6.2169279174e-004  -7.9201652573e-004
  1.0574500000e+009   7.4061801720e-004   3.4504485765e-004   9.8603135058e-001  -1.0858429264e-002   9.9969573901e-001  -3.3031474816e-003   6.4865951661e-004  -1.1522415359e-003
