# Hz S RI R 50.000000
! Metas.Vna.Tools, 2.8.8664.20301
! Metas.Vna.Data, 2.8.8664.20285
! Created: UTC 2024.02.11 10:08:08
! FREQ                re:S1,1             im:S1,1             re:S2,1             im:S2,1             re:S1,2             im:S1,2             re:S2,2             im:S2,2          
  1.3000000000e+008   3.5211232346e-004  -7.2959196410e-004   1.0000717041e+000  -2.5369157419e-003   9.9990258277e-001  -2.0589944538e-003   6.9605481712e-004   7.5804139686e-004
  1.3858750000e+008  -4.7171334161e-004  -8.0921604280e-004   1.0009496455e+000  -1.3011540522e-003   1.0002375366e+000  -1.8762888001e-003   9.7411437745e-004   1.4935468701e-004
  1.4717500000e+008  -9.7629297849e-004  -1.7436354852e-004   9.9988589214e-001  -2.4083101959e-003   9.9952185177e-001  -1.3014647149e-003  -1.5648537320e-004  -2.8874709473e-004
  1.5576250000e+008  -1.0386302969e-003   3.3580764421e-004   1.0010172496e+000  -1.6864019433e-003   1.0003598806e+000  -2.6345719644e-003   3.2554182414e-004  -6.5200559386e-004
  1.6435000000e+008  -4.3721128502e-004   3.0108963924e-004   1.0016920544e+000  -1.3360120395e-003   1.0002884295e+000  -2.0642347959e-003   1.0570603076e-004  -2.2327035813e-005
  1.7293750000e+008  -1.7497513889e-004   5.1639955683e-004   1.0003872279e+000  -9.2109662263e-004   9.9976293891e-001  -1.7240548133e-003   1.4355039194e-004  -6.0605527516e-004
  1.8152500000e+008   3.3833656632e-004   2.0526119187e-004   9.9932005140e-001  -2.9158290209e-003   9.9997514514e-001  -2.0914336151e-003  -1.1855605681e-004  -5.7675648919e-004
  1.9011250000e+008  -1.1308061801e-004  -8.0592674287e-005   1.0018573311e+000  -3.4244230788e-003   1.0002060864e+000  -2.2441503942e-003   3.4504290230e-004  -7.7584315495e-004
  1.9870000000e+008  -3.6458085487e-004   8.0956280982e-004   1.0004129105e+000  -1.7144740179e-003   1.0006144533e+000  -2.1615089382e-003   2.5242212387e-004  -4.0025706865e-004
  2.0728750000e+008   3.5982329134e-004  -2.8410055349e-004   1.0000559117e+000  -1.2495300484e-003   1.0004495659e+000  -1.9121487781e-003  -3.2018888286e-004  -9.5260159128e-005
  2.1587500000e+008  -8.1274364055e-005  -2.2231684349e-004   1.0016587062e+000  -2.5210990277e-003   9.9927621507e-001  -1.5757336209e-003  -4.3768659848e-004   3.9089440078e-004
  2.2446250000e+008   8.7116446818e-005  -4.0183002529e-004   1.0007008029e+000  -1.8379154929e-003   9.9989114020e-001  -1.9786880471e-003  -5.1349703036e-004  -6.2328979653e-005
  2.3305000000e+008  -1.5023222771e-004   6.8297429695e-005   1.0001843523e+000  -1.4346754503e-003   1.0004136029e+000  -1.9363711922e-003  -3.9357686409e-004  -3.3819830617e-005
  2.4163750000e+008  -1.7530914683e-005  -2.5422934852e-004   9.9978811278e-001  -3.5133880613e-003   9.9998079780e-001  -2.8598066806e-003  -3.9279387518e-004  -1.7276684808e-004
  2.5022500000e+008  -4.1128981281e-004  -1.6969464481e-004   1.0012274687e+000  -2.8868244128e-003   9.9990925651e-001  -1.6296111023e-003  -8.6641541543e-004   4.8449332651e-004
  2.5881250000e+008  -4.4068137538e-004  -2.4007447201e-004   9.9822551962e-001  -1.5015747668e-003   9.9997482847e-001  -2.9145725486e-003  -2.1365860814e-004   7.1981392951e-004
  2.6740000000e+008  -3.1510400804e-004  -2.9054851284e-004   1.0010381262e+000  -3.0691912309e-003   9.9998935394e-001  -3.2802529005e-003  -5.5575658775e-004   1.9949920444e-004
  2.7598750000e+008  -2.9773534781e-004  -3.6967887689e-004   9.9940707555e-001  -3.1305756371e-003   9.9997619363e-001  -2.5199484993e-003  -1.6308695229e-004   6.7636322645e-004
  2.8457500000e+008  -6.4191491816e-004  -1.9490299191e-004   9.9911086780e-001  -2.4745250464e-003   9.9974608229e-001  -1.4976554536e-003  -7.7728080736e-005   4.8751784712e-004
  2.9316250000e+008  -4.0047731316e-004  -7.0644742505e-005   1.0001619546e+000  -1.1060364109e-003   1.0004497963e+000  -2.5275076092e-003  -2.1736620523e-004   3.9444441121e-004
  3.0175000000e+008  -4.9264515025e-004   4.2655573860e-004   9.9983237824e-001  -3.7973979225e-003   9.9992946624e-001  -2.3936372205e-003  -1.7325021839e-004   3.3565951590e-004
  3.1033750000e+008  -7.4280050293e-004   4.8568143540e-004   1.0011694716e+000  -2.5518137969e-003   1.0007915366e+000  -2.4179548815e-003  -4.2136755032e-004   4.3722989980e-004
  3.1892500000e+008  -5.2653079623e-004   2.2792573984e-004   9.9959286224e-001  -3.0506989317e-003   1.0002335569e+000  -2.1481334871e-003  -3.6844908454e-004   3.1993585599e-004
  3.2751250000e+008  -2.4212319173e-004   2.0171257556e-005   1.0004002785e+000  -3.8734465513e-003   9.9989293648e-001  -3.5485326289e-003  -2.7542961225e-004   3.8388021335e-005
  3.3610000000e+008  -4.8620760338e-004   8.8764812949e-005   1.0004695348e+000  -1.9554173322e-003   1.0008629840e+000  -3.0753324767e-003  -1.3484948925e-004  -8.5275930370e-005
  3.4468750000e+008  -4.2044107193e-004   1.7246589030e-004   9.9925142422e-001  -3.3217649566e-003   1.0000106045e+000  -2.0887925423e-003   4.6207056056e-005   1.6949458795e-004
  3.5327500000e+008  -3.3261619454e-004   2.0364536533e-004   9.9903259864e-001  -3.1558613946e-003   9.9908876180e-001  -3.2101026586e-003  -4.5382149247e-004  -4.6841943182e-005
  3.6186250000e+008  -6.9630649087e-004   1.9838474322e-004   9.9770124572e-001  -3.5064365950e-003   1.0003000697e+000  -2.8401397166e-003  -2.7969339243e-004   2.8733345049e-004
  3.7045000000e+008  -4.8052543489e-004   2.8414784435e-004   9.9899748604e-001  -3.0762746667e-003   1.0000177128e+000  -2.4094175401e-003  -2.5847887902e-004   2.6292159897e-004
  3.7903750000e+008  -7.7906834050e-005   4.0920375550e-004   9.9785920142e-001  -3.8267645009e-003   9.9985353281e-001  -2.8446289375e-003  -3.8897241482e-004  -8.0709511898e-005
  3.8762500000e+008  -1.5538428542e-004   4.3063516428e-004   1.0004276958e+000  -2.7565158452e-003   9.9986103452e-001  -2.4332578952e-003  -1.4044176795e-004   4.0001015478e-004
  3.9621250000e+008  -1.1696755411e-004  -1.1368601368e-004   9.9899232465e-001  -3.3031432485e-003   1.0001111199e+000  -2.7436982622e-003  -5.6437504208e-004   4.8773127546e-004
  4.0480000000e+008   6.3054821019e-005   1.0974877937e-004   1.0000418391e+000  -3.4510930546e-003   1.0002112056e+000  -2.3826960968e-003  -1.5679943175e-004   1.9650860223e-004
  4.1338750000e+008   1.2012471237e-004   1.4616212535e-004   9.9807681297e-001  -2.5779314741e-003   1.0004611735e+000  -3.4714811842e-003   4.7294122388e-005   3.2835148605e-004
  4.2197500000e+008  -1.9950642381e-004  -3.4858118436e-004   9.9955078836e-001  -3.1865826351e-003   1.0002947200e+000  -3.1263290591e-003  -4.1034474674e-006   7.0869883583e-004
  4.3056250000e+008   1.4613171689e-004   9.6597696699e-005   9.9745252289e-001  -4.2703265220e-003   1.0001627478e+000  -3.0788486258e-003   3.1009132660e-004   1.9841868482e-004
  4.3915000000e+008   1.6546181304e-005  -9.2709806136e-005   1.0010160915e+000  -1.8107601411e-003   9.9988645366e-001  -3.0014519944e-003   5.6819944115e-004   1.1873583066e-004
  4.4773750000e+008   2.6265860877e-004  -2.2094425806e-004   9.9940537096e-001  -3.8067284440e-003   1.0001246239e+000  -3.2513864326e-003   4.8086494109e-004   7.4189592443e-005
  4.5632500000e+008  -1.1942560548e-004  -2.2396758901e-004   9.9987852620e-001  -2.7673881897e-003   1.0001134453e+000  -3.3541187404e-003   4.4209326908e-004   1.1249748013e-004
  4.6491250000e+008  -8.9567978043e-005   4.2124315650e-005   1.0018802959e+000  -3.0263931700e-003   9.9998621692e-001  -3.0308256536e-003   5.6723374006e-004   1.5194445699e-004
  4.7350000000e+008  -1.3517034023e-004  -8.3239781475e-005   1.0011512632e+000  -2.7665587578e-003   1.0003359708e+000  -2.8556181633e-003   3.2495280621e-004   1.8835813881e-004
  4.8208750000e+008  -1.6457170365e-004   2.1279925772e-004   9.9995025000e-001  -3.1569305616e-003   9.9971280034e-001  -2.9964189326e-003   4.5536676456e-004   3.0778566387e-004
  4.9067500000e+008   1.7927307966e-005  -2.1046100432e-004   9.9918870841e-001  -4.1639652712e-003   9.9965095679e-001  -3.2590839198e-003   2.5021197692e-004   3.9940974663e-005
  4.9926250000e+008  -4.3533689354e-008  -4.8253703165e-004   9.9893595097e-001  -3.3518109237e-003   9.9935386115e-001  -3.1896013315e-003   5.1198906925e-004  -4.0327659623e-007
  5.0785000000e+008  -3.7565470525e-004  -3.7180557336e-004   9.9915073666e-001  -2.9551484154e-003   9.9962992812e-001  -2.4359120941e-003   5.5474925406e-004   2.9125836337e-004
  5.1643750000e+008  -5.6245472986e-004  -1.7445415670e-004   9.9803471640e-001  -2.0922403084e-003   1.0002226702e+000  -2.5726847962e-003   8.6173905781e-004   5.9523021107e-006
  5.2502500000e+008  -4.7277770424e-004   3.5959442403e-004   1.0003813085e+000  -2.5220777854e-003   1.0003074956e+000  -2.1367255894e-003   2.2531939769e-004  -3.4256183510e-004
  5.3361250000e+008   3.6624893747e-004   3.9794227657e-004   1.0010712752e+000  -3.6380223572e-003   1.0002062896e+000  -2.6561381233e-003  -2.6838908571e-005  -6.3477691350e-004
  5.4220000000e+008   5.9852711266e-004   1.3733394076e-004   9.9938807080e-001  -4.2441387797e-003   1.0009941228e+000  -2.7601947632e-003  -4.0223763700e-004  -5.5759804757e-004
  5.5078750000e+008   4.3797180584e-004  -3.8460295676e-004   1.0009392526e+000  -3.1581070045e-003   1.0001044034e+000  -3.4008694361e-003  -6.1684359986e-004  -4.5417005496e-004
  5.5937500000e+008   1.4400313237e-004  -4.6795050379e-004   9.9905445046e-001  -2.8682577941e-003   1.0010152697e+000  -3.1660634573e-003  -6.3208781672e-004  -7.5831661200e-005
  5.6796250000e+008   2.4489598910e-004  -6.3267378901e-004   1.0000274682e+000  -2.8576681711e-003   1.0002037918e+000  -2.3739455215e-003  -9.5101609063e-004   1.6861947723e-004
  5.7655000000e+008  -2.8209222991e-004  -7.7706679574e-004   9.9922405483e-001  -5.2329286308e-003   9.9964571032e-001  -3.9268055540e-003  -4.9374643929e-004   5.6265337860e-004
  5.8513750000e+008  -4.3811767879e-004  -5.2634798667e-004   9.9677369001e-001  -5.3818370017e-003   9.9965548376e-001  -3.2594737406e-003  -6.0466445744e-004   6.0826288070e-004
  5.9372500000e+008  -4.3248194057e-004  -4.8250709917e-004   9.9576107108e-001  -5.3069368779e-003   1.0002779264e+000  -3.9491746086e-003  -3.2041053438e-004   7.1023862989e-004
  6.0231250000e+008  -8.4221923180e-004  -3.6673836562e-004   9.9580138487e-001  -3.3298900133e-003   9.9975299002e-001  -3.2829446702e-003  -4.0385097242e-004   6.7241409578e-004
  6.1090000000e+008  -6.4799468759e-004  -1.7655326905e-004   9.9664578954e-001  -5.7693068174e-003   9.9979363089e-001  -2.4940832774e-003  -3.5794924122e-004   7.9462005011e-004
  6.1948750000e+008  -5.3859901145e-004   9.5171883950e-005   9.9888833687e-001  -2.8508587567e-003   9.9999699958e-001  -3.1779059148e-003  -2.6430950281e-004   5.9461652125e-004
  6.2807500000e+008  -4.2141545853e-004   1.2772981609e-004   1.0003836944e+000  -4.9122057229e-003   1.0001318804e+000  -3.2847023605e-003   1.8317694134e-004   3.3001043765e-004
  6.3666250000e+008  -1.6574571017e-004   3.6186796207e-004   9.9985748955e-001  -3.8301314633e-003   9.9978529372e-001  -3.8514870122e-003   4.0276321931e-005   4.0885532105e-004
  6.4525000000e+008   1.6032170884e-004   4.2038026583e-004   9.9883668520e-001  -2.2766054062e-003   1.0007394064e+000  -3.3250163513e-003   2.1654181854e-004   2.9069781796e-005
  6.5383750000e+008   1.9837007080e-004   1.4023972652e-004   1.0007840161e+000  -3.0612696175e-003   9.9964916838e-001  -3.0716478536e-003   4.0143431901e-004  -4.9819698272e-005
  6.6242500000e+008   1.3423318939e-004   1.0550574846e-004   9.9905471217e-001  -2.9764132179e-003   1.0003042397e+000  -3.7617283575e-003   4.1915245756e-004  -2.7660469891e-004
  6.7101250000e+008   2.1184240257e-004  -2.2060927597e-004   9.9926106541e-001  -3.0409663687e-003   9.9935049302e-001  -2.5742738290e-003   3.9294385851e-004  -4.2150837249e-004
  6.7960000000e+008   3.9465560677e-004  -4.0853838089e-004   9.9988750432e-001  -4.3226951328e-003   1.0005201657e+000  -3.6262937242e-003   2.4829860683e-004  -7.7003861174e-004
  6.8818750000e+008  -4.8881812028e-006  -5.7097846929e-004   9.9860588892e-001  -4.1902404738e-003   1.0002566577e+000  -3.7712830007e-003   1.5495713192e-004  -6.9075079162e-004
  6.9677500000e+008  -2.8768972741e-005  -5.9618519041e-004   9.9838407765e-001  -3.2731719936e-003   9.9985838219e-001  -3.8272807130e-003  -6.0375377127e-005  -7.7676388831e-004
  7.0536250000e+008  -3.1939039453e-004  -6.8761158555e-004   1.0005191076e+000  -4.5136778050e-003   1.0002760043e+000  -3.4161054550e-003  -1.7005911449e-004  -8.0931670298e-004
  7.1395000000e+008  -4.8891802721e-004  -5.8481218529e-004   1.0002767807e+000  -4.5144575948e-003   1.0000447684e+000  -3.3119236532e-003  -2.4212790051e-004  -8.3446602439e-004
  7.2253750000e+008  -8.4017209684e-004  -4.1942077280e-004   9.9705132241e-001  -4.3321200722e-003   9.9995789703e-001  -3.4791886195e-003  -4.7369753838e-004  -8.2889250573e-004
  7.3112500000e+008  -7.2902666792e-004  -7.2505098025e-005   9.9699887904e-001  -4.3428743989e-003   9.9982916956e-001  -3.3308075454e-003  -6.1645181300e-004  -7.0552123006e-004
  7.3971250000e+008  -7.6562088789e-004   2.3198247390e-004   9.9659912998e-001  -4.4970315622e-003   9.9968196540e-001  -4.3467332361e-003  -8.5864358638e-004  -3.9802255306e-004
  7.4830000000e+008  -5.3888672619e-004   5.5961496904e-004   9.9659241586e-001  -3.4132037001e-003   9.9977426892e-001  -3.2441380802e-003  -6.9948334944e-004  -4.7659001314e-004
  7.5688750000e+008  -2.8768058279e-004   5.6015387733e-004   9.9794491129e-001  -5.0380332894e-003   9.9897508642e-001  -4.1768671493e-003  -8.6280747329e-004  -2.5268880409e-005
  7.6547500000e+008   1.4649867660e-005   6.2023980458e-004   9.9989682105e-001  -4.7756914968e-003   9.9887637949e-001  -4.2877878446e-003  -8.9656289374e-004   4.5793318940e-005
  7.7406250000e+008   1.3838192094e-004   5.8987972876e-004   9.9926732376e-001  -5.0705654424e-003   1.0003895405e+000  -4.0323575108e-003  -6.1463453255e-004   3.5109856556e-004
  7.8265000000e+008   4.4339745301e-004   1.9955227655e-004   9.9811879151e-001  -3.8361783495e-003   9.9945937602e-001  -3.8640537376e-003  -5.0492926022e-004   5.5412753917e-004
  7.9123750000e+008   4.5370453422e-004   1.8178355558e-004   9.9921001771e-001  -3.3507181855e-003   1.0000608452e+000  -2.8863999685e-003  -5.2046576300e-004   3.9873962567e-004
  7.9982500000e+008   2.8489654554e-004   9.0953590721e-005   9.9937599637e-001  -2.4290511934e-003   1.0000845787e+000  -2.6680966693e-003  -3.4200431155e-004   4.9384274669e-004
  8.0841250000e+008   4.8048801603e-004   1.4185600645e-004   1.0000149497e+000  -3.6738930334e-003   9.9935025268e-001  -3.3745903061e-003  -3.9413335107e-004   6.2820037042e-004
  8.1700000000e+008   7.0200754475e-004   7.1608161763e-005   9.9979511435e-001  -3.2468619351e-003   1.0002031035e+000  -3.1934827704e-003  -3.4668490166e-004   5.7958419542e-004
  8.2558750000e+008   7.2104836691e-004  -6.7219261282e-005   1.0016897666e+000  -2.6573790169e-003   1.0003377474e+000  -4.3482134224e-003  -5.7329259879e-004   7.9212298661e-004
  8.3417500000e+008   7.1515844482e-004  -5.6428459990e-004   9.9993633189e-001  -2.4441968999e-003   1.0002632806e+000  -4.2953334738e-003  -3.0685851622e-004   9.3547784530e-004
  8.4276250000e+008   5.0853239860e-004  -7.3308748281e-004   9.9923441425e-001  -2.8256337137e-003   9.9967003011e-001  -4.5400237428e-003  -1.8965226238e-004   9.1123900462e-004
  8.5135000000e+008   8.2362437414e-005  -8.8303580990e-004   1.0012299013e+000  -3.6301503797e-003   1.0000851008e+000  -3.8307034142e-003  -5.1479633062e-005   1.1075322730e-003
  8.5993750000e+008  -1.0580971060e-004  -9.4858618586e-004   1.0002699101e+000  -2.7877211826e-003   1.0003713184e+000  -5.0797805196e-003   1.7664251227e-004   9.8905878770e-004
  8.6852500000e+008  -3.5165382245e-004  -6.2697773192e-004   9.9902428431e-001  -3.6618058933e-003   9.9914980391e-001  -3.5799246293e-003   3.7477341506e-004   7.8228014037e-004
  8.7711250000e+008  -4.0072128103e-004  -4.1679521484e-004   9.9827643871e-001  -4.6655669404e-003   1.0006080214e+000  -3.8172978599e-003   5.0444936909e-004   3.7644135481e-004
  8.8570000000e+008  -3.0794312622e-004  -1.7431563333e-004   9.9884704077e-001  -3.9071538910e-003   9.9959752485e-001  -3.9024366543e-003   4.8855933258e-004   7.9938183250e-005
  8.9428750000e+008  -3.1511061463e-004   1.7743810372e-005   9.9750533180e-001  -3.8600909917e-003   1.0007614815e+000  -4.4461775742e-003   3.0857603594e-004  -1.6117513525e-004
  9.0287500000e+008   8.4797316498e-005  -9.2583942191e-005   9.9750591667e-001  -4.9236859474e-003   9.9878795803e-001  -5.1475733888e-003   1.8587738078e-004  -2.4271910599e-004
  9.1146250000e+008   1.8948944149e-004  -1.7546415688e-004   9.9531629976e-001  -5.7247363495e-003   9.9845022083e-001  -4.9612323493e-003  -3.4936039106e-004  -3.3878363810e-004
  9.2005000000e+008   2.2714610389e-004  -2.7733674112e-004   9.9527946919e-001  -3.7850711521e-003   9.9944003484e-001  -3.9491556163e-003  -5.3565609402e-004  -4.0388908454e-004
  9.2863750000e+008   3.0506088684e-004  -4.3668164710e-004   9.9621761595e-001  -4.8011860345e-003   9.9906302124e-001  -4.4818558462e-003  -5.5183129053e-004  -4.0741716894e-004
  9.3722500000e+008   2.2374898556e-004  -6.1165108260e-004   9.9349897175e-001  -5.0822421918e-003   9.9839248345e-001  -3.8881910554e-003  -7.9546179807e-004  -4.7713181850e-004
  9.4581250000e+008   7.1426175788e-005  -8.4808986197e-004   9.9383986880e-001  -4.0090944188e-003   9.9936775258e-001  -3.7532574496e-003  -9.1625608327e-004  -2.6783730129e-004
  9.5440000000e+008  -1.0443819886e-004  -8.3672644715e-004   9.9546565913e-001  -4.8482858146e-003   9.9931287721e-001  -3.9058563144e-003  -9.3829096995e-004  -1.8248008682e-004
  9.6298750000e+008  -5.3875604294e-004  -8.3216412512e-004   9.9692471969e-001  -2.9581559278e-003   9.9925768949e-001  -4.8635356118e-003  -1.0174679108e-003   7.9353142552e-005
  9.7157500000e+008  -6.1210567497e-004  -8.0907494695e-004   9.9712110307e-001  -5.0105644373e-003   1.0006520716e+000  -4.7756088557e-003  -1.1975005697e-003  -1.5949835588e-005
  9.8016250000e+008  -8.9525646615e-004  -5.7973007677e-004   9.9769573091e-001  -5.7217773366e-003   9.9980078107e-001  -4.5075120395e-003  -1.0921018767e-003   8.4171912350e-005
  9.8875000000e+008  -9.0260784095e-004  -1.3500062583e-004   9.9915096871e-001  -3.2330424833e-003   9.9980658141e-001  -4.3677976098e-003  -9.1718161907e-004   2.5863365318e-004
  9.9733750000e+008  -9.1750217885e-004   6.8748459261e-005   9.9765981649e-001  -4.4792057023e-003   9.9939894429e-001  -4.2957967510e-003  -8.4913365957e-004   1.6261626245e-004
  1.0059250000e+009  -7.4564493442e-004   3.7384970121e-004   9.9930569281e-001  -3.1153513018e-003   9.9971100747e-001  -3.4956655191e-003  -4.7238714017e-004   2.9573168670e-004
  1.0145125000e+009  -5.4236232306e-004   4.8174794905e-004   9.9897284623e-001  -6.1825231010e-003   9.9986447250e-001  -4.5221516965e-003  -1.7991067837e-004   4.1566356142e-004
  1.0231000000e+009  -4.0197177354e-004   4.9613478536e-004   9.9732784554e-001  -4.6472766183e-003   9.9950149400e-001  -4.6429050279e-003  -1.3930713288e-004   4.5365655191e-004
  1.0316875000e+009  -1.4663893455e-004   7.1132718075e-004   9.9892120023e-001  -4.6741779775e-003   9.9930522468e-001  -4.2564453737e-003   1.1472184808e-004   2.9970032491e-004
  1.0402750000e+009   1.8698632598e-004   7.1650066909e-004   9.9691441650e-001  -4.7239502237e-003   9.9997683084e-001  -3.8598212868e-003   2.8040873545e-004   6.4635339103e-005
  1.0488625000e+009   3.3652898627e-004   4.9946188211e-004   9.9850082660e-001  -4.7361957717e-003   9.9974251537e-001  -4.7656179023e-003   5.2416484207e-004  -6.1041030289e-005
  1.0574500000e+009   4.6374392662e-004   1.6832086470e-004   9.9821566859e-001  -4.2663131725e-003   9.9930762932e-001  -4.2574560846e-003   6.7474736019e-004  -2.7854440024e-004
