# Hz S RI R 50.000000
! Metas.Vna.Tools, 2.8.8664.20301
! Metas.Vna.Data, 2.8.8664.20285
! Created: UTC 2024.02.11 10:08:09
! FREQ                re:S1,1             im:S1,1             re:S2,1             im:S2,1             re:S1,2             im:S1,2             re:S2,2             im:S2,2          
  1.3000000000e+008  -1.6234192018e-004  -6.5931006321e-004   9.9992003142e-001  -3.9316824766e-003   9.9994239782e-001  -2.5061687156e-003   1.3321001750e-003   6.5202567175e-004
  1.3858750000e+008  -5.4039453797e-004  -1.4182768496e-003   1.0013474615e+000  -2.3498933212e-003   1.0005731710e+000  -1.9683049873e-003   8.0609524061e-004  -3.8645648606e-004
  1.4717500000e+008  -1.6332522679e-003  -9.0668812132e-004   9.9917916436e-001  -3.7919218465e-003   1.0003211157e+000  -1.5854616941e-003   3.4534411811e-004  -4.2594242541e-004
  1.5576250000e+008  -1.2072560989e-003   2.2802384994e-004   9.9870728428e-001  -3.2650736928e-003   1.0002515255e+000  -2.3184579763e-003   8.9494146576e-004  -8.6135069997e-004
  1.6435000000e+008  -4.1676339721e-004   4.3313087943e-004   9.9845007225e-001  -2.2428057722e-003   1.0003912593e+000  -1.7333692694e-003   7.0296000763e-004  -4.2841428196e-004
  1.7293750000e+008  -7.6312411840e-004   6.8775067996e-004   9.9791641833e-001  -1.8766408999e-003   1.0001294104e+000  -2.0477041942e-003   1.0477922190e-003  -5.8017838783e-004
  1.8152500000e+008  -5.7336388178e-004   3.5766803507e-004   9.9881118749e-001  -2.2676328011e-003   9.9978693835e-001  -2.1216124570e-003   6.7668916504e-004  -5.9490035706e-004
  1.9011250000e+008  -1.4223222330e-004   2.4614114678e-004   1.0004449053e+000  -3.3982197593e-003   1.0007961893e+000  -2.2884328878e-003   2.0435926075e-004  -1.1200820861e-003
  1.9870000000e+008  -1.5428894079e-004   6.1591316267e-004   9.9981302656e-001  -3.2105462315e-003   9.9990951558e-001  -2.1774530865e-003   1.5773134558e-004  -9.6842319851e-005
  2.0728750000e+008   7.0377110625e-005  -8.9129203942e-005   9.9952210517e-001  -2.6106434517e-003   1.0002955517e+000  -2.0938807493e-003   1.0637039739e-005  -1.1918576314e-004
  2.1587500000e+008   3.6109867968e-004  -4.7220117354e-004   1.0019124505e+000  -3.4830694301e-003   9.9997012210e-001  -1.8182725360e-003  -6.4919685895e-004   4.0953320125e-004
  2.2446250000e+008   6.2138326771e-004  -1.0880974374e-004   1.0002990152e+000  -2.6792849624e-003   1.0001294143e+000  -1.8421019747e-003   9.3158930155e-005   9.8757736760e-005
  2.3305000000e+008   3.0884078468e-004  -2.0009557642e-004   1.0001454442e+000  -2.7988114177e-003   1.0005017432e+000  -2.2334001287e-003   5.7472601464e-006   2.0352195541e-004
  2.4163750000e+008  -6.1417560260e-004  -4.3770445330e-004   1.0010428087e+000  -3.4052587292e-003   9.9982326586e-001  -2.6732021784e-003  -4.2281337296e-004   3.4459306025e-004
  2.5022500000e+008  -6.4667581929e-004  -3.7459457099e-004   9.9938185483e-001  -2.6081812167e-003   1.0002863893e+000  -2.7382362143e-003  -5.1292468403e-004   5.6563614012e-004
  2.5881250000e+008  -2.9129843535e-004  -5.4607705680e-004   9.9876867739e-001  -1.8664235499e-003   9.9998790779e-001  -3.6656129466e-003  -6.5820289262e-004   6.2581345335e-004
  2.6740000000e+008  -3.4128666109e-004  -5.6029882786e-004   1.0010573867e+000  -3.1249692463e-003   1.0004539113e+000  -3.0058907382e-003  -5.4002119168e-004   2.7702724856e-004
  2.7598750000e+008  -3.0894264691e-004  -5.6695294863e-004   1.0001888880e+000  -2.6456600269e-003   1.0001133594e+000  -2.2266385060e-003  -1.9382483000e-004   7.5474948483e-004
  2.8457500000e+008  -6.0529343124e-004  -2.9729072621e-004   1.0012988307e+000  -3.0289722745e-003   1.0001716787e+000  -2.3046580705e-003  -1.3991250586e-004   6.2344794585e-004
  2.9316250000e+008  -6.3036451976e-004  -2.9932451082e-004   1.0015185953e+000  -2.5193494847e-003   1.0002732064e+000  -2.9897916345e-003  -2.2444660873e-004   2.7065391464e-004
  3.0175000000e+008  -5.8227935618e-004   2.3413618073e-004   1.0007650887e+000  -4.2526943797e-003   9.9988573768e-001  -2.6055857948e-003  -4.3198963144e-004   3.6205887868e-004
  3.1033750000e+008  -8.2415215509e-004   1.1853148928e-004   1.0010295142e+000  -1.7734110777e-003   1.0009855766e+000  -2.8207863173e-003  -3.2887165719e-004   5.2029752116e-004
  3.1892500000e+008  -8.6667340428e-004   1.2905392751e-004   1.0004111572e+000  -3.0576131991e-003   1.0002108011e+000  -1.9972844617e-003  -5.9702592964e-004   7.3866033692e-005
  3.2751250000e+008  -4.0176864179e-004   3.3486297412e-004   1.0016015507e+000  -4.9001392390e-003   9.9977909313e-001  -2.7790650529e-003  -5.4055914642e-004   2.4882679985e-004
  3.3610000000e+008  -5.1029928579e-004   2.2372689379e-005   1.0028112814e+000  -1.9394464128e-003   1.0012446277e+000  -3.2765780836e-003  -5.3723749943e-004   8.7028377776e-005
  3.4468750000e+008  -4.7282772461e-004   7.0820406297e-005   1.0012600947e+000  -2.5975600699e-003   1.0000781846e+000  -2.6384960824e-003  -4.9207326937e-004   1.5232561048e-004
  3.5327500000e+008  -3.0057272116e-004   2.0630831700e-004   1.0010375924e+000  -4.1927039111e-003   9.9930301648e-001  -3.4644937576e-003  -6.3629589612e-004  -9.7238296767e-006
  3.6186250000e+008  -2.5944497983e-004   3.7496090549e-004   1.0017949759e+000  -3.3142020315e-003   1.0006048117e+000  -2.4630893584e-003  -4.2169109043e-004   3.7424579037e-004
  3.7045000000e+008  -3.7203955381e-004   4.8840773993e-004   1.0010381292e+000  -2.4899698289e-003   1.0005834892e+000  -2.7879102982e-003  -6.2008604825e-004   2.7841619033e-004
  3.7903750000e+008  -5.8882512812e-005   5.7460871197e-004   1.0005059346e+000  -1.3811487292e-003   1.0004692651e+000  -3.2311227678e-003  -6.9760898022e-004   2.0521997294e-004
  3.8762500000e+008  -5.2243889095e-004   4.8729265842e-004   1.0031138561e+000  -3.2878813806e-003   9.9977437225e-001  -2.8828322951e-003  -2.7930044737e-004   5.8402088011e-004
  3.9621250000e+008  -8.6212119112e-005   1.7235770546e-004   1.0009634958e+000  -3.2942230198e-003   1.0000724041e+000  -3.1223194780e-003  -4.5628865075e-004   4.0944613903e-004
  4.0480000000e+008   6.0753973695e-005   2.1332319957e-004   1.0024996449e+000  -2.7275795339e-003   1.0000082278e+000  -3.0855061916e-003  -1.3255512496e-004   2.1033032633e-004
  4.1338750000e+008   9.8208470162e-005   1.7154185515e-004   1.0019273849e+000  -2.0046655288e-003   1.0004511988e+000  -2.9015714146e-003   3.2342755590e-004   2.2929584032e-004
  4.2197500000e+008  -6.8236618521e-005  -1.1647060359e-004   1.0022963669e+000  -3.1375200708e-003   1.0001892552e+000  -3.2059803300e-003   2.9805142473e-004   5.7614404306e-004
  4.3056250000e+008   2.0974012422e-004   5.3791919708e-005   1.0019118079e+000  -2.6997291230e-003   1.0004928642e+000  -2.7858173078e-003   6.2030266521e-004   3.2074862598e-004
  4.3915000000e+008   6.0011483638e-005  -1.4250901071e-004   1.0036624128e+000  -1.9498749156e-003   1.0001212700e+000  -3.3556507888e-003   5.1885002703e-004   1.1227071824e-004
  4.4773750000e+008   2.0890483403e-004  -1.5159262301e-004   1.0032373081e+000  -2.8050743636e-003   1.0000603981e+000  -3.3050730881e-003   4.9558347648e-004   5.1789107795e-005
  4.5632500000e+008  -5.1229843129e-005  -5.8956889372e-006   1.0013133897e+000  -1.9159546033e-003   1.0001206934e+000  -3.1150837109e-003   5.4965806026e-004   2.5066561804e-004
  4.6491250000e+008  -3.3405604062e-004   1.9260273893e-005   1.0014265548e+000  -3.1899480194e-003   9.9999538771e-001  -3.2021368139e-003   5.5664936671e-004   1.9307988489e-004
  4.7350000000e+008  -3.1034477324e-004  -1.4467219960e-004   1.0004365614e+000  -4.0184135306e-003   1.0000181775e+000  -3.0835510106e-003   3.7322531994e-004  -1.5434844602e-004
  4.8208750000e+008  -2.1940438374e-004   1.0436414478e-004   9.9964036115e-001  -3.3806385819e-003   9.9965383316e-001  -3.0182303668e-003   6.5495356025e-004   1.6479454693e-004
  4.9067500000e+008   9.3175488497e-005  -4.1864459811e-004   9.9934231607e-001  -2.6384459130e-003   9.9983930685e-001  -3.1429698489e-003   3.8012268629e-004   3.8178061929e-005
  4.9926250000e+008  -2.0167650884e-004  -7.3349403782e-004   9.9918506714e-001  -3.0985548141e-003   9.9957706602e-001  -2.9157076335e-003   6.3188595326e-004   2.2460174923e-005
  5.0785000000e+008  -5.8824858871e-004  -2.5421926822e-004   9.9928653515e-001  -3.3288261341e-003   9.9943736455e-001  -2.5343219607e-003   5.5186077287e-004   3.3650277322e-004
  5.1643750000e+008  -7.7056489341e-004  -1.2422580277e-005   9.9941067692e-001  -2.4889811706e-003   9.9957164527e-001  -2.9319219680e-003   7.5555814978e-004   5.4141701768e-005
  5.2502500000e+008  -5.1390600151e-004   6.0580780116e-004   9.9906723560e-001  -1.7857875748e-003   1.0005760286e+000  -1.8588369783e-003   5.0127833691e-004  -3.9601181500e-004
  5.3361250000e+008   2.8832649505e-004   6.6871118065e-004   1.0010589757e+000  -3.4453233587e-003   1.0006339812e+000  -3.0304761912e-003   1.2426694440e-004  -5.1408497996e-004
  5.4220000000e+008   8.0951700386e-004   1.8068311615e-004   1.0004153752e+000  -3.7526067103e-003   1.0011348832e+000  -2.9659947920e-003  -5.9389009973e-004  -3.3407205636e-004
  5.5078750000e+008   4.1608218263e-004  -4.0724259852e-004   9.9955203946e-001  -4.6454987914e-003   1.0005359606e+000  -3.7304450665e-003  -7.2180023670e-004  -2.1910180072e-004
  5.5937500000e+008   4.5942412705e-004  -6.2827738689e-004   9.9914179134e-001  -3.9442390710e-003   1.0004646299e+000  -3.0939730332e-003  -9.4045074347e-004   7.8399608025e-005
  5.6796250000e+008   2.6189130476e-004  -8.2465215477e-004   9.9984654978e-001  -3.7922990075e-003   1.0007687800e+000  -3.3811437721e-003  -9.1113802837e-004   4.8601499045e-004
  5.7655000000e+008  -4.6838310138e-004  -8.1435884049e-004   1.0002081017e+000  -5.6559889179e-003   1.0008229645e+000  -4.2207505194e-003  -6.2587172885e-004   8.3040612227e-004
  5.8513750000e+008  -4.7954854138e-004  -8.8650800091e-004   1.0000573879e+000  -4.3033052948e-003   9.9943465874e-001  -3.1910430650e-003  -6.6186864577e-004   8.8215805714e-004
  5.9372500000e+008  -6.3712559179e-004  -6.6563598275e-004   9.9862331287e-001  -3.7773668573e-003   9.9992966048e-001  -4.2111312628e-003  -4.2496543215e-004   1.0709152823e-003
  6.0231250000e+008  -9.8448549640e-004  -4.2569125670e-004   9.9729248489e-001  -3.7788075255e-003   1.0006752856e+000  -3.9249091100e-003  -3.3251251738e-004   9.7387499618e-004
  6.1090000000e+008  -7.7178475773e-004  -2.1412199636e-004   1.0012059476e+000  -5.0603179383e-003   9.9995369418e-001  -2.8606089635e-003  -1.6884142055e-004   1.0119241728e-003
  6.1948750000e+008  -8.3443449657e-004   2.7986190530e-005   9.9793511870e-001  -3.7321068939e-003   1.0000446894e+000  -3.3491309801e-003  -1.6631839859e-004   8.7921837239e-004
  6.2807500000e+008  -6.9822270709e-004   1.0921606340e-004   1.0002883445e+000  -5.5062394657e-003   1.0002022078e+000  -3.1365833328e-003   1.8818890984e-004   5.7231374594e-004
  6.3666250000e+008  -3.8647324124e-004   4.4517019366e-004   1.0008053425e+000  -4.5985226741e-003   1.0006109707e+000  -3.7293508009e-003   2.8414661898e-004   2.6460168996e-004
  6.4525000000e+008   1.0443838371e-005   5.0731887408e-004   9.9897936458e-001  -3.7540735010e-003   1.0004503607e+000  -3.2794441363e-003   3.8718394365e-004  -8.4572494967e-006
  6.5383750000e+008   4.7281942692e-005   1.8681788250e-004   1.0004600841e+000  -4.5670625455e-003   9.9959609230e-001  -3.1816298019e-003   3.9970419940e-004  -2.1615167957e-004
  6.6242500000e+008   3.6211625278e-004   1.1554252586e-004   9.9782950535e-001  -3.9056426898e-003   1.0000800845e+000  -4.0633276566e-003   2.5741259096e-004  -4.2637695089e-004
  6.7101250000e+008   2.8035716658e-004  -2.5877658981e-004   1.0003287408e+000  -1.8775700745e-003   9.9920800071e-001  -3.3058056272e-003   4.4252934399e-004  -5.4266013089e-004
  6.7960000000e+008   3.7758486892e-004  -5.6834258012e-004   9.9973577991e-001  -4.4834699022e-003   1.0002039925e+000  -3.7579822303e-003   1.9032863617e-004  -9.2059305111e-004
  6.8818750000e+008   1.6697600641e-004  -6.3773829088e-004   9.9835503958e-001  -3.4656121559e-003   1.0000720219e+000  -4.0554235606e-003   9.0809592301e-005  -9.2726671319e-004
  6.9677500000e+008   4.5893852396e-005  -7.1087117777e-004   9.9991486488e-001  -3.6907187295e-003   9.9991997035e-001  -3.8958807933e-003  -3.5090113688e-004  -9.3334547788e-004
  7.0536250000e+008  -3.7190863810e-004  -8.7967671911e-004   9.9915444839e-001  -4.9308728417e-003   1.0000250248e+000  -3.7449272681e-003  -2.8184928943e-004  -1.1261137522e-003
  7.1395000000e+008  -6.5523862547e-004  -7.2164490200e-004   9.9979895197e-001  -3.7135728785e-003   9.9989096614e-001  -3.6111924190e-003  -5.3611157741e-004  -1.0383779861e-003
  7.2253750000e+008  -9.4110626597e-004  -6.3323409578e-004   9.9702328257e-001  -4.5383349054e-003   1.0000184095e+000  -3.9319462902e-003  -8.3755247686e-004  -9.9264077591e-004
  7.3112500000e+008  -9.3124349871e-004  -1.9207680868e-004   9.9893280467e-001  -3.1698184689e-003   9.9933989509e-001  -3.3298953541e-003  -9.6519046655e-004  -7.5422026780e-004
  7.3971250000e+008  -8.1331761672e-004   1.0387345560e-004   1.0005648890e+000  -6.1789660327e-003   9.9962695342e-001  -4.4925465609e-003  -1.0384756804e-003  -5.6277197837e-004
  7.4830000000e+008  -7.4171548142e-004   6.7382338138e-004   9.9988783834e-001  -3.8226103875e-003   9.9913263012e-001  -3.5680518264e-003  -8.8996660760e-004  -4.5710248622e-004
  7.5688750000e+008  -4.9535120912e-004   5.5961025880e-004   9.9878574699e-001  -5.0172144408e-003   9.9938224924e-001  -4.6309994195e-003  -1.0224035404e-003  -9.2659205491e-005
  7.6547500000e+008  -1.3759799035e-004   7.3541626513e-004   9.9981130047e-001  -4.8889048262e-003   9.9936132328e-001  -4.0884105771e-003  -9.9456776559e-004   4.3942368702e-005
  7.7406250000e+008   1.8793064923e-004   6.2865738558e-004   9.9933989800e-001  -4.0262932760e-003   9.9938341144e-001  -3.8959128498e-003  -5.8671331090e-004   2.7867583729e-004
  7.8265000000e+008   3.1308538458e-004   3.7301009918e-004   9.9918883600e-001  -4.7406672796e-003   9.9873685440e-001  -3.6309668572e-003  -3.8168059578e-004   7.1568709175e-004
  7.9123750000e+008   3.3360393619e-004   2.8932347476e-004   9.9969458037e-001  -4.1167047276e-003   9.9907618874e-001  -3.4615130847e-003  -3.8225063678e-004   6.3404987155e-004
  7.9982500000e+008   3.4177927949e-004   1.7488981734e-004   9.9981527140e-001  -3.4150461842e-003   1.0002228136e+000  -3.1750951184e-003  -1.0957748674e-004   7.3705631854e-004
  8.0841250000e+008   5.8909737312e-004   2.8483338619e-004   9.9879084712e-001  -4.4505204384e-003   9.9905322522e-001  -3.8843770688e-003  -1.3618059897e-004   6.7243042519e-004
  8.1700000000e+008   8.3598239556e-004   1.4595130476e-004   9.9806376292e-001  -3.9523483531e-003   9.9939011207e-001  -3.3175166474e-003  -7.8031238752e-005   5.1438581565e-004
  8.2558750000e+008   1.0606073583e-003  -4.2945940869e-005   9.9909363458e-001  -3.7139231138e-003   9.9991207116e-001  -4.2759909865e-003  -3.7358054407e-004   7.2072540064e-004
  8.3417500000e+008   1.0980992055e-003  -7.1991375155e-004   9.9923960444e-001  -3.7483707865e-003   1.0001890672e+000  -4.1058238541e-003  -3.9066649218e-004   8.8423459907e-004
  8.4276250000e+008   7.2498762123e-004  -1.0053139753e-003   9.9693767301e-001  -4.3164669573e-003   9.9951288414e-001  -4.4348914770e-003   1.4970557652e-005   1.0328258727e-003
  8.5135000000e+008   2.7709173785e-004  -1.1391489443e-003   9.9879799383e-001  -4.1379628752e-003   1.0012812557e+000  -3.9085000964e-003   2.8587687453e-004   1.2666795109e-003
  8.5993750000e+008  -2.5909599257e-005  -1.2999442524e-003   1.0000375923e+000  -4.6057352300e-003   1.0001365643e+000  -5.2038336526e-003   4.1300379181e-004   1.0820705641e-003
  8.6852500000e+008  -6.4381582394e-004  -8.8204553901e-004   9.9802047359e-001  -6.0419442905e-003   9.9934121829e-001  -4.0511470298e-003   6.6073628744e-004   7.4940888753e-004
  8.7711250000e+008  -6.1598471262e-004  -7.0209387016e-004   9.9826208858e-001  -5.0651549091e-003   1.0001173254e+000  -4.8208250096e-003   7.6343725421e-004   3.7218579905e-004
  8.8570000000e+008  -4.5854966523e-004  -4.2151014719e-004   9.9891858754e-001  -3.6020731652e-003   1.0000300091e+000  -4.4469401422e-003   6.7293833948e-004   2.1957941274e-004
  8.9428750000e+008  -4.6754699027e-004  -1.6601015396e-004   9.9720244544e-001  -5.0734547718e-003   9.9945811915e-001  -4.6830027282e-003   2.5761824991e-004  -2.5630139370e-004
  9.0287500000e+008  -9.6392573887e-005  -6.6882503147e-005   9.9910681195e-001  -5.8234675962e-003   9.9964817835e-001  -5.4102062184e-003   4.4004863760e-005  -4.2437511824e-004
  9.1146250000e+008   1.5442513059e-004   4.1019794794e-005   9.9764530975e-001  -6.7255747262e-003   9.9923307911e-001  -4.2763069947e-003  -2.6097515258e-004  -3.8380700450e-004
  9.2005000000e+008   1.5615146241e-004  -1.4330301243e-004   9.9916501838e-001  -4.0287040485e-003   9.9856792739e-001  -4.3195155768e-003  -5.1977972920e-004  -5.5515145398e-004
  9.2863750000e+008   3.7511612745e-004  -3.8424991229e-004   1.0002637314e+000  -5.0515643958e-003   9.9926035275e-001  -4.6968569947e-003  -6.2443686844e-004  -5.4787573783e-004
  9.3722500000e+008   2.9308370851e-004  -6.9890623839e-004   9.9950700785e-001  -5.4942452136e-003   9.9863599876e-001  -4.8951375242e-003  -9.9294141672e-004  -5.5000908763e-004
  9.4581250000e+008   2.5795744738e-004  -9.7151729949e-004   9.9914106132e-001  -3.4384407982e-003   9.9910430353e-001  -4.3998120952e-003  -1.2200380468e-003  -2.3154606309e-004
  9.5440000000e+008  -1.1822096904e-005  -1.0179867405e-003   9.9888278635e-001  -4.6345905149e-003   1.0005687717e+000  -4.0389905267e-003  -1.3180908791e-003  -2.6983637559e-004
  9.6298750000e+008  -2.3998252647e-004  -1.1389188012e-003   1.0004308244e+000  -3.0089001339e-003   9.9968623597e-001  -4.9359475322e-003  -1.3318634923e-003  -1.3987820292e-005
  9.7157500000e+008  -6.3495631137e-004  -1.1456086413e-003   1.0008418784e+000  -4.7610568897e-003   1.0002281070e+000  -4.4372948599e-003  -1.3194206968e-003  -1.6230903275e-005
  9.8016250000e+008  -8.1502403789e-004  -9.3167339936e-004   1.0005490038e+000  -4.2982216680e-003   1.0003042135e+000  -5.5016679719e-003  -1.3220942570e-003   3.3432680451e-004
  9.8875000000e+008  -1.0370849291e-003  -5.7116909565e-004   9.9991350652e-001  -3.1401280920e-003   9.9910674109e-001  -4.7175259448e-003  -1.1933015031e-003   4.1737053064e-004
  9.9733750000e+008  -1.0252139657e-003  -2.4380260042e-004   9.9911984673e-001  -3.7625648946e-003   9.9966269723e-001  -4.0961444804e-003  -9.6655326672e-004   2.7278749783e-004
  1.0059250000e+009  -9.2311172326e-004   2.6383848036e-004   1.0002102354e+000  -3.7898402679e-003   1.0002990742e+000  -4.4970070887e-003  -5.6451562997e-004   3.5240630442e-004
  1.0145125000e+009  -9.0505134064e-004   3.6633438982e-004   9.9918858617e-001  -6.9993701858e-003   9.9953843882e-001  -4.0293358769e-003  -2.4062585989e-004   3.4875339408e-004
  1.0231000000e+009  -6.3759548387e-004   6.7719466468e-004   9.9913611914e-001  -5.1506583814e-003   9.9993457583e-001  -4.8295390573e-003  -1.8104889155e-004   3.6577458742e-004
  1.0316875000e+009  -3.5977201010e-004   7.6872026057e-004   9.9965993788e-001  -5.5749584131e-003   9.9914283357e-001  -5.3091372303e-003   1.2605078602e-004   2.8691021405e-004
  1.0402750000e+009   5.4652992088e-005   7.7169027828e-004   9.9864483709e-001  -5.7828638558e-003   9.9974089387e-001  -4.0253356093e-003   4.3812584346e-004   2.8141628045e-005
  1.0488625000e+009   2.7488841113e-004   6.1729249688e-004   9.9999181600e-001  -4.7265067777e-003   9.9957242932e-001  -4.2051612344e-003   6.4459153235e-004  -1.0734462861e-004
  1.0574500000e+009   6.1570892699e-004   2.8149669764e-004   9.9908991894e-001  -3.8750068363e-003   9.9930026696e-001  -4.4570337133e-003   8.7742160355e-004  -2.9206541242e-004
