# Hz S RI R 50.000000
! Metas.Vna.Tools, 2.8.8664.20301
! Metas.Vna.Data, 2.8.8664.20285
! Created: UTC 2024.02.11 10:08:41
! FREQ                re:S1,1             im:S1,1             re:S2,1             im:S2,1             re:S1,2             im:S1,2             re:S2,2             im:S2,2          
  1.3000000000e+008   1.0040344629e-004  -1.6896013697e-003   9.9261581630e-001  -6.7542466146e-003   1.0008706274e+000   3.9923296019e-004   9.6751539979e-004   5.8670614952e-004
  1.3858750000e+008  -9.7580673537e-004  -1.4204818221e-003   9.9271702729e-001  -5.4362166820e-003   1.0003129080e+000   5.4093449216e-004   2.0046764414e-003   6.6757591802e-004
  1.4717500000e+008  -2.0117059557e-003  -1.2596775358e-003   9.9230639342e-001  -7.2269306372e-003   1.0003419314e+000   2.7756068429e-004   5.2922934396e-004   8.1393813903e-005
  1.5576250000e+008  -1.7005138245e-003  -2.6903645239e-004   9.9226747008e-001  -5.9097799671e-003   1.0003158921e+000   6.8980918196e-004   1.3822808524e-003  -1.0676881141e-003
  1.6435000000e+008  -1.0686557798e-003   6.0966767145e-004   9.9213576882e-001  -6.5302388868e-003   1.0009995235e+000  -1.3014278692e-004   5.9192176214e-004  -3.1619870324e-004
  1.7293750000e+008  -5.0766720462e-004   3.7460529961e-004   9.9288351014e-001  -6.2625307248e-003   1.0001996940e+000  -1.4598349763e-004   6.1142045257e-004  -6.3050619378e-004
  1.8152500000e+008  -5.9143188277e-004   6.0591526167e-004   9.9190765103e-001  -7.0652984215e-003   1.0000744369e+000  -3.1311836848e-004   8.7491497436e-004  -8.4037939371e-004
  1.9011250000e+008  -3.8244511286e-004   7.8327158796e-004   9.9301406547e-001  -7.5238341097e-003   1.0013283180e+000  -5.0783698841e-004   8.2297698861e-004  -1.1344761804e-003
  1.9870000000e+008  -4.4063049977e-004   5.4012166822e-004   9.9309803860e-001  -6.3104034513e-003   1.0008046269e+000   1.2950156896e-004   5.7397256250e-004  -4.0700147606e-004
  2.0728750000e+008   3.6062391749e-004   4.2493243756e-004   9.9087782738e-001  -6.7434768937e-003   1.0012517105e+000  -6.2107843966e-004   3.4014380656e-005  -5.4144210131e-006
  2.1587500000e+008  -1.4400287754e-005  -2.0271830737e-004   9.9289513305e-001  -6.2214855371e-003   1.0001280472e+000   1.1067259091e-004  -1.9689380272e-004   2.3666928728e-005
  2.2446250000e+008   5.1636880384e-004  -3.6529241207e-004   9.9282693466e-001  -6.2905436942e-003   1.0006430177e+000  -1.9884094556e-004  -5.3082573789e-004   1.2467968689e-004
  2.3305000000e+008  -2.3345477065e-004  -1.8088130764e-005   9.9236973403e-001  -6.9542520829e-003   1.0003552270e+000  -8.7779700357e-004  -3.9147093506e-004  -4.9934212251e-005
  2.4163750000e+008  -2.8092630691e-004  -1.9643104936e-004   9.9206878618e-001  -7.7484944824e-003   1.0001962371e+000  -1.2163762575e-003  -5.9861579371e-004   2.3627411339e-004
  2.5022500000e+008  -5.1367218271e-004  -5.3505476572e-004   9.9095360210e-001  -6.5552437603e-003   1.0001922589e+000  -7.9904812134e-004  -9.4321337693e-004   5.0211909442e-004
  2.5881250000e+008  -5.3476605102e-004  -5.8905223344e-004   9.9140576399e-001  -7.3567940646e-003   1.0000458131e+000  -7.3087942984e-004  -3.9092328290e-004   7.3928700509e-004
  2.6740000000e+008  -5.6484935724e-004  -5.2125799903e-004   9.9327576966e-001  -7.7163153809e-003   1.0007038362e+000  -1.3475814234e-003  -4.7453757925e-004   4.5848850933e-004
  2.7598750000e+008  -3.1700998050e-004  -2.6904647257e-004   9.9257400495e-001  -6.7768208841e-003   1.0004644221e+000  -3.9364220801e-004  -8.2818768736e-004   5.0448793324e-004
  2.8457500000e+008  -7.7428828344e-004  -3.7219762156e-004   9.9278888948e-001  -7.0256197904e-003   1.0002498369e+000   1.0406779541e-004  -9.0740757066e-004   6.5750712999e-004
  2.9316250000e+008  -5.0939678445e-004  -4.4221046660e-004   9.9233929075e-001  -6.4734880409e-003   1.0007856712e+000  -1.1401531816e-003  -3.3641382382e-004   4.0881996623e-004
  3.0175000000e+008  -1.2357844830e-003   2.5026429533e-004   9.9047066359e-001  -8.3404007859e-003   1.0006116402e+000  -8.1309004340e-005  -5.9427916287e-004   5.7549145630e-004
  3.1033750000e+008  -6.9601248964e-004   8.6297226504e-005   9.9133421654e-001  -7.1905548666e-003   1.0019163053e+000  -6.3345775506e-004  -7.8032570369e-004   4.2464534088e-004
  3.1892500000e+008  -1.2436654373e-003   1.3450178594e-006   9.9218767353e-001  -6.2316939630e-003   1.0004930005e+000  -1.9390119055e-004  -6.6832236957e-004   3.5741835703e-004
  3.2751250000e+008  -8.3331727429e-004   1.1386542188e-004   9.9267876019e-001  -7.0028823500e-003   1.0006154977e+000  -1.6254096459e-003  -5.7856284417e-004  -1.3220900960e-005
  3.3610000000e+008  -8.7199908274e-004  -2.1013923600e-005   9.9310489351e-001  -6.1424852112e-003   1.0008935096e+000  -1.3186574356e-003  -8.3661942644e-004   2.2954255066e-004
  3.4468750000e+008  -8.1753341001e-004   2.8518393088e-004   9.9275170771e-001  -7.0187781570e-003   1.0008098605e+000  -4.5125909865e-004  -5.6107894852e-004   2.8533877075e-004
  3.5327500000e+008  -6.5627242192e-004   2.5884375677e-004   9.9303572856e-001  -9.1755077555e-003   9.9981372548e-001  -1.1571416903e-003  -6.8865288855e-004   2.3780319828e-004
  3.6186250000e+008  -3.7794809621e-004   3.0066062668e-004   9.9336560843e-001  -7.9647855157e-003   1.0010376698e+000  -4.2318939284e-004  -4.9134845743e-004   6.3332730328e-004
  3.7045000000e+008  -6.9778921192e-004   6.0597632174e-004   9.9255448056e-001  -6.9467405873e-003   1.0014024997e+000  -1.1948185856e-003  -5.9404681078e-004   4.3164777869e-004
  3.7903750000e+008  -1.4635518466e-004   6.2255360195e-004   9.9233739282e-001  -7.1665878604e-003   1.0008114470e+000  -9.8716949217e-004  -5.2319796322e-004   4.3718114470e-005
  3.8762500000e+008  -2.7776806650e-004   4.3028296584e-004   9.9457754538e-001  -5.9379927281e-003   1.0005952667e+000  -8.9650535197e-004  -3.0266466249e-004   7.2092878177e-004
  3.9621250000e+008   8.4588065249e-005   3.1281995535e-004   9.9332154506e-001  -7.9216303351e-003   1.0005767283e+000  -9.0078878368e-004  -3.1864480423e-004   6.0661527887e-004
  4.0480000000e+008   2.3314199703e-004   3.8126811092e-004   9.9476282423e-001  -6.8000565159e-003   1.0001799746e+000  -9.4637009559e-004   1.2843242800e-004   3.3261034585e-004
  4.1338750000e+008   1.5249615914e-004   1.0651213687e-004   9.9435034514e-001  -6.2397885753e-003   1.0012642559e+000  -9.9527088597e-004   4.8292747041e-005   4.8847368633e-004
  4.2197500000e+008   1.3156400042e-005  -1.1419411671e-004   9.9417295815e-001  -6.8669801046e-003   1.0004493609e+000  -1.1824707083e-003   2.5978413435e-004   4.6820067534e-004
  4.3056250000e+008   1.0969394278e-004   6.6270775027e-005   9.9426368056e-001  -6.2544580341e-003   1.0005938982e+000  -1.3610881952e-003   5.7119974655e-004   2.5218938676e-004
  4.3915000000e+008  -4.7013749369e-005  -1.4368452418e-004   9.9700081258e-001  -5.3332920691e-003   1.0004394539e+000  -1.7105629812e-003   5.4115272954e-004   3.2804367425e-004
  4.4773750000e+008   3.7211985658e-005  -3.1636538375e-004   9.9511456709e-001  -6.9623848258e-003   1.0005458215e+000  -1.6370113276e-003   6.9619078461e-004   4.2740577806e-005
  4.5632500000e+008  -2.1458375579e-004  -2.9210633378e-004   9.9332770069e-001  -6.3693545689e-003   1.0005662690e+000  -1.7431095320e-003   6.9830551369e-004   2.5454200992e-005
  4.6491250000e+008  -4.2200044541e-004  -2.5243457581e-004   9.9391050697e-001  -7.0224205807e-003   1.0003948679e+000  -1.3505755504e-003   5.9106801874e-004   1.7916859561e-004
  4.7350000000e+008  -5.7964504693e-004  -2.9205730717e-004   9.9228538019e-001  -6.9544774131e-003   1.0003113904e+000  -1.6264115103e-003   5.3903853022e-004  -9.8139011112e-005
  4.8208750000e+008  -3.3474097759e-004   8.8446924186e-005   9.9182820514e-001  -8.3786188899e-003   9.9949477007e-001  -1.2288275046e-003   5.2114514723e-004  -5.5926994918e-005
  4.9067500000e+008  -3.3890552425e-004  -1.6768368828e-004   9.9088147796e-001  -7.9060429915e-003   1.0001837716e+000  -1.4535287840e-003   2.5161850657e-004  -1.1687682197e-004
  4.9926250000e+008  -2.0547012499e-004  -2.9229055142e-004   9.9110370951e-001  -6.5882167908e-003   1.0000304860e+000  -1.6373851455e-003   4.8793166700e-004  -1.4945755284e-004
  5.0785000000e+008  -5.6045732519e-004  -2.9404183161e-004   9.9176117130e-001  -6.9679922432e-003   1.0000600631e+000  -1.0977477623e-003   4.5824346942e-004   3.6948459611e-004
  5.1643750000e+008  -5.0651133152e-004   7.6517857182e-005   9.9113355516e-001  -6.4918137705e-003   1.0004598638e+000  -1.5343148572e-003   7.4385360086e-004  -3.1570325038e-004
  5.2502500000e+008  -3.1094842936e-004   6.5811226100e-004   9.9220060278e-001  -6.6176437444e-003   1.0006169705e+000  -7.2975481681e-004  -2.5275929005e-005  -4.1655790684e-004
  5.3361250000e+008   3.9030311301e-004   3.5529482881e-004   9.9285019618e-001  -8.5866672626e-003   1.0008773516e+000  -1.4178627429e-003  -2.3063574661e-004  -5.4391703806e-004
  5.4220000000e+008   7.1353330660e-004   2.5266593863e-005   9.9255448733e-001  -7.7686343486e-003   1.0011106235e+000  -1.8628028654e-003  -1.0082122639e-003  -3.8367194752e-004
  5.5078750000e+008   5.6800347487e-004  -6.1210429798e-004   9.9132164725e-001  -8.5744233708e-003   9.9996238892e-001  -2.0914650292e-003  -9.9443482017e-004  -1.9558808828e-004
  5.5937500000e+008   4.9488413017e-004  -7.1936466870e-004   9.9037474908e-001  -7.1794939602e-003   1.0003093590e+000  -1.5250668489e-003  -1.0073260119e-003   2.3295779947e-004
  5.6796250000e+008   4.5738713464e-004  -8.4732817889e-004   9.9340701140e-001  -8.1170029138e-003   1.0005125237e+000  -1.5949315271e-003  -1.1877724852e-003   6.2016216174e-004
  5.7655000000e+008  -1.6611234769e-004  -1.1722683680e-003   9.9333325204e-001  -9.6856406214e-003   1.0007035269e+000  -1.8313778555e-003  -8.8158752066e-004   9.2675050095e-004
  5.8513750000e+008  -4.1990859901e-004  -9.9910591961e-004   9.9189065246e-001  -7.6283507882e-003   9.9979611459e-001  -1.9292695385e-003  -5.9241227251e-004   1.0909909760e-003
  5.9372500000e+008  -5.4320264446e-004  -7.9028194103e-004   9.8985139852e-001  -7.3409759725e-003   9.9980423400e-001  -2.0857853621e-003  -5.1163578721e-004   1.0757714657e-003
  6.0231250000e+008  -1.0391385152e-003  -5.8861965147e-004   9.9183911131e-001  -8.1017233842e-003   1.0005281702e+000  -2.0035692513e-003  -3.4088353926e-004   1.0203215574e-003
  6.1090000000e+008  -8.6891402003e-004  -3.4150318229e-004   9.9300979553e-001  -9.1935511025e-003   1.0000288386e+000  -1.4571851046e-003  -2.0295450787e-004   9.1866349990e-004
  6.1948750000e+008  -1.0347284219e-003  -9.3413630824e-006   9.9113745290e-001  -6.7030457835e-003   9.9974995369e-001  -1.2090683795e-003  -1.6433442840e-004   6.6203933609e-004
  6.2807500000e+008  -7.7969026138e-004   7.2602794829e-005   9.9211803492e-001  -8.2080768101e-003   1.0002910381e+000  -2.0112215164e-003   2.3424325817e-004   4.2415020181e-004
  6.3666250000e+008  -5.8056635203e-004   5.2610420108e-004   9.9235728209e-001  -7.6311208464e-003   1.0002836520e+000  -1.9557924640e-003   2.5311772360e-004   3.1030483238e-004
  6.4525000000e+008  -9.9160358507e-005   4.5263076434e-004   9.9123185749e-001  -7.1210036251e-003   1.0001012933e+000  -2.4328875220e-003   3.8752884120e-004  -4.9991132131e-005
  6.5383750000e+008   2.3869798034e-004   4.0149748114e-004   9.9384546238e-001  -6.5702658240e-003   9.9961523683e-001  -1.2707377999e-003   5.2581119121e-004  -3.7833806933e-004
  6.6242500000e+008   4.1984402799e-004   1.2065239438e-004   9.9121796593e-001  -8.4243332613e-003   1.0011795094e+000  -2.2628623752e-003   2.8695036234e-004  -5.8995600205e-004
  6.7101250000e+008   6.0012283917e-004  -1.2080616849e-004   9.9112360362e-001  -7.4424070161e-003   1.0000891354e+000  -1.1679853276e-003   1.6009405560e-004  -8.6384783372e-004
  6.7960000000e+008   7.9491630626e-004  -5.5154669996e-004   9.9088473685e-001  -7.8873460019e-003   9.9965194426e-001  -2.0858830310e-003   2.0024897750e-006  -1.0910946057e-003
  6.8818750000e+008   2.6883065302e-004  -9.2166103765e-004   9.9062743964e-001  -8.0960450440e-003   1.0001793203e+000  -2.4742637688e-003  -8.0224151092e-005  -1.3171792579e-003
  6.9677500000e+008   2.3285851545e-004  -9.5737080526e-004   9.9224242711e-001  -7.3548575751e-003   1.0002287518e+000  -2.0287503974e-003  -3.9137255253e-004  -1.1872439419e-003
  7.0536250000e+008  -2.6776029810e-004  -1.0651139806e-003   9.9037126311e-001  -7.6133220206e-003   9.9975244933e-001  -2.8615886509e-003  -5.4786552300e-004  -1.4433728013e-003
  7.1395000000e+008  -7.1230376277e-004  -1.1546268704e-003   9.9142895105e-001  -8.4552597865e-003   1.0000957788e+000  -2.3515668398e-003  -7.7715094315e-004  -1.2645855809e-003
  7.2253750000e+008  -1.0733448056e-003  -9.8937153512e-004   9.9050560677e-001  -9.3994422480e-003   9.9979693444e-001  -2.4023373686e-003  -1.0074921569e-003  -1.2865805330e-003
  7.3112500000e+008  -1.0561704049e-003  -5.6263407643e-004   9.9049629585e-001  -8.6523498996e-003   9.9959714247e-001  -1.5291228204e-003  -1.0151272441e-003  -9.5776670239e-004
  7.3971250000e+008  -1.0917887377e-003  -4.0924919147e-005   9.9103291719e-001  -8.1957243119e-003   9.9951116817e-001  -2.3528637887e-003  -1.2511793936e-003  -6.2488739695e-004
  7.4830000000e+008  -1.0058025841e-003   3.9627446043e-004   9.9091092983e-001  -7.5527022512e-003   9.9960079279e-001  -1.6504126596e-003  -1.0234922864e-003  -5.1517396585e-004
  7.5688750000e+008  -8.7127435070e-004   5.8234647576e-004   9.9149220814e-001  -8.1164384785e-003   9.9905894274e-001  -3.2297408977e-003  -1.3591676703e-003  -8.2129196999e-005
  7.6547500000e+008  -3.1646058254e-004   7.9874981432e-004   9.9133848952e-001  -9.9413968049e-003   9.9995053405e-001  -2.4191151489e-003  -1.1967976660e-003   1.5745373739e-004
  7.7406250000e+008   7.2823639726e-005   1.0608440575e-003   9.9020535816e-001  -9.2821205404e-003   9.9967202356e-001  -2.3584495055e-003  -7.4537631885e-004   4.1427915634e-004
  7.8265000000e+008   2.3473083052e-004   6.7831639978e-004   9.9050247377e-001  -8.2570769895e-003   9.9989190193e-001  -2.0609130919e-003  -7.0600267509e-004   7.4923547710e-004
  7.9123750000e+008   6.9352400251e-004   4.7723622225e-004   9.9102754378e-001  -8.2906403039e-003   9.9985417872e-001  -1.4560000692e-003  -5.5468046464e-004   6.0650600787e-004
  7.9982500000e+008   7.5141155847e-004   3.2796514438e-004   9.9162607115e-001  -7.3036585682e-003   1.0005449497e+000  -1.2743055904e-003  -3.8568643303e-004   7.2614916637e-004
  8.0841250000e+008   1.1336685196e-003   2.5174215201e-005   9.9187040604e-001  -9.7525087916e-003   9.9914823695e-001  -1.5683552907e-003  -4.0092904105e-004   9.4861160429e-004
  8.1700000000e+008   1.1061149851e-003  -2.3461030125e-004   9.9024316094e-001  -8.2524544478e-003   9.9988429886e-001  -1.6918709282e-003  -1.6197697102e-004   8.6231183690e-004
  8.2558750000e+008   1.2548101651e-003  -6.9721896434e-004   9.9124535231e-001  -8.0946424857e-003   1.0006444676e+000  -2.5534443581e-003  -2.8510781697e-004   1.0210561970e-003
  8.3417500000e+008   9.6420542251e-004  -1.1407739696e-003   9.9138533735e-001  -8.3721530170e-003   1.0005005069e+000  -2.6056941583e-003  -4.3359870786e-005   1.1341405814e-003
  8.4276250000e+008   5.0377110547e-004  -1.2586804613e-003   9.8895492576e-001  -8.5018284925e-003   1.0001003337e+000  -3.2243048266e-003   9.8111227945e-005   1.0346062191e-003
  8.5135000000e+008   1.1943255132e-004  -1.2909835190e-003   9.9241938109e-001  -7.5796296811e-003   1.0007458884e+000  -2.8227901040e-003   2.7079676820e-004   1.1340254243e-003
  8.5993750000e+008  -1.7328517355e-004  -1.3291369227e-003   9.9086785245e-001  -8.6093533780e-003   1.0003405878e+000  -3.1307428188e-003   2.8836382660e-004   1.0177095411e-003
  8.6852500000e+008  -5.0307573583e-004  -9.1203737056e-004   9.8928833665e-001  -8.4788585995e-003   1.0000090881e+000  -2.1386303790e-003   5.3729391342e-004   6.8755414111e-004
  8.7711250000e+008  -4.4928047608e-004  -5.7618112666e-004   9.8977568847e-001  -8.7179763821e-003   1.0007890733e+000  -2.8526919072e-003   4.5770661799e-004   2.1519322775e-004
  8.8570000000e+008  -3.8549994668e-004  -4.3589030895e-004   9.9163416154e-001  -8.5922361089e-003   1.0000698966e+000  -2.4993056191e-003   3.8126707319e-004   8.1980692112e-005
  8.9428750000e+008  -2.5427424090e-004  -2.6160103390e-004   9.9088494885e-001  -1.0409742423e-002   9.9953200530e-001  -3.2087677807e-003  -8.7694438731e-005  -4.3710203230e-004
  9.0287500000e+008  -3.5223946728e-005  -2.8511689495e-004   9.9187032022e-001  -9.5267473818e-003   9.9982611071e-001  -2.9315184927e-003  -2.4427093667e-004  -2.8654943754e-004
  9.1146250000e+008   2.9751462703e-004  -2.0469252035e-004   9.9072982117e-001  -9.5287697266e-003   9.9940072375e-001  -2.8422242315e-003  -5.5927145815e-004  -3.8569145601e-004
  9.2005000000e+008   2.0759931695e-004  -4.4300640738e-004   9.9034711351e-001  -7.4405142389e-003   9.9879904437e-001  -1.8708622245e-003  -6.9875990100e-004  -3.4895080858e-004
  9.2863750000e+008   3.9255654680e-004  -6.1873729213e-004   9.9132888821e-001  -7.0639484674e-003   9.9922803756e-001  -3.6795107775e-003  -8.8279402503e-004  -5.4666982346e-004
  9.3722500000e+008   3.6381215362e-004  -9.9288893328e-004   9.9048967370e-001  -8.6111425657e-003   9.9829666378e-001  -3.5623637553e-003  -1.1351941870e-003  -6.0140839486e-004
  9.4581250000e+008   3.2905084486e-004  -1.1143833095e-003   9.9007651787e-001  -7.2165815687e-003   9.9867837406e-001  -2.7627414465e-003  -1.3608919603e-003  -3.4679254050e-004
  9.5440000000e+008   3.8983665118e-005  -1.2616305482e-003   9.9025204595e-001  -8.7801287224e-003   1.0006883441e+000  -2.4330546960e-003  -1.4205071455e-003  -2.8876365220e-004
  9.6298750000e+008  -3.4338976992e-004  -1.3936001666e-003   9.9179196525e-001  -7.2835908527e-003   1.0007181576e+000  -2.8639197567e-003  -1.5493611115e-003   7.4331167799e-005
  9.7157500000e+008  -6.5238760003e-004  -1.2998760765e-003   9.9058916724e-001  -9.1538389442e-003   1.0006514522e+000  -3.1872848571e-003  -1.3275326357e-003   4.7322946629e-005
  9.8016250000e+008  -8.9172107929e-004  -9.9909918717e-004   9.9115215650e-001  -9.1019365331e-003   9.9984979540e-001  -2.9943097210e-003  -1.1833808395e-003   1.7311969051e-004
  9.8875000000e+008  -1.1428604256e-003  -6.6504493813e-004   9.8889231598e-001  -8.0227952721e-003   9.9955011758e-001  -2.4359569152e-003  -1.1232487284e-003   3.0431429288e-004
  9.9733750000e+008  -1.1187857509e-003  -4.4695476826e-004   9.8971892803e-001  -1.0076396914e-002   1.0002093714e+000  -1.9790412503e-003  -1.0297274436e-003   1.3083120276e-004
  1.0059250000e+009  -9.8068485367e-004  -3.0150067400e-005   9.9059342972e-001  -9.4761041951e-003   1.0001449543e+000  -2.5514605148e-003  -7.4120056503e-004   1.7804628690e-004
  1.0145125000e+009  -7.8594969003e-004   4.1900716954e-004   9.8966528008e-001  -1.1760197281e-002   1.0003352027e+000  -2.1128227235e-003  -2.9034877261e-004   4.6243213655e-005
  1.0231000000e+009  -5.3153738119e-004   4.7477695768e-004   9.8987452937e-001  -8.0824485964e-003   9.9971077059e-001  -2.5858283272e-003  -1.3947433115e-004   1.7424726651e-005
  1.0316875000e+009  -1.5334184357e-004   7.6706964691e-004   9.8975534889e-001  -9.0683260233e-003   9.9909203797e-001  -3.1903663346e-003   1.4485604296e-004  -1.1331009543e-004
  1.0402750000e+009   1.6128994406e-004   7.7560384556e-004   9.8874727183e-001  -9.5165128163e-003   9.9921126596e-001  -2.2018675487e-003   4.7025020981e-004  -3.8764526313e-004
  1.0488625000e+009   4.6002997821e-004   5.0560298192e-004   9.9051789107e-001  -8.2000972123e-003   9.9887480049e-001  -3.2618180375e-003   6.1653721771e-004  -5.7585976310e-004
  1.0574500000e+009   7.3648118300e-004   2.5434752534e-004   9.8965819955e-001  -9.1071099462e-003   9.9912781818e-001  -2.8416677269e-003   4.7878045562e-004  -6.3699957451e-004
