# Hz S RI R 50.000000
! Metas.Vna.Tools, 2.8.8664.20301
! Metas.Vna.Data, 2.8.8664.20285
! Created: UTC 2024.02.11 10:08:49
! FREQ                re:S1,1             im:S1,1             re:S2,1             im:S2,1             re:S1,2             im:S1,2             re:S2,2             im:S2,2          
  1.3000000000e+008  -1.1244985527e-004  -1.4294048763e-003   9.8978548708e-001  -7.1677812029e-003   1.0006761270e+000   3.9081343082e-004   1.6249085410e-003   6.0833276649e-004
  1.3858750000e+008  -8.7784638425e-004  -1.2296025476e-003   9.9203676809e-001  -6.1597577022e-003   9.9996741935e-001   1.3583731722e-003   1.0549433010e-003  -3.5047397714e-004
  1.4717500000e+008  -1.5002905003e-003  -1.6063998565e-003   9.9178379007e-001  -7.3492541162e-003   1.0003485538e+000   6.0337985678e-004   8.8823434673e-004  -3.2210193779e-004
  1.5576250000e+008  -1.3726506289e-003  -1.0264831714e-004   9.9094009006e-001  -6.5197839271e-003   1.0004848468e+000   4.5344496839e-004   1.6598870832e-003  -7.6360144437e-004
  1.6435000000e+008  -8.6710191160e-004   6.6557788745e-004   9.9246409967e-001  -5.7163910329e-003   1.0006088348e+000  -4.0003563576e-005   5.7943636165e-004  -1.0915910430e-004
  1.7293750000e+008  -8.1519022238e-004   3.8486848003e-004   9.9270147371e-001  -6.2631924322e-003   1.0003217964e+000   6.2414083958e-004   8.7255763758e-004  -1.0124978116e-003
  1.8152500000e+008  -2.4444068529e-004   6.9737762607e-004   9.9114346606e-001  -6.3296372236e-003   1.0000913711e+000   4.1302308896e-005   7.1237302487e-004  -4.9719572401e-004
  1.9011250000e+008  -6.5714090307e-004   6.6904736470e-004   9.9336622215e-001  -7.9995518047e-003   1.0010150747e+000  -2.9209952415e-004   2.7453290314e-004  -1.0322513102e-003
  1.9870000000e+008  -5.3417561997e-004   8.5917869197e-004   9.9204321238e-001  -7.2561041683e-003   1.0007881243e+000  -2.4323393151e-004   2.4076945033e-004  -5.4684347964e-004
  2.0728750000e+008   4.6343568287e-004   3.1497025127e-004   9.9129360586e-001  -5.9401003021e-003   1.0011719981e+000  -8.2904543597e-004   3.0975811359e-004  -5.3082424463e-004
  2.1587500000e+008   1.4577168185e-004  -6.7432620695e-004   9.9167462536e-001  -5.9474735621e-003   9.9957174536e-001  -2.2571630177e-005  -3.2127091526e-004  -1.1786493441e-004
  2.2446250000e+008   3.4647606277e-004  -6.7364244971e-004   9.9084275878e-001  -7.6016324668e-003   1.0004493262e+000  -3.1044383791e-004  -1.7535052459e-004   7.2048699002e-005
  2.3305000000e+008  -2.5366377421e-004  -5.1481937517e-005   9.9123231398e-001  -6.7809948377e-003   1.0004558934e+000   3.2184887078e-005  -2.1217907471e-004  -1.8228042974e-005
  2.4163750000e+008  -6.5529636274e-004  -4.4326747588e-004   9.9096611362e-001  -8.0509430694e-003   1.0001126968e+000  -8.2433461073e-004  -6.5301984099e-004   2.6919674642e-004
  2.5022500000e+008  -3.8716327787e-004  -4.3992287897e-004   9.9209423174e-001  -6.5731901797e-003   1.0003484310e+000   3.1651933500e-005  -8.1830478230e-004   8.4258935600e-004
  2.5881250000e+008  -5.9481403444e-004  -6.2003647757e-004   9.9068375385e-001  -6.2516823317e-003   1.0006986125e+000  -8.4154829572e-004  -6.1738252075e-004   8.8244262741e-004
  2.6740000000e+008  -5.7894463244e-004  -2.7373220007e-004   9.8984620849e-001  -8.8082699270e-003   1.0009748740e+000  -6.5403568675e-004  -6.3386806987e-004   4.9862467339e-004
  2.7598750000e+008  -3.8704544526e-004  -2.5963775789e-004   9.8936997105e-001  -8.1809418824e-003   1.0009501013e+000  -8.2154082547e-004  -4.2365995340e-004   7.5172690181e-004
  2.8457500000e+008  -6.5851046613e-004  -5.5639456944e-004   9.9033772404e-001  -7.4179228239e-003   1.0005373224e+000   1.8874458007e-004  -5.3051120700e-004   9.6401641651e-004
  2.9316250000e+008  -3.6247150290e-004  -5.9075778225e-004   9.9102115031e-001  -6.0474267330e-003   1.0002244526e+000  -7.7003818499e-004  -2.3299075719e-004   4.8904915811e-004
  3.0175000000e+008  -8.6357440032e-004   2.5960362052e-004   9.8922450415e-001  -9.2657556143e-003   1.0004928321e+000   9.6976546808e-005  -4.7413151402e-004   3.9394619323e-004
  3.1033750000e+008  -1.1246298538e-003  -1.0880088251e-004   9.9054680734e-001  -7.4732899579e-003   1.0017670585e+000  -8.9944317536e-004  -7.1227333578e-004   6.4652236818e-004
  3.1892500000e+008  -7.9033989061e-004  -1.2702445923e-004   9.8807806280e-001  -8.1770942798e-003   1.0008158769e+000  -1.3915703307e-004  -6.1960750151e-004   1.5783505292e-004
  3.2751250000e+008  -7.4246899651e-004   1.2165171426e-005   9.9048365414e-001  -7.5874709652e-003   1.0001115787e+000  -1.1893877006e-003  -6.1591533946e-004   6.9733884209e-005
  3.3610000000e+008  -8.4512049480e-004   2.1795709129e-004   9.9018900824e-001  -6.6515559543e-003   1.0009850208e+000  -6.3843961954e-004  -6.5418475618e-004   2.3919041666e-004
  3.4468750000e+008  -8.7041513253e-004   9.9042461231e-005   9.8758094830e-001  -7.8216266915e-003   1.0008732528e+000  -5.8595228192e-004  -4.1596603077e-004   1.6106373878e-004
  3.5327500000e+008  -6.6991611055e-004   1.6003821744e-004   9.8792645005e-001  -1.1290253170e-002   9.9943783948e-001  -1.3679536022e-003  -6.5182658935e-004  -1.2394569188e-005
  3.6186250000e+008  -4.4867327761e-004   2.4341286657e-004   9.8776868421e-001  -9.1828895784e-003   1.0008352367e+000  -3.9393288497e-004  -8.3098155161e-004   3.0894455367e-004
  3.7045000000e+008  -6.3300916723e-004   5.2708470573e-004   9.8308384104e-001  -1.0631503519e-002   1.0005116009e+000  -7.5280947467e-004  -7.9326593122e-004   2.9245280849e-004
  3.7903750000e+008  -5.6412582618e-004   6.2472258536e-004   9.8257738382e-001  -1.0614005095e-002   1.0001660822e+000  -6.5632340177e-004  -7.3440019083e-004   8.3739325011e-005
  3.8762500000e+008  -2.8949479220e-004   5.3109020728e-004   9.8398712277e-001  -1.0019852799e-002   1.0003369268e+000  -6.2505152035e-004  -5.4108080264e-004   4.9328679306e-004
  3.9621250000e+008  -7.2992229276e-005   5.1414598057e-004   9.8350775773e-001  -9.9846343340e-003   1.0002814354e+000  -1.3982524338e-003  -8.2064051990e-004   2.9757413911e-004
  4.0480000000e+008   5.3733979583e-004   2.8235643345e-004   9.8610203125e-001  -1.0529357406e-002   1.0004885408e+000  -8.2756741540e-004  -2.0622173814e-004   3.8041528770e-004
  4.1338750000e+008   3.4554651078e-004   1.7045803815e-004   9.8795908399e-001  -7.6526969385e-003   1.0011251872e+000  -7.1482755805e-004  -5.0405800826e-005   4.7615320044e-004
  4.2197500000e+008  -6.7353584841e-006  -1.3861391364e-004   9.8838632059e-001  -8.7413143803e-003   1.0006673258e+000  -6.1828294102e-004   1.1177617570e-004   7.6769714662e-004
  4.3056250000e+008   4.2944566989e-004  -1.6511502001e-005   9.9217853548e-001  -7.5665976279e-003   1.0005849129e+000  -1.1817469663e-003   2.3257538759e-004   3.8392121299e-004
  4.3915000000e+008   1.5824520806e-004  -3.5301185479e-004   9.9412855606e-001  -6.7210514640e-003   1.0005081406e+000  -1.1166856905e-003   5.0804159930e-004   8.5614736658e-005
  4.4773750000e+008   2.5770257276e-004  -3.8804975978e-004   9.9264992451e-001  -7.6524442861e-003   1.0005230179e+000  -1.7470486845e-003   5.5554405612e-004   3.1495494614e-004
  4.5632500000e+008  -2.1632794053e-004  -4.9447127560e-004   9.8946323320e-001  -7.3948286197e-003   1.0002833296e+000  -1.3244707676e-003   5.9903173834e-004   2.1287379347e-004
  4.6491250000e+008  -5.0492435194e-004  -2.5150750748e-004   9.9260806017e-001  -7.4478065182e-003   9.9988566386e-001  -1.4391102974e-003   5.5477872466e-004   2.1641028408e-004
  4.7350000000e+008  -3.9037044958e-004  -3.2803614545e-004   9.9157879292e-001  -8.0931278564e-003   1.0003199933e+000  -1.2249632229e-003   6.2720069588e-004   1.6674971091e-004
  4.8208750000e+008  -5.0924530231e-004  -3.5871971254e-006   9.8925665300e-001  -8.6624530548e-003   9.9967321822e-001  -1.0265580996e-003   7.7028671831e-004   9.9233960648e-005
  4.9067500000e+008   5.5958602546e-005  -3.4655387169e-004   9.8951569003e-001  -7.8329743597e-003   9.9999208691e-001  -1.4084883800e-003   4.7806660358e-004  -2.5810373414e-004
  4.9926250000e+008  -2.4060581546e-004  -4.1134788859e-004   9.8862917575e-001  -7.3061198448e-003   1.0000712221e+000  -1.2065150951e-003   5.6029673736e-004  -1.2743688362e-004
  5.0785000000e+008  -4.5469653906e-004  -8.9294132248e-005   9.8897114802e-001  -7.6358818913e-003   9.9995618687e-001  -6.5556234992e-004   5.2444930649e-004   1.3638981328e-004
  5.1643750000e+008  -3.3475837154e-004   1.8000594437e-004   9.8620581626e-001  -8.1204609468e-003   1.0003624532e+000  -9.1127417326e-004   5.3374056116e-004  -2.2908638361e-005
  5.2502500000e+008  -1.9201982408e-004   3.8497596068e-004   9.8666821470e-001  -8.0329682408e-003   1.0007764380e+000  -9.3101480418e-004   1.5796025268e-004  -3.8445913317e-004
  5.3361250000e+008   3.7738126467e-004   2.4031968027e-004   9.8690566541e-001  -9.4689771788e-003   1.0001790535e+000  -8.0333388363e-004  -9.2832970554e-005  -5.1042295397e-004
  5.4220000000e+008   6.7556447791e-004   1.0135485931e-004   9.8740917145e-001  -8.6348645274e-003   1.0006449477e+000  -9.4709112320e-004  -9.4848762103e-004  -2.4992609723e-004
  5.5078750000e+008   5.0595973635e-004  -6.4266384079e-004   9.8594238982e-001  -1.1570196559e-002   1.0000973726e+000  -1.6858715597e-003  -7.0960118917e-004  -9.2864733872e-005
  5.5937500000e+008   4.8624463600e-004  -5.2956099281e-004   9.8478675093e-001  -8.9059832628e-003   1.0001429606e+000  -1.5942195153e-003  -1.1311660601e-003   1.9439131493e-004
  5.6796250000e+008   4.0917152649e-004  -8.4947046455e-004   9.8696772110e-001  -1.0243472315e-002   1.0001305763e+000  -1.1761139528e-003  -1.0441499208e-003   4.4283351381e-004
  5.7655000000e+008  -1.4338009373e-004  -1.0877934510e-003   9.8595646965e-001  -1.0510432727e-002   1.0005074961e+000  -2.1603509633e-003  -8.3030131914e-004   6.7304676123e-004
  5.8513750000e+008  -5.1409370087e-004  -8.7926661356e-004   9.8592470681e-001  -1.0229047467e-002   9.9974313826e-001  -1.8104551387e-003  -8.9727235365e-004   9.1474199868e-004
  5.9372500000e+008  -6.1181410684e-004  -9.5474604909e-004   9.8438498799e-001  -9.7597359073e-003   1.0007034367e+000  -2.3431893185e-003  -6.2762433165e-004   9.8050414317e-004
  6.0231250000e+008  -9.5989905953e-004  -6.7169911938e-004   9.8019965061e-001  -1.0079159909e-002   9.9995313467e-001  -1.1343172550e-003  -3.8638126299e-004   1.0233384518e-003
  6.1090000000e+008  -1.0756593073e-003  -3.7676688560e-004   9.8142813705e-001  -1.2146693555e-002   1.0003063803e+000  -1.2931489394e-003  -3.2746204183e-004   8.9795350158e-004
  6.1948750000e+008  -1.0227089186e-003  -8.6468308060e-005   9.8413007762e-001  -9.4969710544e-003   9.9935119479e-001  -1.5793757068e-003  -3.8627040027e-004   7.9650640206e-004
  6.2807500000e+008  -8.3176223722e-004   5.2596726977e-007   9.8574176004e-001  -1.1491896862e-002   1.0004367335e+000  -1.4099450259e-003   3.3335317884e-006   4.3821907082e-004
  6.3666250000e+008  -4.4855956177e-004   5.3386280739e-004   9.8548446196e-001  -1.0728758792e-002   9.9984410977e-001  -1.7742942466e-003   9.4870422085e-005   3.8988201479e-004
  6.4525000000e+008  -1.0314989149e-004   5.6193773099e-004   9.8512679871e-001  -8.3802365508e-003   1.0002324680e+000  -1.6607209650e-003   1.9229488169e-004  -3.0775540837e-005
  6.5383750000e+008   1.1226100854e-004   4.6768290732e-004   9.8466352585e-001  -9.4694006753e-003   9.9972126244e-001  -1.4136582785e-003   3.6283040071e-004  -2.8629949302e-004
  6.6242500000e+008   3.9545888989e-004   3.2390260103e-004   9.7964254277e-001  -1.1977634643e-002   1.0006831920e+000  -2.3276531087e-003   2.9438875101e-004  -3.2064296850e-004
  6.7101250000e+008   6.5058429957e-004  -5.6063310989e-005   9.7972269682e-001  -1.0980611901e-002   1.0001126137e+000  -1.0527152358e-003   1.8244996375e-004  -7.6794109886e-004
  6.7960000000e+008   8.2726952004e-004  -4.9211262037e-004   9.8012168118e-001  -1.2192673805e-002   1.0002329266e+000  -2.1652932079e-003   1.7513305452e-004  -1.0908130085e-003
  6.8818750000e+008   5.0698364514e-004  -8.9755802702e-004   9.8099826792e-001  -1.0920013276e-002   9.9994488265e-001  -1.8977682551e-003   4.6269389397e-005  -1.1247671044e-003
  6.9677500000e+008   3.5158004643e-004  -1.2185819922e-003   9.8172233370e-001  -1.0743920268e-002   1.0001298070e+000  -1.7063987757e-003  -2.7996170081e-004  -1.0207350498e-003
  7.0536250000e+008  -1.8354785102e-004  -1.3177519377e-003   9.8000107328e-001  -1.1609609043e-002   1.0003000215e+000  -1.7795581430e-003  -4.2011134931e-004  -1.3288059131e-003
  7.1395000000e+008  -5.3972932873e-004  -1.2472711333e-003   9.7817961051e-001  -1.2094224247e-002   1.0000496588e+000  -1.6902844233e-003  -8.1549793790e-004  -1.1180510992e-003
  7.2253750000e+008  -1.0327020713e-003  -1.0294979378e-003   9.7950856929e-001  -1.1802445429e-002   9.9977191319e-001  -1.7022194018e-003  -8.8983995044e-004  -1.2002038599e-003
  7.3112500000e+008  -1.1136359254e-003  -6.1066611279e-004   9.7901361736e-001  -1.1239130171e-002   1.0001753328e+000  -2.0899865658e-003  -1.1245896505e-003  -1.0052784164e-003
  7.3971250000e+008  -1.0458273338e-003  -1.9021943358e-004   9.7930363620e-001  -1.2863518445e-002   9.9957796811e-001  -2.6291750270e-003  -1.1934128151e-003  -7.0827624098e-004
  7.4830000000e+008  -9.9533280672e-004   4.6304031333e-004   9.7989216530e-001  -1.1028213742e-002   9.9979207150e-001  -2.1815566907e-003  -1.0063368929e-003  -5.5044020461e-004
  7.5688750000e+008  -1.1123015993e-003   6.0332602408e-004   9.7800622143e-001  -1.1700285670e-002   9.9979322995e-001  -2.0739580714e-003  -1.2651095943e-003  -1.9650693530e-004
  7.6547500000e+008  -2.7517038581e-004   9.5140745659e-004   9.8319031879e-001  -1.1096283632e-002   9.9936314754e-001  -1.9870489629e-003  -1.2452502373e-003  -6.3914162200e-005
  7.7406250000e+008   4.5776503500e-005   9.2179163835e-004   9.8467682732e-001  -1.0644843169e-002   1.0001323594e+000  -1.6535682973e-003  -9.7037591368e-004   1.9339786986e-004
  7.8265000000e+008   3.2837466604e-004   5.5985123897e-004   9.8879943453e-001  -8.4321935275e-003   9.9954383445e-001  -1.6363892926e-003  -9.0173807209e-004   5.6026776920e-004
  7.9123750000e+008   7.2738392648e-004   4.8493525098e-004   9.8946730348e-001  -8.0310195774e-003   9.9967800361e-001  -1.3489379018e-003  -1.0179665976e-003   4.7985898853e-004
  7.9982500000e+008   8.3066745320e-004   3.3388237692e-004   9.8884480537e-001  -9.0227584842e-003   1.0003705674e+000  -1.2520626624e-003  -7.0234611976e-004   7.6186866138e-004
  8.0841250000e+008   1.1362137602e-003   6.5615680510e-006   9.8762456917e-001  -9.8566444454e-003   1.0001000051e+000  -1.5468260122e-003  -6.8134161335e-004   8.6929455991e-004
  8.1700000000e+008   1.1112732545e-003  -4.7217523802e-004   9.8984382886e-001  -9.1724433223e-003   9.9988779242e-001  -1.8025625743e-003  -5.8164473201e-004   1.1688291113e-003
  8.2558750000e+008   1.1329450875e-003  -7.2988149484e-004   9.9020635686e-001  -8.4286851032e-003   1.0006519208e+000  -2.1125081947e-003  -5.7108685654e-004   1.3015881691e-003
  8.3417500000e+008   9.5817748867e-004  -1.1005474089e-003   9.9012769810e-001  -8.8287465883e-003   1.0009420544e+000  -1.2679181099e-003  -2.6377722215e-004   1.4905585039e-003
  8.4276250000e+008   4.3891636886e-004  -1.2903731715e-003   9.8782019594e-001  -9.5269571431e-003   9.9960565880e-001  -1.8374832972e-003   1.0521906775e-004   1.4385496737e-003
  8.5135000000e+008  -1.2866820138e-004  -1.3527826784e-003   9.8935882537e-001  -8.3017201986e-003   1.0004533440e+000  -2.3108270491e-003   3.2445750934e-004   1.3799260351e-003
  8.5993750000e+008  -2.8676861854e-004  -1.2009809333e-003   9.8540151107e-001  -9.4205198065e-003   9.9988201638e-001  -3.6460531691e-003   4.3137075680e-004   9.7016139535e-004
  8.6852500000e+008  -5.3058710683e-004  -7.6263148773e-004   9.8386592499e-001  -1.1058826036e-002   9.9920254452e-001  -1.7182673870e-003   5.5175000816e-004   6.7022815338e-004
  8.7711250000e+008  -4.6535749253e-004  -5.7076231369e-004   9.8701628699e-001  -1.0104256404e-002   9.9956153072e-001  -2.6810329881e-003   4.9946416909e-004   2.6406557506e-004
  8.8570000000e+008  -3.4888295851e-004  -4.0891163987e-004   9.8779584328e-001  -8.2993835233e-003   9.9956664128e-001  -2.8739057540e-003   3.0524996779e-004   1.0188463507e-004
  8.9428750000e+008  -1.9702588192e-004  -2.5784548079e-004   9.8846182628e-001  -8.7736973520e-003   1.0002851340e+000  -2.8317377051e-003   1.4435673520e-004  -2.8785113500e-004
  9.0287500000e+008   1.8587847453e-004  -2.1998982614e-004   9.9043845569e-001  -9.0991214002e-003   9.9970412783e-001  -2.1639158856e-003   1.6047421443e-005  -2.7116456866e-004
  9.1146250000e+008   3.9228357235e-004  -1.5661489871e-004   9.8771702266e-001  -9.0154273602e-003   9.9863357007e-001  -2.8173360843e-003  -4.8197711233e-004  -2.8137346444e-004
  9.2005000000e+008   3.7301726153e-004  -4.3617316019e-004   9.8944279757e-001  -7.4308844385e-003   9.9900999249e-001  -1.9025434534e-003  -7.3721303422e-004  -6.5957965524e-004
  9.2863750000e+008   3.9822387133e-004  -6.2146374626e-004   9.8918472555e-001  -9.2583340385e-003   1.0000427825e+000  -3.7795154781e-003  -8.6185909559e-004  -5.0611125941e-004
  9.3722500000e+008   3.6862107280e-004  -9.6264034631e-004   9.8950393183e-001  -8.0401536682e-003   9.9914242429e-001  -2.7803002744e-003  -1.1788472971e-003  -6.8488668263e-004
  9.4581250000e+008   3.7396352608e-004  -1.0948236705e-003   9.8982956826e-001  -8.0186941498e-003   1.0000073427e+000  -2.5243557762e-003  -1.3005997320e-003  -5.0246713529e-004
  9.5440000000e+008  -8.5777501873e-005  -1.2341018256e-003   9.8966303570e-001  -7.5530451646e-003   1.0001369478e+000  -2.4147496422e-003  -1.3649226750e-003  -3.6174831902e-004
  9.6298750000e+008  -4.8047725414e-004  -1.3521106408e-003   9.9106305198e-001  -8.5427547049e-003   9.9959043870e-001  -3.2790260300e-003  -1.6359940401e-003  -9.5787460994e-005
  9.7157500000e+008  -7.5720724583e-004  -1.3010580883e-003   9.9019028263e-001  -9.4215992160e-003   1.0002458183e+000  -3.4196444712e-003  -1.3930487329e-003  -9.5618793596e-005
  9.8016250000e+008  -9.0985837708e-004  -1.0236982822e-003   9.8779716678e-001  -9.9059032252e-003   9.9943889018e-001  -3.3452950338e-003  -1.3852125579e-003   2.9363346902e-005
  9.8875000000e+008  -1.1978384120e-003  -5.7706324603e-004   9.8991763537e-001  -7.7100974397e-003   9.9894372652e-001  -2.1981098621e-003  -1.3576692653e-003   2.6235697224e-004
  9.9733750000e+008  -1.1554049280e-003  -2.8853113729e-004   9.8978360320e-001  -8.6564691254e-003   9.9975515220e-001  -1.5886246582e-003  -1.0293964177e-003   1.8688811324e-005
  1.0059250000e+009  -9.0750557687e-004   5.4984605634e-005   9.8871985882e-001  -8.8346091866e-003   9.9952962595e-001  -3.1832961910e-003  -6.7757438150e-004   1.9851902732e-004
  1.0145125000e+009  -8.8052455091e-004   4.5113871928e-004   9.9002452909e-001  -1.1136956033e-002   9.9935978295e-001  -2.4824374239e-003  -4.5821050825e-004   3.0555044058e-004
  1.0231000000e+009  -5.4650344485e-004   4.9464586401e-004   9.8976477257e-001  -6.9887327751e-003   9.9996581091e-001  -2.4196716088e-003  -2.8300043059e-004   1.9696360868e-004
  1.0316875000e+009  -2.5807804216e-004   6.2494685564e-004   9.9122770086e-001  -8.9273824877e-003   9.9941413041e-001  -3.6349594519e-003   7.7124322373e-005   9.0211660682e-005
  1.0402750000e+009   2.5524627508e-004   5.9395848233e-004   9.8948534011e-001  -9.1865269477e-003   9.9993389426e-001  -2.0842373519e-003   2.8443258446e-004  -2.1654322949e-004
  1.0488625000e+009   4.5700980653e-004   4.3602129615e-004   9.8944560797e-001  -8.8699470940e-003   9.9895115039e-001  -2.3203569859e-003   5.7504316829e-004  -3.6748213350e-004
  1.0574500000e+009   6.9405611351e-004   1.3372086091e-004   9.8893478777e-001  -8.9694107030e-003   9.9955312827e-001  -2.5883488781e-003   5.1757477941e-004  -6.1167948530e-004
