# Hz S RI R 50.000000
! Metas.Vna.Tools, 2.8.8664.20301
! Metas.Vna.Data, 2.8.8664.20285
! Created: UTC 2024.02.11 10:08:15
! FREQ                re:S1,1             im:S1,1             re:S2,1             im:S2,1             re:S1,2             im:S1,2             re:S2,2             im:S2,2          
  1.3000000000e+008  -1.9371904594e-004  -1.7666389041e-003   9.9620305784e-001  -4.4740525099e-003   1.0007127496e+000  -1.2008965534e-003   1.1987725546e-003   1.0386633759e-003
  1.3858750000e+008  -3.3044971802e-004  -1.1678536491e-003   9.9783531456e-001  -5.1632892258e-003   1.0007796902e+000  -7.0921417345e-004   1.4915687427e-003  -3.5118957903e-004
  1.4717500000e+008  -1.6764206545e-003  -1.2520680843e-003   9.9884843710e-001  -5.5303927436e-003   1.0000337138e+000  -1.2533009207e-003   8.8014583999e-004  -1.6027029231e-004
  1.5576250000e+008  -1.1768294343e-003   3.0089799324e-005   9.9838831897e-001  -4.4399568503e-003   1.0002524459e+000  -8.1958683150e-004   8.8680575442e-004  -1.0029239266e-003
  1.6435000000e+008  -1.1788117483e-003   3.8347168366e-004   9.9753875362e-001  -3.6154177375e-003   1.0004711436e+000  -1.2600910725e-003   7.2276058195e-004  -2.5592021880e-004
  1.7293750000e+008  -9.3173844455e-004   5.1051099359e-004   9.9736325441e-001  -4.0963011848e-003   1.0003018325e+000  -9.2158915005e-004   5.7803026377e-004  -3.4176597371e-004
  1.8152500000e+008  -2.6776999621e-004   4.6206026828e-004   9.9746078882e-001  -5.0665808367e-003   9.9991607660e-001  -1.6610786018e-003   4.1396904822e-004  -3.6083562907e-004
  1.9011250000e+008  -8.6669141510e-004   6.9032793791e-004   9.9977010977e-001  -5.5490349359e-003   1.0013237666e+000  -1.3474803203e-003   3.5886533548e-004  -7.6517552792e-004
  1.9870000000e+008  -2.2934591637e-004   8.5384081306e-004   9.9707475750e-001  -5.0854528685e-003   1.0002553230e+000  -1.5098642516e-003  -2.3908885054e-005  -2.9474456861e-004
  2.0728750000e+008   1.7817111213e-004   2.8372585274e-004   9.9727418360e-001  -4.1507322582e-003   1.0007487138e+000  -2.0235974444e-003   1.8116964734e-004  -1.9467735898e-004
  2.1587500000e+008   8.2607705886e-005  -3.1930848101e-004   9.9833731368e-001  -5.7502173274e-003   9.9960634646e-001  -1.1660767472e-003  -4.2404730968e-004   3.7465657004e-004
  2.2446250000e+008   3.9544400562e-004  -1.8816111167e-005   9.9796827609e-001  -4.7488566841e-003   1.0000215589e+000  -1.5599256458e-003  -2.4843791292e-004   2.0032948599e-004
  2.3305000000e+008  -2.4696805083e-004   1.3629099622e-004   9.9720704812e-001  -5.4266626825e-003   1.0007892613e+000  -1.2033990576e-003  -8.2430458461e-005   6.7731420663e-005
  2.4163750000e+008  -1.7136667438e-004  -4.6590117423e-004   9.9690978411e-001  -5.4963886021e-003   9.9984195402e-001  -1.5962520437e-003  -2.9915957349e-004   1.6159670447e-004
  2.5022500000e+008  -4.5548033270e-004  -8.4770366362e-004   9.9650307211e-001  -5.8481462498e-003   9.9967507705e-001  -1.6455733255e-003  -9.6868271962e-004   6.3920299353e-004
  2.5881250000e+008  -3.1657216447e-004  -4.9697356478e-004   9.9467115385e-001  -5.0945480041e-003   1.0000482513e+000  -2.6711188955e-003  -4.7427537260e-004   5.7263992836e-004
  2.6740000000e+008  -8.9318639715e-004  -8.1947421523e-004   9.9424986590e-001  -7.4597408653e-003   1.0005722895e+000  -2.5999219648e-003  -1.2393081003e-004   1.1496280534e-004
  2.7598750000e+008  -3.2583475678e-004  -1.7750666498e-004   9.9560951821e-001  -7.1780041339e-003   1.0000330918e+000  -2.1624103631e-003  -3.4807280459e-004   5.9408289454e-004
  2.8457500000e+008  -7.6252762564e-004  -3.0827138685e-004   9.9570099440e-001  -4.6645697734e-003   1.0002828922e+000  -1.0692370210e-003  -3.2277013567e-004   7.5714488004e-004
  2.9316250000e+008  -6.9858430593e-004  -2.6483329348e-004   9.9600630450e-001  -5.4187488071e-003   1.0003621929e+000  -2.1788180681e-003  -3.1349931492e-004   3.7020323582e-004
  3.0175000000e+008  -8.3314061936e-004   2.2556465511e-004   9.9379298948e-001  -7.4811142054e-003   1.0004924951e+000  -1.7042186774e-003  -6.5194544557e-004   1.8484859030e-004
  3.1033750000e+008  -8.1177439130e-004  -1.9508296080e-005   9.9615526497e-001  -5.1760120677e-003   1.0016716302e+000  -1.9623170079e-003  -5.6782322051e-004   6.7633531636e-004
  3.1892500000e+008  -8.2894133681e-004  -1.4598115829e-005   9.9535666732e-001  -6.2924850544e-003   1.0003054329e+000  -1.0203352161e-003  -6.6601827491e-004   1.4205814760e-004
  3.2751250000e+008  -4.5275931256e-004   2.0863893673e-004   9.9291192318e-001  -8.2315846834e-003   9.9989730230e-001  -2.2746436340e-003  -6.5573615595e-004   1.0325354922e-004
  3.3610000000e+008  -6.0784159544e-004  -5.3594305748e-006   9.9404312057e-001  -5.5114636296e-003   1.0017892391e+000  -2.2921882214e-003  -5.7463922545e-004   1.3183220885e-004
  3.4468750000e+008  -6.1402896864e-004   1.0890374704e-004   9.9545583609e-001  -6.1650039261e-003   1.0006686559e+000  -1.4060897095e-003  -4.5185954413e-004   1.8424682604e-004
  3.5327500000e+008  -7.8804378436e-004   2.7119966754e-004   9.9643092960e-001  -6.6432535252e-003   9.9975783888e-001  -2.1743575609e-003  -2.7054977569e-004   2.2974096211e-004
  3.6186250000e+008  -4.6284162395e-004   1.7873546219e-004   9.9537062142e-001  -6.3093605637e-003   1.0008967072e+000  -1.6293584689e-003  -5.4647936023e-004   4.3338885021e-004
  3.7045000000e+008  -7.5213091539e-004   3.3856962100e-004   9.9360010502e-001  -6.0729821320e-003   1.0004479993e+000  -2.8485281988e-003  -7.5848932090e-004   2.5561243283e-004
  3.7903750000e+008  -4.2722184920e-004   5.3661081037e-004   9.9260095745e-001  -6.5513187241e-003   1.0005445533e+000  -2.2259781621e-003  -5.4862041303e-004   3.4269123463e-004
  3.8762500000e+008  -3.0986452466e-004   5.3452722101e-004   9.9810697981e-001  -6.0608604713e-003   9.9952378016e-001  -1.9077170845e-003  -3.1859384523e-004   5.5223679840e-004
  3.9621250000e+008  -3.1599648258e-005   1.8819940774e-004   9.9622011503e-001  -6.4170449654e-003   1.0007496546e+000  -2.6497135452e-003  -3.7908763452e-004   5.4514085783e-004
  4.0480000000e+008  -1.6617285043e-005   2.6246324628e-004   9.9679001823e-001  -6.4939953636e-003   1.0002216829e+000  -2.2421829543e-003  -1.1555020191e-004   2.7314541833e-004
  4.1338750000e+008   8.0992169622e-005   9.3366116948e-005   9.9629491151e-001  -4.8540008199e-003   1.0008252790e+000  -2.3199853217e-003  -9.2104445348e-005   4.0844397174e-004
  4.2197500000e+008  -1.2412256748e-004  -2.3906843571e-004   9.9641068520e-001  -6.0329185921e-003   1.0003547336e+000  -2.1505782480e-003  -2.1099980431e-004   4.6086348525e-004
  4.3056250000e+008   1.5339817889e-004  -8.3882462822e-005   9.9691420481e-001  -5.6645984076e-003   1.0006508595e+000  -2.0178418685e-003   4.8064883327e-004   4.6346689907e-004
  4.3915000000e+008  -1.2161112908e-005   7.3555114411e-005   9.9764225191e-001  -4.5973155735e-003   1.0000793731e+000  -2.9170896694e-003   5.7129546344e-004   2.2110228097e-004
  4.4773750000e+008   9.6240043949e-005  -3.5622552150e-004   9.9832407563e-001  -5.3812069880e-003   1.0003023507e+000  -2.7391326498e-003   5.4895932546e-004   4.5096497107e-005
  4.5632500000e+008  -1.6878719852e-004  -3.0156149493e-004   9.9653312492e-001  -4.8305460045e-003   1.0002475539e+000  -2.7185798280e-003   5.3306246244e-004   1.2222064203e-004
  4.6491250000e+008  -4.7585305542e-004  -1.1635688609e-004   9.9737747677e-001  -6.2521946150e-003   9.9992336559e-001  -2.9306826613e-003   6.9869526283e-004  -4.9765253815e-006
  4.7350000000e+008  -4.0968737857e-004  -2.3817433198e-004   9.9629248258e-001  -5.5589065018e-003   9.9995666449e-001  -2.3067258296e-003   5.5003144883e-004  -2.4639481481e-004
  4.8208750000e+008  -4.3492159426e-004   1.3154202756e-004   9.9369299049e-001  -6.0858057994e-003   9.9961338065e-001  -2.1661145722e-003   4.0201207127e-004   9.0066990567e-005
  4.9067500000e+008  -1.4637809893e-004  -2.4944207892e-004   9.9302111257e-001  -6.6332859760e-003   9.9988501818e-001  -2.6041739683e-003   2.7784560611e-004   4.2454319386e-005
  4.9926250000e+008  -1.2582458216e-004  -3.3002967735e-004   9.9292092359e-001  -7.6718811334e-003   1.0000022781e+000  -2.3704278442e-003   3.2640642105e-004  -1.0020999426e-005
  5.0785000000e+008  -5.3052620322e-004  -4.1535092096e-004   9.9219352890e-001  -6.5742905397e-003   9.9977490034e-001  -1.9264230374e-003   4.2403552788e-004   3.6621766131e-004
  5.1643750000e+008  -7.9198529442e-004   1.1279628974e-004   9.9237736569e-001  -6.3022322057e-003   1.0006196683e+000  -2.4902057557e-003   8.1446755352e-004   9.6476000139e-005
  5.2502500000e+008  -3.8765102468e-004   4.6035777965e-004   9.9523306507e-001  -5.7695373271e-003   1.0006613074e+000  -1.8009284432e-003   3.5027866791e-004  -4.6040591259e-004
  5.3361250000e+008   2.2207595621e-004   5.0958553538e-004   9.9413058340e-001  -7.2534819697e-003   1.0006047827e+000  -2.0840143071e-003   1.0695191112e-004  -5.2447471033e-004
  5.4220000000e+008   8.6490035841e-004   1.3219883620e-004   9.9498576521e-001  -7.0976993075e-003   1.0008524281e+000  -2.4459984757e-003  -8.4652389795e-004  -3.3430784666e-004
  5.5078750000e+008   6.2326282648e-004  -4.4642045368e-004   9.9565713602e-001  -7.6824040290e-003   1.0001111543e+000  -2.9678521368e-003  -8.7210774277e-004  -2.8196858473e-004
  5.5937500000e+008   6.0862911190e-004  -8.2209267179e-004   9.9615670644e-001  -7.2989952642e-003   1.0001690085e+000  -2.7314024127e-003  -8.6253877576e-004  -5.7567580752e-005
  5.6796250000e+008   3.1984873660e-004  -8.2366492168e-004   9.9552803337e-001  -6.3670849339e-003   1.0004686185e+000  -3.2195977707e-003  -9.6749907124e-004   4.3560879946e-004
  5.7655000000e+008  -2.8795457184e-004  -9.8627945436e-004   9.9587848010e-001  -8.8824989000e-003   1.0003813922e+000  -3.5605854238e-003  -8.3499262286e-004   8.7508126906e-004
  5.8513750000e+008  -5.3006561630e-004  -8.3354008447e-004   9.9650769005e-001  -6.8182704294e-003   1.0001339437e+000  -3.0214738618e-003  -7.1387330553e-004   7.8208764728e-004
  5.9372500000e+008  -6.3430909550e-004  -8.0067023555e-004   9.9354687986e-001  -6.6049326048e-003   1.0006030606e+000  -3.7965605007e-003  -5.7467766270e-004   9.9541726797e-004
  6.0231250000e+008  -1.1293341525e-003  -5.1789818267e-004   9.9235997062e-001  -5.8107049477e-003   9.9995195667e-001  -3.1280035120e-003  -3.1990191406e-004   9.7883555535e-004
  6.1090000000e+008  -8.2443113800e-004  -3.7241125167e-004   9.9265592584e-001  -9.7530727665e-003   1.0002628553e+000  -2.9754882000e-003  -4.3217896425e-004   9.4121764393e-004
  6.1948750000e+008  -8.5194556176e-004  -9.1368337893e-005   9.9324917040e-001  -5.7252541939e-003   9.9931217031e-001  -2.8438585802e-003  -2.3960140962e-004   5.5926239408e-004
  6.2807500000e+008  -8.2914313790e-004  -5.7911003735e-005   9.9431146804e-001  -8.0465605742e-003   1.0002849706e+000  -3.0850030528e-003   1.6083837086e-004   4.8278004419e-004
  6.3666250000e+008  -4.3113114086e-004   4.4909148884e-004   9.9714871392e-001  -6.2329484093e-003   1.0004865124e+000  -3.5744689192e-003   1.7410953035e-004   2.2105591378e-004
  6.4525000000e+008  -1.0490572082e-004   4.2726565721e-004   9.9480256417e-001  -6.4524718026e-003   9.9994693715e-001  -3.4314552202e-003   3.0126706280e-004  -1.2769189940e-004
  6.5383750000e+008   1.5571538425e-004   1.4131360924e-004   9.9611328799e-001  -4.9810463089e-003   1.0002879774e+000  -2.8159435023e-003   3.8695327020e-004  -6.8422415629e-005
  6.6242500000e+008   3.6267957025e-004   1.2853083967e-004   9.9324749656e-001  -6.9273235535e-003   1.0004587946e+000  -3.7810753946e-003   3.7977833444e-004  -3.1249034903e-004
  6.7101250000e+008   3.2647103550e-004  -1.5422938278e-004   9.9460735373e-001  -5.8825407630e-003   9.9984216478e-001  -2.4648510609e-003   1.8525640390e-004  -7.5096352597e-004
  6.7960000000e+008   6.1379474956e-004  -4.4728389921e-004   9.9382726073e-001  -7.0519010611e-003   9.9984022333e-001  -2.9789008379e-003   2.8518317514e-004  -1.0172083091e-003
  6.8818750000e+008   1.4655374572e-004  -8.2627835410e-004   9.9403579200e-001  -7.1940341621e-003   1.0002777488e+000  -3.5962727574e-003   6.1344744380e-005  -1.0396535946e-003
  6.9677500000e+008   1.3408520215e-004  -9.3293055776e-004   9.9383439218e-001  -6.3808080200e-003   9.9996242874e-001  -3.1371400293e-003  -2.8890695920e-004  -1.0460203108e-003
  7.0536250000e+008  -2.5475161929e-004  -9.9695984627e-004   9.9456746198e-001  -7.1881368926e-003   1.0001335477e+000  -3.6821125856e-003  -4.3881964523e-004  -1.2381714136e-003
  7.1395000000e+008  -5.9921719515e-004  -9.9458041863e-004   9.9398840042e-001  -7.2827098734e-003   1.0002147205e+000  -3.0568610686e-003  -6.0425173294e-004  -1.2224346699e-003
  7.2253750000e+008  -9.9057071897e-004  -7.3768873911e-004   9.9220091523e-001  -6.9039592533e-003   9.9966795490e-001  -3.2392554122e-003  -7.3602057500e-004  -1.0808236005e-003
  7.3112500000e+008  -9.3018967477e-004  -4.6075060038e-004   9.9382557575e-001  -7.9529824511e-003   1.0000386960e+000  -3.1197815445e-003  -9.1721854457e-004  -9.6421694233e-004
  7.3971250000e+008  -1.0301608362e-003  -4.7440268193e-005   9.9512552832e-001  -7.8967051188e-003   9.9936346574e-001  -3.8973066222e-003  -1.1032559807e-003  -6.7489218175e-004
  7.4830000000e+008  -8.5359022024e-004   5.0066442470e-004   9.9613109762e-001  -6.0982844666e-003   9.9895848272e-001  -3.2773624418e-003  -9.7585552542e-004  -5.3135179179e-004
  7.5688750000e+008  -7.6406941385e-004   6.1420633230e-004   9.9451317038e-001  -7.1313471944e-003   9.9929838416e-001  -3.6663532923e-003  -9.9366508171e-004  -1.4194139494e-004
  7.6547500000e+008  -9.3901951275e-005   8.0249305445e-004   9.9449643190e-001  -8.1573326802e-003   9.9960844576e-001  -3.9513514790e-003  -1.1509371691e-003   9.8000698964e-005
  7.7406250000e+008   6.2702860676e-005   7.1527887113e-004   9.9495436881e-001  -7.2654610584e-003   9.9976263304e-001  -3.1198355268e-003  -7.3266408966e-004   2.5593034880e-004
  7.8265000000e+008   2.1877559090e-004   5.6164719859e-004   9.9484388845e-001  -5.9128801020e-003   1.0001853231e+000  -2.6424324118e-003  -6.6157326901e-004   6.5315072345e-004
  7.9123750000e+008   4.8602607744e-004   2.9277207820e-004   9.9540530153e-001  -5.6467040814e-003   9.9984750060e-001  -2.6167919013e-003  -4.3648197832e-004   6.0005652566e-004
  7.9982500000e+008   5.0121905039e-004   1.9293583556e-004   9.9599936225e-001  -5.7169104593e-003   9.9995192744e-001  -2.2325152929e-003  -4.3053200730e-004   6.1045085048e-004
  8.0841250000e+008   7.9197237902e-004   1.4556123734e-004   9.9472321702e-001  -7.3275668201e-003   1.0000089647e+000  -2.5544406267e-003  -2.4704627218e-004   8.2813232508e-004
  8.1700000000e+008   9.7471757124e-004  -4.9062309320e-005   9.9511196685e-001  -5.9550091732e-003   1.0000724160e+000  -2.8239626966e-003  -2.4762951294e-004   6.7422960850e-004
  8.2558750000e+008   1.1043924976e-003  -2.7663477980e-004   9.9542255444e-001  -5.3312023634e-003   1.0008898641e+000  -3.6308534779e-003  -3.5540516784e-004   8.7197686358e-004
  8.3417500000e+008   1.0822018753e-003  -7.9775778463e-004   9.9458475987e-001  -7.0366062867e-003   1.0008101776e+000  -3.8182506194e-003  -2.0736910088e-004   1.0839573370e-003
  8.4276250000e+008   6.6392126170e-004  -1.1674673282e-003   9.9203226994e-001  -7.1948540409e-003   9.9981714243e-001  -3.6296724685e-003  -2.5116687694e-005   1.1784788929e-003
  8.5135000000e+008   3.1236871419e-004  -1.3758377479e-003   9.9163812593e-001  -7.7478856377e-003   1.0014640813e+000  -3.1920852452e-003   2.4194188061e-004   1.2773570449e-003
  8.5993750000e+008  -8.4686631870e-005  -1.3274519597e-003   9.9307739479e-001  -6.8356316686e-003   1.0002399874e+000  -3.9512470393e-003   3.7574160370e-004   1.1439546134e-003
  8.6852500000e+008  -4.6901403118e-004  -1.1443888973e-003   9.9293679337e-001  -8.4361367550e-003   9.9936708113e-001  -4.1564809711e-003   6.7876737455e-004   8.7498705067e-004
  8.7711250000e+008  -5.1551408940e-004  -7.5889730247e-004   9.9351437942e-001  -7.7729604590e-003   9.9984825016e-001  -3.7785754838e-003   5.4792585484e-004   2.6154749530e-004
  8.8570000000e+008  -4.9609032901e-004  -4.5142560593e-004   9.9453120998e-001  -6.1603468631e-003   9.9952587183e-001  -4.6667779974e-003   4.6004335288e-004   1.1144811503e-004
  8.9428750000e+008  -3.6498256008e-004  -2.7040252365e-004   9.9075797733e-001  -9.0928153927e-003   1.0000947122e+000  -5.1668482199e-003   2.0649314536e-004  -2.7679490249e-004
  9.0287500000e+008  -4.6115616611e-006  -1.0560451671e-004   9.9323177303e-001  -8.1998667501e-003   9.9988954158e-001  -4.3946182827e-003  -1.7711304458e-005  -5.0143739140e-004
  9.1146250000e+008   1.2055184120e-004  -2.7857430318e-004   9.9291917724e-001  -8.2187219805e-003   9.9950046438e-001  -3.9895807214e-003  -4.1021281981e-004  -3.5432057870e-004
  9.2005000000e+008   3.3680640077e-004  -2.1328120399e-004   9.9556359892e-001  -6.6640689288e-003   9.9886690158e-001  -3.0525086119e-003  -7.0183707451e-004  -5.6113257925e-004
  9.2863750000e+008   5.2119026098e-004  -5.2146265676e-004   9.9546733890e-001  -7.1552548152e-003   9.9895532710e-001  -3.7376776614e-003  -8.5705837535e-004  -4.8727410962e-004
  9.3722500000e+008   3.4938859250e-004  -7.5198360512e-004   9.9473615266e-001  -5.4529789485e-003   9.9828676445e-001  -4.7133752681e-003  -1.1232481160e-003  -6.4186379067e-004
  9.4581250000e+008   3.2844083300e-004  -9.5015730731e-004   9.9398658858e-001  -7.6468998420e-003   9.9916652975e-001  -3.8520809636e-003  -1.3941540232e-003  -2.3868326210e-004
  9.5440000000e+008   1.1567407191e-004  -1.1720659057e-003   9.9544763145e-001  -5.7095628696e-003   9.9870062224e-001  -3.6936483940e-003  -1.3518234449e-003  -3.2675338993e-004
  9.6298750000e+008  -2.4127419008e-004  -1.2941811096e-003   9.9626874490e-001  -6.7935536233e-003   9.9971369531e-001  -4.3649647744e-003  -1.4802427250e-003  -1.0242394131e-004
  9.7157500000e+008  -5.2604996729e-004  -1.1702823707e-003   9.9748347679e-001  -7.0668193337e-003   1.0001120746e+000  -3.9810187399e-003  -1.4613233179e-003  -7.4754235124e-005
  9.8016250000e+008  -8.4211329630e-004  -9.5338708538e-004   9.9742057524e-001  -6.3332544291e-003   1.0000068434e+000  -4.9101861943e-003  -1.4333922203e-003   2.1336062624e-004
  9.8875000000e+008  -1.0754239168e-003  -7.1257531480e-004   9.9438599655e-001  -6.4694943257e-003   9.9957056395e-001  -3.9639177537e-003  -1.3261558381e-003   3.0038880827e-004
  9.9733750000e+008  -1.0421381251e-003  -3.8468821517e-004   9.9357017764e-001  -6.3899711561e-003   9.9966421131e-001  -4.0933389531e-003  -9.6994143073e-004   2.6836368574e-004
  1.0059250000e+009  -9.8855223949e-004   7.3967590371e-006   9.9639858631e-001  -6.5832643661e-003   9.9999031886e-001  -3.9461008624e-003  -6.8267105914e-004   3.1037956368e-004
  1.0145125000e+009  -9.2711803617e-004   3.9641529922e-004   9.9564199330e-001  -7.9203790726e-003   9.9963367549e-001  -4.2124735662e-003  -4.5676170380e-004   3.5912137520e-004
  1.0231000000e+009  -7.3300255301e-004   4.1755587111e-004   9.9428620571e-001  -5.8888891415e-003   9.9981772646e-001  -4.1534122836e-003  -1.5002965586e-004   4.2401591493e-004
  1.0316875000e+009  -2.8726994467e-004   8.8809605361e-004   9.9672720380e-001  -6.9045912763e-003   9.9859068512e-001  -4.4006323461e-003   9.1744342346e-005   1.1485113420e-004
  1.0402750000e+009   9.7718167225e-005   6.5652226662e-004   9.9702593695e-001  -7.0800384395e-003   9.9945431341e-001  -3.3545878133e-003   3.8178535329e-004  -5.7189896097e-005
  1.0488625000e+009   2.8679662145e-004   6.5919322762e-004   9.9954981034e-001  -6.3187328893e-003   9.9970706182e-001  -4.0578911027e-003   7.6568711376e-004  -1.0499832657e-004
  1.0574500000e+009   4.5723495337e-004   2.5098328859e-004   9.9806633737e-001  -5.3506349196e-003   9.9962517725e-001  -4.0995889658e-003   8.6723674063e-004  -4.4754702495e-004
