# Hz S RI R 50.000000
! Metas.Vna.Tools, 2.8.8664.20301
! Metas.Vna.Data, 2.8.8664.20285
! Created: UTC 2024.02.11 10:08:10
! FREQ                re:S1,1             im:S1,1             re:S2,1             im:S2,1             re:S1,2             im:S1,2             re:S2,2             im:S2,2          
  1.3000000000e+008   4.2593158610e-005  -1.0220607545e-003   9.9866393419e-001  -4.6805701910e-003   1.0003432549e+000  -2.4511240958e-003   9.8047744324e-004   8.7238497633e-004
  1.3858750000e+008  -4.7541316925e-004  -1.3904857403e-003   9.9512439697e-001  -5.1673780164e-003   1.0006627530e+000  -1.6702594911e-003   6.8648879819e-004   1.7227124725e-004
  1.4717500000e+008  -1.8032766108e-003  -1.4058429942e-003   9.9294726581e-001  -7.6379960119e-003   9.9981959608e-001  -1.4555064188e-003   6.0780136867e-004   1.3702372712e-004
  1.5576250000e+008  -1.1696603067e-003  -1.5241800484e-004   9.9982345302e-001  -4.0524388065e-003   1.0008211677e+000  -1.4231728567e-003   1.5236165690e-003  -1.0053167055e-003
  1.6435000000e+008  -8.4546723631e-004   5.6867506752e-004   9.9957082696e-001  -3.7705075263e-003   1.0008124348e+000  -1.5250854708e-003   5.8173403841e-004  -2.1035299277e-005
  1.7293750000e+008  -7.1015262172e-004   6.1582979131e-004   1.0020717408e+000  -3.2457586380e-003   1.0008430576e+000  -1.9620543715e-003   7.3195793609e-004  -8.2775579751e-004
  1.8152500000e+008  -5.6737641375e-004   5.8070358825e-004   1.0013559404e+000  -4.2481357268e-003   1.0000247381e+000  -1.9803879769e-003   4.0450325113e-004  -4.6575125912e-004
  1.9011250000e+008  -8.3668544644e-004   7.1621515863e-004   1.0029011720e+000  -5.1382841772e-003   1.0007578713e+000  -2.1557575910e-003   4.4492565894e-004  -9.9895881743e-004
  1.9870000000e+008  -2.3130695050e-004   9.2205940770e-004   1.0020659049e+000  -3.3706164471e-003   1.0001795849e+000  -2.2667967113e-003   3.0199621068e-004  -8.1586643959e-004
  2.0728750000e+008   5.7777550544e-004   4.5280980633e-004   1.0014406545e+000  -3.3085113320e-003   1.0001315564e+000  -2.2832829140e-003   2.8940809429e-004   1.1530149017e-006
  2.1587500000e+008   7.2044445616e-004   4.3830247922e-005   1.0032970025e+000  -4.1656997210e-003   1.0003042421e+000  -2.1632956439e-003  -8.8298325703e-005   1.8350455600e-004
  2.2446250000e+008   4.4604434471e-004  -3.4822074673e-004   1.0014246575e+000  -4.6341313660e-003   1.0003992714e+000  -1.8013366134e-003  -4.4252211779e-004  -5.2509106294e-005
  2.3305000000e+008   5.1129164945e-004  -4.0340858888e-004   1.0025186501e+000  -3.4672808756e-003   9.9993424406e-001  -2.2958939425e-003  -1.5080443024e-004   8.9570380307e-005
  2.4163750000e+008   5.8000385323e-006  -4.9259501650e-004   1.0018513077e+000  -4.9129693549e-003   9.9967656390e-001  -2.7533265005e-003  -5.3958532618e-004  -9.1999274156e-006
  2.5022500000e+008  -1.8870038493e-004  -4.6302696342e-004   1.0009339280e+000  -4.2841877166e-003   9.9998638538e-001  -2.5410426388e-003  -8.1833288009e-004   2.0279830008e-004
  2.5881250000e+008  -5.3937026626e-004  -1.1976071277e-003   1.0011072037e+000  -3.5410765797e-003   1.0000652933e+000  -3.3158273497e-003  -6.4603204182e-004   6.9335265314e-004
  2.6740000000e+008  -9.5523237249e-004  -9.3853243608e-004   1.0003833348e+000  -6.1382733658e-003   1.0011527654e+000  -2.9304014224e-003  -3.5825837993e-004   3.2764463125e-004
  2.7598750000e+008  -2.0951655849e-004  -3.5077395208e-004   9.9862370271e-001  -5.8223141680e-003   1.0004578914e+000  -2.3313540331e-003  -3.2002103762e-004   8.2466024274e-004
  2.8457500000e+008  -9.5608743653e-004  -4.4080776405e-004   9.9874967840e-001  -4.8179642393e-003   1.0003266914e+000  -2.2099705356e-003  -3.4188929883e-004   9.6414317068e-004
  2.9316250000e+008  -7.5894542116e-004  -5.5265740071e-004   9.9928460862e-001  -4.4076383395e-003   9.9999331993e-001  -2.8311972659e-003  -1.3507921306e-004   2.5675149757e-004
  3.0175000000e+008  -1.0897011918e-003   5.6685030266e-004   9.9949876356e-001  -7.3440476863e-003   1.0008023284e+000  -2.3846292880e-003  -4.2935349181e-004   3.7553542461e-004
  3.1033750000e+008  -7.4944557775e-004   1.7391941522e-004   9.9963515607e-001  -2.6988933250e-003   1.0014361279e+000  -3.4461744382e-003  -6.8470503074e-004   4.4051688432e-004
  3.1892500000e+008  -9.5172170301e-004   4.5669656449e-004   1.0004071821e+000  -5.2872283186e-003   1.0003433298e+000  -2.3773870979e-003  -6.8334201064e-004   1.0364537547e-004
  3.2751250000e+008  -5.2722138026e-004   1.9579461646e-004   1.0004733364e+000  -6.3253954531e-003   1.0008115204e+000  -3.4161906465e-003  -7.6658166338e-004   2.1900045072e-004
  3.3610000000e+008  -6.9474244487e-004   1.5042265589e-004   9.9913600758e-001  -4.0921818430e-003   1.0012578973e+000  -2.8709861872e-003  -6.8317411208e-004   3.0371538144e-004
  3.4468750000e+008  -4.2405185916e-004   1.9624655861e-004   9.9972254734e-001  -4.6282896273e-003   1.0008902837e+000  -2.2786549976e-003  -4.5617989714e-004   2.3189301369e-004
  3.5327500000e+008  -5.2296873046e-004   2.5576398660e-004   9.9941299109e-001  -4.7805925528e-003   9.9993283418e-001  -3.6537561246e-003  -7.8026860979e-004   8.6691891555e-005
  3.6186250000e+008  -3.9882402250e-004   1.4590616262e-004   1.0009537028e+000  -6.3589766592e-003   1.0005271650e+000  -2.1717191206e-003  -7.1662929902e-004   4.0508826200e-004
  3.7045000000e+008  -4.4065161537e-004   4.0366788865e-004   9.9926437919e-001  -3.9983906835e-003   1.0011176794e+000  -3.2894326339e-003  -7.3719754473e-004   3.5840400837e-004
  3.7903750000e+008  -3.8128055118e-004   5.2547268640e-004   9.9976289389e-001  -4.7203682423e-003   1.0000976576e+000  -2.7900511344e-003  -5.8094368322e-004   3.5974781285e-004
  3.8762500000e+008  -3.3235641440e-004   2.4012843388e-004   1.0016490724e+000  -4.9889446080e-003   9.9990050223e-001  -2.5949551846e-003  -2.4198313860e-004   6.4820280192e-004
  3.9621250000e+008  -2.2372750233e-004   2.2736968736e-004   1.0002227907e+000  -4.8270718462e-003   1.0005709965e+000  -3.0043256284e-003  -4.0880364247e-004   6.1569512545e-004
  4.0480000000e+008  -8.1514855718e-005   6.3489572753e-005   1.0019433898e+000  -4.3258563470e-003   1.0003233211e+000  -2.8290364855e-003  -2.8789315712e-004   4.0184525400e-004
  4.1338750000e+008  -6.0446782986e-006   2.4206206521e-004   1.0007472798e+000  -4.8286558024e-003   1.0008276579e+000  -3.5860676023e-003   1.0587296502e-005   4.2263144075e-004
  4.2197500000e+008  -2.1757440425e-004  -2.0999677518e-004   1.0003733092e+000  -5.6493232338e-003   1.0006240705e+000  -3.3106531703e-003   5.5101534498e-005   4.4013989199e-004
  4.3056250000e+008   1.0857902512e-004   2.9065831913e-004   1.0009946578e+000  -4.9463853735e-003   1.0006055317e+000  -3.2658331279e-003   5.3503583244e-004   3.2366401683e-004
  4.3915000000e+008   1.1347629494e-005  -1.0295489415e-004   1.0029147098e+000  -4.3270356695e-003   1.0007091153e+000  -3.7133983875e-003   5.8205570223e-004   3.6595431119e-004
  4.4773750000e+008   3.4242380248e-004  -2.0858006213e-006   1.0020582601e+000  -5.2816507035e-003   1.0003767112e+000  -3.6832216296e-003   7.6558957581e-004   1.3615023098e-004
  4.5632500000e+008   2.8695118357e-006   6.5942045096e-005   1.0000539215e+000  -4.5870298717e-003   1.0002913362e+000  -3.5837440031e-003   7.4626496628e-004   1.1782033841e-004
  4.6491250000e+008  -1.3737830716e-004   1.3028431040e-005   1.0012111387e+000  -5.7402105298e-003   1.0000068226e+000  -3.2581926297e-003   7.3040638152e-004   2.0271049299e-004
  4.7350000000e+008  -3.6125194582e-004  -3.7721522728e-004   9.9796731556e-001  -6.0805701585e-003   1.0004669598e+000  -3.3641906295e-003   5.6524379301e-004  -8.3303572803e-005
  4.8208750000e+008  -3.0241823955e-004  -7.0259932087e-005   9.9315112489e-001  -7.3204128270e-003   9.9972033551e-001  -2.8296635790e-003   4.4252719440e-004   2.7630254568e-005
  4.9067500000e+008  -7.1321911684e-006  -4.0211132357e-004   9.9253254243e-001  -8.0943229243e-003   9.9973900631e-001  -3.1781663088e-003   1.2698486183e-004   5.4725577788e-005
  4.9926250000e+008  -2.1759813947e-004  -7.3579512943e-004   9.9216773235e-001  -6.6990983247e-003   9.9992351099e-001  -3.2980969928e-003   3.9565347353e-004   3.8253577818e-006
  5.0785000000e+008  -6.6039942328e-004  -5.6746206204e-004   9.9158273991e-001  -7.8566791135e-003   9.9983306230e-001  -2.6270390013e-003   4.7780581468e-004   5.7100133352e-004
  5.1643750000e+008  -8.2623100344e-004  -5.1300955413e-005   9.9042386976e-001  -6.7998817065e-003   1.0005627907e+000  -3.0940004078e-003   7.8915190152e-004   1.8331844706e-004
  5.2502500000e+008  -6.2521635537e-004   5.9726859279e-004   9.9307385160e-001  -6.6142767425e-003   1.0005378785e+000  -2.4789073080e-003   4.9685423845e-004  -3.6011739987e-004
  5.3361250000e+008   1.3276751358e-004   6.8478724818e-004   9.9428493270e-001  -7.1574282421e-003   1.0008677930e+000  -2.8280156444e-003  -1.0161638184e-005  -5.9686628967e-004
  5.4220000000e+008   6.1952482911e-004   3.6048018505e-004   9.9392564127e-001  -6.8582866127e-003   1.0013756626e+000  -3.6119720226e-003  -7.5965630790e-004  -4.2320248089e-004
  5.5078750000e+008   5.9476565989e-004  -5.1183546289e-004   9.9517113438e-001  -7.9663484837e-003   1.0003718965e+000  -3.6116698238e-003  -7.4299932366e-004  -2.8861554718e-004
  5.5937500000e+008   5.9197163980e-004  -5.0049471878e-004   9.9280564212e-001  -7.5106594313e-003   1.0005777447e+000  -3.6362946749e-003  -9.4377228745e-004   1.7142354600e-004
  5.6796250000e+008   4.0304976811e-004  -7.5996023434e-004   9.9467314842e-001  -8.5494098173e-003   1.0002512639e+000  -3.4291317052e-003  -1.0399224398e-003   6.7010804254e-004
  5.7655000000e+008  -2.4714833677e-005  -1.0864870186e-003   9.9958325007e-001  -8.5903066604e-003   1.0002620951e+000  -4.0757602923e-003  -8.9744171450e-004   7.9814513508e-004
  5.8513750000e+008  -4.6662568509e-004  -7.6645793273e-004   9.9786236822e-001  -7.5006897017e-003   1.0001088175e+000  -4.0078064641e-003  -6.6722659528e-004   1.0593168898e-003
  5.9372500000e+008  -3.8823130782e-004  -9.2340478130e-004   9.9647208997e-001  -6.1068675627e-003   1.0003529275e+000  -4.2588088720e-003  -5.2350590808e-004   9.6101506752e-004
  6.0231250000e+008  -8.5452034801e-004  -6.2292667579e-004   9.9700467353e-001  -7.2006264251e-003   9.9973047875e-001  -3.6973376426e-003  -2.6898501613e-004   1.1171158456e-003
  6.1090000000e+008  -7.9375444303e-004  -3.7030540348e-004   9.9765903300e-001  -9.2158585876e-003   1.0004984575e+000  -3.7572893699e-003  -2.3773465113e-004   9.1207674168e-004
  6.1948750000e+008  -7.9244249938e-004  -1.7201424484e-004   9.9635144963e-001  -6.7769302620e-003   9.9956293764e-001  -3.5924216788e-003  -1.0647387912e-004   7.6662033975e-004
  6.2807500000e+008  -8.6894480896e-004  -1.0849209679e-004   9.9869931111e-001  -7.8768863152e-003   1.0003539787e+000  -3.6625786137e-003   1.9576882877e-004   3.6157551240e-004
  6.3666250000e+008  -5.0726705103e-004   4.8114760328e-004   9.9540733829e-001  -7.2317110374e-003   1.0003256018e+000  -3.8767599785e-003   1.5838109075e-004   2.4705797059e-004
  6.4525000000e+008  -2.7232054818e-004   4.2480261293e-004   9.9382272308e-001  -7.9403102496e-003   1.0001387612e+000  -3.9202361377e-003   3.4883264764e-004  -1.4017163241e-004
  6.5383750000e+008  -6.4431860650e-005   3.8672831659e-004   9.9410984035e-001  -8.3151194454e-003   9.9985871603e-001  -3.7280202783e-003   5.2066230043e-004  -2.0251183380e-004
  6.6242500000e+008   2.4590306925e-004   1.6632692824e-004   9.9237222801e-001  -7.5180767305e-003   1.0007412426e+000  -4.5415979053e-003   4.9546332756e-004  -4.7356666548e-004
  6.7101250000e+008   3.0357638445e-004   1.2832296867e-005   9.9407483637e-001  -7.2084406856e-003   9.9972873460e-001  -3.3306044541e-003   2.3195593471e-004  -6.5340949483e-004
  6.7960000000e+008   6.1374332923e-004  -2.4462847577e-004   9.9231324665e-001  -7.8554596817e-003   1.0005429011e+000  -4.1282707257e-003   2.3290492149e-004  -1.0969220407e-003
  6.8818750000e+008   3.0353241981e-004  -5.5836327639e-004   9.9218181189e-001  -8.5572590648e-003   9.9990919941e-001  -3.4841123842e-003   1.6126992629e-005  -1.1524730289e-003
  6.9677500000e+008   2.5935211354e-004  -7.9395828757e-004   9.9427162300e-001  -7.2818623574e-003   9.9980837508e-001  -3.8403763819e-003  -2.9640390997e-004  -1.0554643079e-003
  7.0536250000e+008  -9.9865612817e-005  -9.8269373787e-004   9.9384435115e-001  -6.9130541292e-003   9.9998823251e-001  -4.1967049950e-003  -5.1486945012e-004  -1.2768703790e-003
  7.1395000000e+008  -4.3534917626e-004  -9.7189381412e-004   9.9324246825e-001  -6.9745910438e-003   9.9984619848e-001  -3.9734683669e-003  -5.1547964936e-004  -9.9420312568e-004
  7.2253750000e+008  -8.3005628960e-004  -9.9709888289e-004   9.9239774685e-001  -8.2289199285e-003   9.9965558466e-001  -4.2489118362e-003  -1.0200230672e-003  -1.2007843749e-003
  7.3112500000e+008  -9.4197516726e-004  -4.3958106315e-004   9.9745433245e-001  -6.6447284433e-003   9.9965935488e-001  -3.3887951882e-003  -9.3362704299e-004  -9.7431069989e-004
  7.3971250000e+008  -1.0742955301e-003  -1.3171198918e-004   9.9411851927e-001  -8.6613201548e-003   9.9944400105e-001  -5.2597972466e-003  -1.2251361150e-003  -5.8130995072e-004
  7.4830000000e+008  -9.1969400253e-004   3.2823817590e-004   9.9339669017e-001  -7.6408003014e-003   9.9925046942e-001  -4.3966454009e-003  -1.1391934037e-003  -4.5621258273e-004
  7.5688750000e+008  -8.3985828935e-004   4.5316240453e-004   9.9273493789e-001  -8.7869555235e-003   9.9859827798e-001  -5.1338685729e-003  -1.1575800359e-003  -4.1172409641e-005
  7.6547500000e+008  -2.8681899761e-004   5.9373717183e-004   9.9352662230e-001  -8.2679048383e-003   9.9996344511e-001  -4.4412512149e-003  -1.1057830022e-003   2.6505463153e-004
  7.7406250000e+008  -1.4435356134e-004   7.8257412185e-004   9.9278775790e-001  -8.2286034761e-003   9.9955457941e-001  -4.4359434879e-003  -5.7220886073e-004   3.9009526203e-004
  7.8265000000e+008   6.4705866856e-005   4.8684626497e-004   9.9185803717e-001  -8.5719275928e-003   9.9914922694e-001  -3.8278708213e-003  -4.6219868191e-004   8.1565903276e-004
  7.9123750000e+008   3.1903525628e-004   5.7943133187e-004   9.9588941764e-001  -6.3526931844e-003   9.9949838004e-001  -3.2314388000e-003  -3.0615278038e-004   6.6913643938e-004
  7.9982500000e+008   2.8025708807e-004   4.6875502440e-004   9.9704840686e-001  -6.3134164805e-003   1.0005377636e+000  -4.0494041603e-003  -2.4184431057e-004   8.2754855371e-004
  8.0841250000e+008   7.2562449387e-004   5.1126047008e-004   9.9666972248e-001  -6.9287521005e-003   9.9976194722e-001  -2.9767989439e-003  -4.5429619058e-005   7.4586449495e-004
  8.1700000000e+008   1.0115688533e-003   3.2773087796e-004   9.9830643845e-001  -5.9495105284e-003   1.0000064926e+000  -3.1503146802e-003  -1.9871316715e-004   7.0079781048e-004
  8.2558750000e+008   1.4594091708e-003   8.7291228600e-005   9.9867750664e-001  -5.8355798947e-003   1.0006538513e+000  -4.2254536592e-003  -2.7383194991e-004   9.3072911024e-004
  8.3417500000e+008   1.6202049543e-003  -6.0363945485e-004   9.9891589068e-001  -5.8407345707e-003   1.0010247307e+000  -4.1398690890e-003  -3.4824158549e-004   1.1687975489e-003
  8.4276250000e+008   1.1478876632e-003  -1.1906451939e-003   9.9687644948e-001  -5.7894271929e-003   9.9932271610e-001  -5.2806182929e-003  -4.4074859727e-005   1.1868809831e-003
  8.5135000000e+008   5.3283482904e-004  -1.5241812136e-003   9.9664047905e-001  -6.6492621772e-003   1.0012438004e+000  -4.0531781815e-003   8.9281423465e-005   1.3099453800e-003
  8.5993750000e+008   5.8183450013e-005  -1.6908563202e-003   9.9384213251e-001  -5.7258830149e-003   1.0002654101e+000  -4.9734465034e-003   3.0120831138e-004   1.1532607485e-003
  8.6852500000e+008  -5.9960317962e-004  -1.3973216859e-003   9.9174797133e-001  -9.5821487836e-003   1.0000698340e+000  -4.2417762571e-003   6.5834909037e-004   8.0650695598e-004
  8.7711250000e+008  -7.0017129686e-004  -1.1519792976e-003   9.9382991730e-001  -7.9767297133e-003   1.0004241615e+000  -4.8169771868e-003   7.3121402801e-004   4.5750841454e-004
  8.8570000000e+008  -8.2481672018e-004  -6.2629515825e-004   9.9463737467e-001  -7.3538827809e-003   1.0005184037e+000  -4.8652465606e-003   7.1422745842e-004   2.1722839261e-004
  8.9428750000e+008  -7.7038711744e-004  -2.7097199918e-004   9.9260382208e-001  -7.6971395078e-003   1.0000294176e+000  -5.2942747928e-003   2.6821924550e-004  -2.0513846083e-004
  9.0287500000e+008  -3.4741684660e-004  -8.9571071395e-005   9.9340085314e-001  -7.8209142692e-003   9.9971599317e-001  -4.9200941656e-003   5.5394445586e-005  -3.8768959824e-004
  9.1146250000e+008  -9.3760479730e-005   3.8248857929e-005   9.9246857195e-001  -9.2305017951e-003   9.9874237883e-001  -5.2237438567e-003  -3.9771800258e-004  -4.2720290657e-004
  9.2005000000e+008   8.1845263916e-005   6.8903172659e-006   9.9383232359e-001  -8.4727819433e-003   9.9840167906e-001  -4.0186865989e-003  -7.4133889118e-004  -5.8723308549e-004
  9.2863750000e+008   3.9644607798e-004  -6.5815617487e-005   9.9329999037e-001  -7.0791232097e-003   9.9943675759e-001  -5.5886915192e-003  -9.0402059480e-004  -3.9511043591e-004
  9.3722500000e+008   4.3722176079e-004  -3.7568623525e-004   9.9398836729e-001  -8.2264080296e-003   9.9897227292e-001  -4.6153241764e-003  -1.1020430950e-003  -6.0099849093e-004
  9.4581250000e+008   5.6128775120e-004  -7.4029626954e-004   9.9381634991e-001  -7.8257730140e-003   9.9959721187e-001  -4.0117508506e-003  -1.4568259181e-003  -5.4560007459e-004
  9.5440000000e+008   3.5692124843e-004  -1.1264348362e-003   9.9382885537e-001  -8.2827485597e-003   9.9988697581e-001  -4.7447469111e-003  -1.5135758272e-003  -3.3884871211e-004
  9.6298750000e+008   1.1167918754e-004  -1.3214958549e-003   9.9603384845e-001  -6.8353669122e-003   9.9977679785e-001  -5.0482694814e-003  -1.4963350286e-003  -8.1316034746e-005
  9.7157500000e+008  -2.8583160599e-004  -1.4526413495e-003   9.9364327567e-001  -8.8387939082e-003   1.0001812009e+000  -5.2359395229e-003  -1.4361788367e-003   6.2368368226e-005
  9.8016250000e+008  -6.6092610821e-004  -1.2322641584e-003   9.9469551593e-001  -7.9895620019e-003   9.9894537403e-001  -6.1771739207e-003  -1.4946308439e-003   2.9378362570e-004
  9.8875000000e+008  -1.0718883961e-003  -1.1049864821e-003   9.9471617780e-001  -7.2319590136e-003   9.9900779156e-001  -4.9193744976e-003  -1.2623916931e-003   3.6484610901e-004
  9.9733750000e+008  -1.1984880373e-003  -7.3859029307e-004   9.9484553263e-001  -8.2974371588e-003   9.9957641984e-001  -4.3992461365e-003  -1.1461572215e-003   2.4826945824e-004
  1.0059250000e+009  -1.2787062760e-003  -2.5320468742e-004   9.9514992394e-001  -7.1950015196e-003   9.9969376757e-001  -4.3863609761e-003  -7.8866655817e-004   3.9107585755e-004
  1.0145125000e+009  -1.3030919997e-003   2.2265215115e-004   9.9398180422e-001  -1.0465572143e-002   9.9896570406e-001  -4.6874491394e-003  -4.3452910062e-004   4.9896338098e-004
  1.0231000000e+009  -1.0485910295e-003   5.9113059339e-004   9.9392776071e-001  -7.1219687559e-003   9.9896331322e-001  -4.7122219551e-003  -3.3994731793e-004   4.0399015869e-004
  1.0316875000e+009  -8.2994805997e-004   1.0674953135e-003   9.9558219028e-001  -8.1628723142e-003   9.9889304266e-001  -5.2274390334e-003   9.7670624872e-005   2.2381942732e-004
  1.0402750000e+009  -1.2564773578e-004   1.1338883453e-003   9.9315559424e-001  -8.7184395349e-003   9.9977625969e-001  -4.4879913124e-003   5.1718145114e-004   6.2981025244e-005
  1.0488625000e+009   3.5252202685e-004   1.0183329577e-003   9.9440286036e-001  -7.7987075856e-003   9.9957348530e-001  -4.9733357953e-003   6.8352096461e-004  -8.3737882454e-005
  1.0574500000e+009   7.1442611836e-004   7.6004790231e-004   9.9359741842e-001  -7.8982614037e-003   9.9956743122e-001  -5.0203078726e-003   9.6288723541e-004  -3.5724031537e-004
