# Hz S RI R 50.000000
! Metas.Vna.Tools, 2.8.8664.20301
! Metas.Vna.Data, 2.8.8664.20285
! Created: UTC 2024.02.11 10:08:23
! FREQ                re:S1,1             im:S1,1             re:S2,1             im:S2,1             re:S1,2             im:S1,2             re:S2,2             im:S2,2          
  1.3000000000e+008   7.6992192538e-004  -1.6269140017e-003   9.9367550095e-001  -5.5382707623e-003   1.0008721148e+000  -5.0999515200e-004   7.3294599498e-004   4.9947110443e-004
  1.3858750000e+008  -9.7719071351e-004  -1.4078071296e-003   9.9417843885e-001  -5.9934172525e-003   1.0009178365e+000  -5.9075133563e-004   1.1814836478e-003  -4.0938219861e-004
  1.4717500000e+008  -1.0314771313e-003  -9.4237248975e-004   9.9426417616e-001  -6.0180927977e-003   1.0002021949e+000  -4.2867969376e-004   6.3061839010e-004  -1.2703597827e-004
  1.5576250000e+008  -7.7437102568e-004   1.5704449918e-004   9.9605663385e-001  -5.6876795511e-003   1.0003950876e+000  -6.6096632515e-004   1.5163008829e-003  -8.6138247932e-004
  1.6435000000e+008  -7.5912261173e-004   9.7790357034e-004   9.9398345089e-001  -5.5986545960e-003   1.0010083153e+000  -1.9953758400e-004   1.1663144759e-003  -4.5678410054e-004
  1.7293750000e+008  -9.7725418133e-004   7.4876284127e-004   9.9479262751e-001  -5.1272397288e-003   1.0001187600e+000  -3.6567462777e-004   1.0500026227e-003  -1.0646122582e-003
  1.8152500000e+008  -3.3412276200e-004   5.3680073764e-004   9.9424633325e-001  -5.7039221539e-003   1.0003625439e+000  -8.0132649420e-004   5.3956848886e-004  -6.0802640814e-004
  1.9011250000e+008  -2.8885217713e-004   3.6460791135e-004   9.9410203182e-001  -6.7330899301e-003   1.0009539282e+000  -6.6583245885e-004   3.7191553910e-004  -9.1722380175e-004
  1.9870000000e+008   9.8637869899e-005   6.2213149088e-004   9.9552888159e-001  -5.0166030737e-003   1.0003358621e+000  -6.1908927159e-004   2.6618996716e-005  -3.3829544002e-004
  2.0728750000e+008   1.1035059833e-005   3.1548247286e-005   9.9474709338e-001  -5.7975969577e-003   1.0007260885e+000  -8.9242024825e-004   2.0087777842e-004  -2.0536426545e-004
  2.1587500000e+008   1.0556789177e-004   4.2045756638e-005   9.9353183087e-001  -6.3695441558e-003   1.0001119835e+000  -7.0798541046e-004  -2.3417901360e-004   9.2975425122e-005
  2.2446250000e+008   5.6039883489e-004  -3.9980395190e-004   9.9447803955e-001  -6.1191910087e-003   1.0005135350e+000  -7.0904939998e-004  -1.5320118538e-004   1.2530966341e-004
  2.3305000000e+008  -1.4389587254e-005  -3.3576566423e-004   9.9421993146e-001  -6.4117617370e-003   1.0001501357e+000  -1.2643665344e-003  -2.0570622982e-004   9.6267192836e-005
  2.4163750000e+008  -6.6119370230e-005  -4.9026882940e-004   9.9305561693e-001  -8.1787916080e-003   1.0004641887e+000  -1.5380155739e-003  -6.3718394284e-004   2.6423097021e-004
  2.5022500000e+008  -6.5803708818e-004  -6.5715912001e-004   9.9488916597e-001  -5.9380411329e-003   1.0006726252e+000  -9.7435406872e-004  -9.6300275800e-004   5.6483860618e-004
  2.5881250000e+008  -5.6203871055e-004  -6.8999823750e-004   9.9082032486e-001  -5.5509005462e-003   1.0001806385e+000  -1.4407174814e-003  -4.3151128557e-004   5.4771629783e-004
  2.6740000000e+008  -8.0071170385e-004  -6.5586127273e-004   9.9293700180e-001  -7.2021642114e-003   1.0006388808e+000  -1.5274222337e-003  -5.3598829803e-004   5.7654808845e-004
  2.7598750000e+008  -3.1552303161e-004  -5.2052348123e-004   9.9320487098e-001  -7.2494306268e-003   1.0003246798e+000  -1.3443397088e-003  -3.3984801229e-004   8.2929183981e-004
  2.8457500000e+008  -7.2453877262e-004  -7.8393079412e-005   9.9224377234e-001  -6.7508347574e-003   1.0003385698e+000  -7.6743719623e-004  -5.3713709007e-004   6.6553347484e-004
  2.9316250000e+008  -4.4905391314e-004  -3.2939625780e-004   9.9162326063e-001  -6.8814632472e-003   1.0003755511e+000  -1.6975907691e-003  -6.5906477505e-005   2.4346852156e-004
  3.0175000000e+008  -1.0942459688e-003   3.5196667718e-004   9.9360274688e-001  -8.5300032564e-003   1.0001363259e+000  -6.5251009536e-004  -4.3379377917e-004   3.5317182242e-004
  3.1033750000e+008  -1.1357686882e-003   6.3014535576e-005   9.9503911431e-001  -6.1247483132e-003   1.0014692823e+000  -1.4064192937e-003  -7.5280149373e-004   4.6523353913e-004
  3.1892500000e+008  -8.1178439899e-004   1.4447066902e-004   9.9360202252e-001  -7.0330094345e-003   1.0004715628e+000  -1.0721760661e-003  -5.7676796357e-004   1.1509315303e-004
  3.2751250000e+008  -7.2143342128e-004  -7.3115124186e-005   9.9477285881e-001  -6.8167224472e-003   1.0001610979e+000  -1.7380709324e-003  -5.1768332965e-004   3.7714866057e-004
  3.3610000000e+008  -6.0946794775e-004   2.2395598084e-004   9.9502870529e-001  -6.3187073456e-003   1.0012607319e+000  -1.6702765425e-003  -7.5853434384e-004  -8.0046886532e-006
  3.4468750000e+008  -7.0459289390e-004   4.1776151926e-004   9.9357708978e-001  -6.2101852817e-003   1.0009385768e+000  -1.2826628296e-003  -4.1856898878e-004   1.0125684714e-004
  3.5327500000e+008  -4.7239700608e-004   3.9220986843e-004   9.9390709932e-001  -8.3325188080e-003   9.9948241257e-001  -2.3674286326e-003  -8.2185026622e-004   1.8264906359e-004
  3.6186250000e+008  -5.1173783164e-004   3.3427434818e-004   9.9502637229e-001  -6.9910544623e-003   1.0010229892e+000  -1.4921623573e-003  -5.0092954519e-004   7.0582037546e-004
  3.7045000000e+008  -5.1163997889e-004   7.0067154787e-004   9.9198675215e-001  -7.4800434143e-003   1.0006179055e+000  -2.2209475810e-003  -7.8983455278e-004   2.2813926459e-004
  3.7903750000e+008  -6.2551971939e-005   7.9929686069e-004   9.9267963466e-001  -6.6414438791e-003   1.0004328935e+000  -1.9589744591e-003  -5.0253497020e-004   2.3048534763e-004
  3.8762500000e+008  -2.8430801828e-004   3.4785570125e-004   9.9795662453e-001  -5.8924560584e-003   1.0003180835e+000  -1.8101762707e-003  -3.2748276053e-004   4.8155751443e-004
  3.9621250000e+008   1.9593718983e-005   2.2149106513e-004   9.9685201194e-001  -6.0218881132e-003   1.0007473771e+000  -1.6660964792e-003  -6.1023363686e-004   6.8112770601e-004
  4.0480000000e+008   1.6204770847e-004   1.8721227966e-004   9.9779038338e-001  -6.4118616164e-003   1.0002635840e+000  -1.8200182143e-003  -2.3408211715e-004   5.2294432667e-004
  4.1338750000e+008   1.7231478965e-004   2.4597026327e-004   9.9658795382e-001  -4.9980984932e-003   1.0011528228e+000  -1.7816245668e-003   1.3569408725e-004   4.5932926886e-004
  4.2197500000e+008   2.2520576250e-005  -1.9627991141e-004   9.9768958871e-001  -5.6855834158e-003   1.0005722487e+000  -1.8953880141e-003   1.9714337004e-004   4.9026323007e-004
  4.3056250000e+008   2.2294922746e-004  -1.1588583947e-004   9.9667081761e-001  -5.3245184305e-003   1.0007876953e+000  -1.5472313691e-003   5.7101284118e-004   4.4204555019e-004
  4.3915000000e+008  -5.8121969748e-005  -2.7548380519e-004   1.0005685710e+000  -4.5580297911e-003   1.0004196938e+000  -2.1293086975e-003   6.6220498090e-004   3.2059155309e-004
  4.4773750000e+008   1.5810403191e-004  -1.7518523358e-004   9.9891754448e-001  -5.6448193089e-003   1.0006580799e+000  -2.1211864679e-003   5.1913682582e-004   2.7776359625e-004
  4.5632500000e+008  -7.5211500658e-005  -4.6588510549e-004   9.9582151656e-001  -5.4992610404e-003   1.0000952030e+000  -1.8990078852e-003   5.7179107283e-004   2.5656508508e-004
  4.6491250000e+008  -3.8302704664e-004  -1.5135276676e-004   9.9711296113e-001  -7.0526932900e-003   1.0002191178e+000  -2.2162691369e-003   5.4141561832e-004   1.9598852128e-004
  4.7350000000e+008  -4.4396647145e-004  -2.5218192353e-004   9.9567430258e-001  -6.6055312400e-003   1.0002446533e+000  -1.8606086643e-003   6.4059393931e-004   1.8870131501e-004
  4.8208750000e+008  -3.4090804335e-004   1.3054869757e-005   9.9424348348e-001  -6.8909763738e-003   9.9993799475e-001  -1.6380059036e-003   6.3370167384e-004   9.0051257235e-006
  4.9067500000e+008  -1.0576798690e-004  -1.3819115574e-004   9.9389692182e-001  -7.0404754035e-003   1.0000994341e+000  -1.8920161669e-003   5.3153734070e-004  -9.0465992305e-005
  4.9926250000e+008  -2.1729321667e-004  -4.6769919324e-004   9.9441235746e-001  -6.1809743607e-003   9.9964059617e-001  -2.1161827903e-003   6.1105295074e-004   1.0024739718e-004
  5.0785000000e+008  -5.9722712475e-004  -1.5608763187e-004   9.9391589398e-001  -6.7637524895e-003   9.9991458990e-001  -1.6018905306e-003   4.0453851337e-004   2.4377264573e-004
  5.1643750000e+008  -5.3756395788e-004   4.9775871450e-005   9.9435739885e-001  -5.4567657899e-003   1.0006975173e+000  -1.6260644598e-003   8.8742451944e-004  -1.3811471208e-004
  5.2502500000e+008  -3.0847505804e-004   5.4555458496e-004   9.9589945885e-001  -5.5033229276e-003   1.0011174768e+000  -1.4475162588e-003   4.2176200439e-004  -4.4828309424e-004
  5.3361250000e+008   4.7682524761e-004   5.0602942021e-004   9.9620831326e-001  -6.4450408845e-003   1.0006101966e+000  -1.9570236024e-003  -1.0562410083e-004  -8.0360690729e-004
  5.4220000000e+008   7.3341945032e-004   1.7164970977e-004   9.9534061780e-001  -6.7074206192e-003   1.0007355574e+000  -2.2049219874e-003  -9.3204688364e-004  -5.1184531875e-004
  5.5078750000e+008   6.2554229927e-004  -8.4272108153e-004   9.9547325152e-001  -7.7224408433e-003   1.0008350044e+000  -2.2713741054e-003  -9.5187726566e-004  -4.3783176399e-004
  5.5937500000e+008   1.9914048060e-004  -5.4161550996e-004   9.9452220990e-001  -6.9098705249e-003   1.0009303411e+000  -2.2802925569e-003  -1.1847328744e-003   1.1711788189e-004
  5.6796250000e+008   1.9652284473e-004  -9.3479186120e-004   9.9545528296e-001  -7.0263064463e-003   9.9996267311e-001  -2.1206977612e-003  -1.2209736383e-003   6.2666393819e-004
  5.7655000000e+008  -2.9096277382e-004  -1.1466014445e-003   9.9565841661e-001  -8.5519621234e-003   1.0005389322e+000  -2.9504337687e-003  -9.6890052522e-004   8.5899817683e-004
  5.8513750000e+008  -4.3517427992e-004  -8.7368871354e-004   9.9463019539e-001  -6.9922878812e-003   1.0002800104e+000  -2.1304790831e-003  -9.2620842806e-004   8.6204688708e-004
  5.9372500000e+008  -7.0004257632e-004  -9.1318788438e-004   9.9477069929e-001  -5.7775528712e-003   1.0002034341e+000  -2.8480077733e-003  -6.2450250886e-004   1.0958103712e-003
  6.0231250000e+008  -1.0585814438e-003  -4.1446171130e-004   9.9482229057e-001  -7.1184197486e-003   1.0004180864e+000  -2.4565012165e-003  -5.1316741268e-004   1.0091169233e-003
  6.1090000000e+008  -9.4335897701e-004  -3.2051856978e-004   9.9584636936e-001  -8.0487744712e-003   9.9958713048e-001  -1.9368022097e-003  -3.7898013807e-004   1.1019696417e-003
  6.1948750000e+008  -8.6545567513e-004   3.3191973230e-005   9.9310372206e-001  -6.3185180212e-003   9.9969151987e-001  -2.2411959358e-003  -2.6441986973e-004   7.7538023599e-004
  6.2807500000e+008  -7.5641170553e-004   3.2063102851e-005   9.9485801388e-001  -7.5350123564e-003   9.9992918208e-001  -2.3673359999e-003   1.4248585642e-004   4.6384396064e-004
  6.3666250000e+008  -4.1490241541e-004   5.8161866296e-004   9.9662351136e-001  -6.1882872908e-003   1.0003045096e+000  -2.7106388993e-003   8.4702404295e-005   2.6613037681e-004
  6.4525000000e+008   1.1241665657e-005   2.8320397751e-004   9.9546351104e-001  -7.4050609743e-003   9.9974372351e-001  -2.1340587524e-003   4.1958990451e-004   1.3471718603e-004
  6.5383750000e+008   1.5792981703e-004   3.4547419954e-004   9.9577206746e-001  -6.4199392807e-003   9.9967777475e-001  -1.9901519041e-003   4.0353476420e-004  -1.4574882635e-004
  6.6242500000e+008   3.2430232924e-004   1.1867931644e-004   9.9435135016e-001  -6.3374491388e-003   1.0012570524e+000  -2.9921906342e-003   3.8630867634e-004  -4.4708021232e-004
  6.7101250000e+008   4.3976157191e-004  -2.3998714438e-004   9.9724168141e-001  -4.9139602685e-003   9.9998227364e-001  -1.9827100015e-003   4.2182263888e-004  -5.6922375871e-004
  6.7960000000e+008   7.2158039709e-004  -5.2472346203e-004   9.9565848786e-001  -6.2366480452e-003   1.0009105171e+000  -2.4473539630e-003   2.9154241784e-004  -1.0988867869e-003
  6.8818750000e+008   2.7688851546e-004  -7.3038666862e-004   9.9447015760e-001  -6.9499146262e-003   1.0000020325e+000  -2.9022701263e-003   5.2989834599e-005  -1.1762881135e-003
  6.9677500000e+008   1.8036945219e-004  -1.0068838925e-003   9.9569359127e-001  -6.5332806112e-003   1.0005422583e+000  -2.7136697348e-003  -1.7346385638e-004  -1.3235115247e-003
  7.0536250000e+008  -3.1306567426e-004  -1.1019402941e-003   9.9387299180e-001  -7.3080207097e-003   1.0001286481e+000  -2.8381833054e-003  -2.9206665411e-004  -1.2899383091e-003
  7.1395000000e+008  -6.3459516411e-004  -9.3205718521e-004   9.9632738794e-001  -6.6604047355e-003   1.0004183869e+000  -2.6081390036e-003  -5.6113686829e-004  -1.3083196148e-003
  7.2253750000e+008  -1.1247619638e-003  -8.3453555873e-004   9.9416056149e-001  -5.9175557755e-003   9.9958850640e-001  -2.7894671666e-003  -8.9560750206e-004  -1.3064666253e-003
  7.3112500000e+008  -1.1331366815e-003  -3.2881318240e-004   9.9318172837e-001  -7.7001733252e-003   1.0000176932e+000  -2.3664866231e-003  -1.0413207157e-003  -1.0060815631e-003
  7.3971250000e+008  -9.4641655993e-004   1.2944729552e-004   9.9600938637e-001  -7.5224169923e-003   9.9973053443e-001  -3.0628461343e-003  -1.0717419865e-003  -8.0357849426e-004
  7.4830000000e+008  -9.1448815840e-004   5.6870192868e-004   9.9486666548e-001  -6.3707691691e-003   9.9937328125e-001  -2.2424923335e-003  -1.0798922736e-003  -7.0483174266e-004
  7.5688750000e+008  -7.0470768508e-004   7.6452413547e-004   9.9476772507e-001  -7.2155261026e-003   9.9930444882e-001  -2.6380763893e-003  -1.2074710037e-003  -2.9044019299e-004
  7.6547500000e+008  -1.4133782168e-004   7.6486624588e-004   9.9516817275e-001  -8.1698612815e-003   9.9965083764e-001  -3.3311742813e-003  -1.1478885964e-003   7.8875560168e-005
  7.7406250000e+008   8.7623302209e-005   7.8838308396e-004   9.9372000946e-001  -7.6302639972e-003   9.9930092667e-001  -3.0562788595e-003  -8.9834762443e-004   2.9851439048e-004
  7.8265000000e+008   3.9299347025e-004   5.4031315226e-004   9.9381429400e-001  -6.9730245225e-003   9.9987072947e-001  -2.6054918924e-003  -9.2452874870e-004   6.9206436678e-004
  7.9123750000e+008   7.2712532576e-004   3.3117750652e-004   9.9453050751e-001  -6.5938661351e-003   9.9917199937e-001  -1.9786808641e-003  -8.5107926652e-004   6.4241810330e-004
  7.9982500000e+008   5.7552313763e-004   2.5760655998e-004   9.9430431320e-001  -5.7366581506e-003   1.0003691909e+000  -1.4854368196e-003  -5.6636727692e-004   6.9358546916e-004
  8.0841250000e+008   9.8155716274e-004   1.6249126453e-004   9.9398460686e-001  -7.2856646496e-003   9.9981358720e-001  -2.0596287066e-003  -5.3177704780e-004   8.5029911167e-004
  8.1700000000e+008   1.0871606887e-003  -2.9255717467e-004   9.9552988984e-001  -6.6931139432e-003   9.9996847441e-001  -2.6913049856e-003  -4.8906080439e-004   9.4894576596e-004
  8.2558750000e+008   1.0331203385e-003  -3.7884861073e-004   9.9589703555e-001  -6.0353094392e-003   1.0000014000e+000  -2.9656638540e-003  -5.8907523759e-004   1.0977306784e-003
  8.3417500000e+008   1.0354787900e-003  -1.0224459954e-003   9.9642121828e-001  -7.3412750329e-003   1.0011465035e+000  -3.6319775924e-003  -3.7184617799e-004   1.5504959781e-003
  8.4276250000e+008   6.4519783152e-004  -1.1581468210e-003   9.9639185598e-001  -6.5914306815e-003   1.0000161016e+000  -2.7609287674e-003  -2.0620022993e-004   1.5731648853e-003
  8.5135000000e+008   1.6183755177e-004  -1.2319453642e-003   9.9562165311e-001  -6.3036672207e-003   1.0011810604e+000  -2.9575065049e-003   2.2269220225e-004   1.5335945989e-003
  8.5993750000e+008  -1.1735755087e-004  -1.2418603437e-003   9.9457076597e-001  -6.7027948393e-003   1.0002376525e+000  -3.9502748279e-003   3.6248142209e-004   1.2943638702e-003
  8.6852500000e+008  -5.7744428228e-004  -9.5351875403e-004   9.9400822296e-001  -8.3955795999e-003   1.0001127870e+000  -3.2004615423e-003   8.3581107635e-004   1.0347785013e-003
  8.7711250000e+008  -5.3278062328e-004  -6.7889708125e-004   9.9345714972e-001  -7.0903274943e-003   1.0006791290e+000  -3.7080746572e-003   7.8322074277e-004   4.7795488500e-004
  8.8570000000e+008  -3.8878254933e-004  -4.7364329908e-004   9.9639379049e-001  -6.9635361899e-003   9.9927982433e-001  -3.4408916485e-003   7.3589506768e-004   2.2625035050e-004
  8.9428750000e+008  -3.8999603455e-004  -1.7020851712e-004   9.9373928714e-001  -8.8411982303e-003   9.9979791435e-001  -3.4628358102e-003   3.6154956027e-004  -2.6667953324e-004
  9.0287500000e+008   7.5441849792e-005  -2.0605785435e-004   9.9496480078e-001  -8.7070899340e-003   9.9971965297e-001  -3.7649731141e-003   1.2708686166e-004  -4.2649623276e-004
  9.1146250000e+008   2.2661915938e-004  -1.9147582060e-004   9.9437047016e-001  -8.3890340677e-003   9.9864434160e-001  -2.7477162193e-003  -3.4049762707e-004  -4.7510747633e-004
  9.2005000000e+008   3.2294473523e-004  -3.6042106111e-004   9.9495787447e-001  -7.2866216257e-003   9.9916497242e-001  -2.3307043417e-003  -4.5293702894e-004  -8.0077689894e-004
  9.2863750000e+008   3.9915553424e-004  -5.2759674888e-004   9.9468241401e-001  -5.9913376778e-003   9.9895402201e-001  -3.8732430332e-003  -6.8712574268e-004  -8.9352045896e-004
  9.3722500000e+008   3.6875612655e-004  -8.3860338611e-004   9.9570613300e-001  -7.2461878496e-003   9.9864190153e-001  -3.6154279062e-003  -1.1327372103e-003  -8.1228679621e-004
  9.4581250000e+008   3.2731679855e-004  -1.1686036285e-003   9.9482990197e-001  -5.5341380098e-003   9.9926605455e-001  -2.0743236788e-003  -1.3266176516e-003  -5.4803585501e-004
  9.5440000000e+008  -9.6719585199e-005  -1.2875534835e-003   9.9430254795e-001  -6.6318428471e-003   1.0004244637e+000  -2.4881797925e-003  -1.4847822745e-003  -5.9032768588e-004
  9.6298750000e+008  -3.0273694052e-004  -1.3498528096e-003   9.9626393408e-001  -5.9850313416e-003   1.0002049078e+000  -3.0240675071e-003  -1.6106196106e-003  -3.3589686718e-004
  9.7157500000e+008  -7.0963514930e-004  -1.3356907537e-003   9.9542751956e-001  -7.9522061586e-003   1.0008088190e+000  -3.0460170752e-003  -1.6678116627e-003  -3.3195073110e-004
  9.8016250000e+008  -9.9502086553e-004  -1.1316149128e-003   9.9613803674e-001  -6.7487218093e-003   9.9911892546e-001  -4.0208679740e-003  -1.5925406082e-003  -8.0933531613e-005
  9.8875000000e+008  -1.0949847995e-003  -7.0766548809e-004   9.9510224298e-001  -5.4324350315e-003   9.9927288204e-001  -2.6067570180e-003  -1.4977337796e-003   1.4599313831e-004
  9.9733750000e+008  -1.0804064422e-003  -2.3927338218e-004   9.9457975661e-001  -6.8675659143e-003   9.9955208440e-001  -3.2876480707e-003  -1.1974448024e-003   2.4646998542e-004
  1.0059250000e+009  -9.3052279209e-004   1.0445291444e-004   9.9660560347e-001  -5.9849890837e-003   1.0007478385e+000  -3.5815584087e-003  -9.7791692161e-004   3.8228685575e-004
  1.0145125000e+009  -7.9605352317e-004   4.3563431634e-004   9.9511586352e-001  -9.2305969501e-003   9.9916551608e-001  -2.9667953607e-003  -5.3360464408e-004   2.7353367378e-004
  1.0231000000e+009  -5.5011824668e-004   5.0913747947e-004   9.9498887772e-001  -6.7310163671e-003   9.9990990207e-001  -2.9526222773e-003  -3.6799872692e-004   2.7962278847e-004
  1.0316875000e+009  -3.1518767869e-004   6.6739182854e-004   9.9595346832e-001  -7.7518492007e-003   9.9932408490e-001  -3.8834078561e-003  -1.0995050802e-004   2.7289006508e-004
  1.0402750000e+009   2.2371647908e-004   6.4384054988e-004   9.9625346038e-001  -7.1033161437e-003   9.9984883660e-001  -2.1095240556e-003   2.2265570862e-004   8.1559841457e-005
  1.0488625000e+009   4.5183847157e-004   4.9803555996e-004   9.9613760147e-001  -7.6132695424e-003   9.9919746115e-001  -3.3361319349e-003   5.0209333892e-004  -7.2608771758e-006
  1.0574500000e+009   6.2855113691e-004   2.3947252868e-004   9.9475498876e-001  -7.3378583808e-003   9.9943764272e-001  -3.4955560687e-003   7.1700636757e-004  -3.0365134892e-004
