# Hz S RI R 50.000000
! Metas.Vna.Tools, 2.8.8664.20301
! Metas.Vna.Data, 2.8.8664.20285
! Created: UTC 2024.02.11 10:08:18
! FREQ                re:S1,1             im:S1,1             re:S2,1             im:S2,1             re:S1,2             im:S1,2             re:S2,2             im:S2,2          
  1.3000000000e+008  -1.9931018123e-004  -1.2395169130e-003   9.9338723474e-001  -5.6074294495e-003   1.0006115550e+000  -9.8160596805e-004   1.2792709012e-003   5.2500065168e-004
  1.3858750000e+008  -5.2477305128e-004  -1.5232488478e-003   9.9326891169e-001  -5.3556821159e-003   1.0009285769e+000  -4.6839225340e-004   2.0081062049e-003  -1.0941670825e-003
  1.4717500000e+008  -1.3162829442e-003  -1.0555607069e-003   9.9228338573e-001  -6.6490835672e-003   1.0003255992e+000  -3.9302704360e-004   6.1982706854e-004   1.0308172227e-004
  1.5576250000e+008  -1.2582669883e-003   3.4894465847e-004   9.9250425362e-001  -4.9902414113e-003   9.9996512888e-001   4.0616734663e-005   1.4675685310e-003  -1.0953208654e-003
  1.6435000000e+008  -1.0481792474e-003   5.4585020047e-004   9.9334222400e-001  -5.4688051291e-003   1.0003959400e+000  -7.3880605992e-004   1.0541218204e-003  -2.3120346569e-004
  1.7293750000e+008  -9.7558691491e-004   8.6110069355e-004   9.9349341286e-001  -5.4073411725e-003   1.0008375487e+000  -1.2243805250e-003   8.1490987265e-004  -1.3635096833e-003
  1.8152500000e+008  -1.3577221195e-004   5.3177836580e-004   9.9269019871e-001  -6.8913060719e-003   1.0001665270e+000  -1.5051387152e-003   7.8555758720e-004  -8.0727167611e-004
  1.9011250000e+008  -1.6511721091e-004   7.4154437292e-004   9.9248380918e-001  -7.8958774246e-003   1.0003630293e+000  -1.0723626070e-003   4.6258081090e-004  -1.2801401260e-003
  1.9870000000e+008  -2.0780135217e-004   8.5738210570e-004   9.9234020823e-001  -6.5382494921e-003   1.0005045918e+000  -1.0319735931e-003   4.1781640477e-004  -6.1115653406e-004
  2.0728750000e+008   6.7201329319e-004   5.3444831827e-004   9.9057849321e-001  -6.1093181677e-003   1.0006574683e+000  -1.3722869438e-003  -1.5552362829e-004  -2.8190257303e-004
  2.1587500000e+008   3.7093259579e-004  -5.2607542331e-004   9.9154347480e-001  -6.9208028918e-003   1.0000384330e+000  -1.1823971589e-003  -6.1968698772e-004  -6.7036090259e-005
  2.2446250000e+008   2.7607450408e-005  -4.7275401449e-004   9.9235139941e-001  -6.4021599868e-003   1.0004205737e+000  -1.4060505786e-003  -3.3794802932e-004   1.2108883100e-004
  2.3305000000e+008  -8.2902533211e-005   8.0572740116e-005   9.9256384810e-001  -5.8491253861e-003   1.0001744720e+000  -1.0734108029e-003  -6.5077728069e-004  -9.0593603746e-005
  2.4163750000e+008  -5.0400931424e-004  -4.2488221293e-004   9.9211475072e-001  -7.2835113225e-003   1.0001467347e+000  -1.8169766759e-003  -5.9872505857e-004   6.5377356855e-004
  2.5022500000e+008  -5.4694638414e-004  -2.5280687439e-004   9.9226784230e-001  -6.5603146983e-003   1.0003398081e+000  -1.4220311464e-003  -1.0491455532e-003   6.3826811862e-004
  2.5881250000e+008  -5.4432440319e-004  -5.5364926603e-004   9.9100503170e-001  -6.0718511002e-003   9.9996992102e-001  -1.5582045082e-003  -9.8914898018e-004   8.4329788307e-004
  2.6740000000e+008  -6.3082316477e-004  -4.5457520379e-004   9.9142190445e-001  -8.0678359417e-003   1.0006492588e+000  -2.3878982156e-003  -5.2384574972e-004   4.3747542222e-004
  2.7598750000e+008  -1.4447926487e-004  -3.2666009249e-004   9.9137464102e-001  -7.7933737182e-003   1.0002327571e+000  -8.3991505870e-004  -3.6998545811e-004   5.7576879779e-004
  2.8457500000e+008  -7.9212243376e-004  -6.0130588389e-004   9.9157885163e-001  -7.0676333231e-003   1.0010515525e+000  -1.0916572460e-003  -6.5608667530e-004   7.1355027071e-004
  2.9316250000e+008  -3.3860595096e-004  -3.8635100401e-004   9.8926239435e-001  -8.1404029676e-003   1.0002597289e+000  -1.9430668405e-003  -4.5300444129e-004   5.8946758069e-004
  3.0175000000e+008  -5.3517876310e-004   2.1602211350e-004   9.8954507556e-001  -7.8778141266e-003   9.9999949212e-001  -1.3928710575e-003  -5.8250858744e-004   1.3818226079e-004
  3.1033750000e+008  -7.6740637112e-004  -2.1571994971e-005   9.9037645679e-001  -7.1095829994e-003   1.0006504020e+000  -1.2884468761e-003  -1.0318478610e-003   2.3244847384e-004
  3.1892500000e+008  -8.3028624217e-004   2.5130856493e-005   9.8888798710e-001  -7.9788947900e-003   1.0004742395e+000  -1.0751948682e-003  -7.6395502152e-004   4.1192070326e-005
  3.2751250000e+008  -6.2544611984e-004  -4.5254037426e-005   9.9168948316e-001  -8.6061517839e-003   1.0001239662e+000  -1.9100719905e-003  -8.0420268028e-004   3.8519446803e-004
  3.3610000000e+008  -7.7389530010e-004  -6.4284870401e-005   9.8990200482e-001  -6.8352365098e-003   1.0007775622e+000  -2.1552996314e-003  -7.3909041310e-004   1.6969962219e-004
  3.4468750000e+008  -6.0775960758e-004   2.8643000132e-004   9.9129345544e-001  -6.8914713902e-003   1.0009521740e+000  -1.1260916675e-003  -7.0069572980e-004  -1.2966931445e-004
  3.5327500000e+008  -5.9755587878e-004   2.4890219029e-004   9.9190133967e-001  -8.0189842415e-003   9.9957584878e-001  -1.7001959522e-003  -6.7411309531e-004   1.7649917868e-004
  3.6186250000e+008  -3.5014942707e-004   2.7879817403e-004   9.9082225412e-001  -7.6316743048e-003   1.0009952397e+000  -1.5303490555e-003  -7.2813938043e-004   3.3829489818e-005
  3.7045000000e+008  -6.3799283069e-004   4.9916425927e-004   9.9053363507e-001  -6.9749852856e-003   1.0010867084e+000  -2.7441384533e-003  -4.6924564524e-004   3.3070682694e-004
  3.7903750000e+008  -4.1627710139e-004   6.6751786807e-004   9.9124730117e-001  -7.2248440287e-003   1.0002200061e+000  -1.5466982476e-003  -5.9247470787e-004   1.4279953210e-004
  3.8762500000e+008  -2.6593802658e-004   4.1733443013e-004   9.9314244929e-001  -5.7405726038e-003   1.0003438716e+000  -1.8785284486e-003  -3.6832629009e-004   3.8700141019e-004
  3.9621250000e+008  -1.6356118075e-004   2.7713927647e-004   9.9221660498e-001  -7.6818024388e-003   1.0002226559e+000  -2.2593447403e-003  -4.8974194083e-004   4.9671450858e-004
  4.0480000000e+008   1.7609585839e-004   2.5616847514e-004   9.9291564703e-001  -7.3898940018e-003   1.0001909660e+000  -2.3001966073e-003  -1.6538821671e-004   3.8610320447e-004
  4.1338750000e+008   1.6842694767e-004   2.0824881465e-004   9.9259202280e-001  -6.0542365831e-003   1.0009898348e+000  -2.1194885846e-003   1.5718973560e-005   3.7716636409e-004
  4.2197500000e+008  -2.8642556456e-006  -2.3509057513e-004   9.9281831664e-001  -7.5377187772e-003   1.0005362568e+000  -2.1495731803e-003   2.2891882231e-004   5.7041702575e-004
  4.3056250000e+008   2.2831089033e-004  -9.4714146739e-005   9.9276279645e-001  -7.0361027436e-003   1.0007228962e+000  -2.4167106224e-003   5.2765115198e-004   4.5378712540e-004
  4.3915000000e+008   8.0473445843e-005  -3.1481678781e-004   9.9408776370e-001  -6.3850205782e-003   1.0006433433e+000  -2.5436502389e-003   5.4087181714e-004   2.2181862978e-004
  4.4773750000e+008   1.4694842024e-004  -5.0721424661e-004   9.9360627883e-001  -7.3872358243e-003   1.0006058028e+000  -2.6485411592e-003   5.8421437767e-004   1.7781642117e-004
  4.5632500000e+008  -3.3373269255e-004  -5.1318252887e-004   9.9147079697e-001  -7.3462869461e-003   1.0004954156e+000  -2.3789103972e-003   7.1410543054e-004   4.7677989670e-005
  4.6491250000e+008  -3.2721210466e-004  -2.2907165035e-004   9.9075450168e-001  -8.1096918225e-003   1.0002969056e+000  -2.4429833686e-003   6.3879818967e-004   1.1389405611e-004
  4.7350000000e+008  -5.1641822453e-004  -2.1414294759e-004   9.9181015802e-001  -8.5216471500e-003   1.0001461310e+000  -2.3270810828e-003   5.3604924995e-004   2.1233026913e-004
  4.8208750000e+008  -2.1144545726e-004   1.1637819235e-004   9.8880806470e-001  -7.7978463047e-003   9.9992442039e-001  -1.8072555423e-003   4.5199122656e-004  -7.2781322656e-005
  4.9067500000e+008  -3.6568928809e-006  -3.2067105338e-004   9.8865891991e-001  -7.7941873305e-003   1.0000016284e+000  -2.2748456533e-003   3.1375167505e-004  -1.3105502593e-004
  4.9926250000e+008  -1.7528787191e-005  -3.4733695536e-004   9.8996660145e-001  -7.9969257943e-003   9.9981279230e-001  -2.0939932438e-003   5.8764784591e-004  -7.6344313219e-005
  5.0785000000e+008  -6.2939869281e-004  -3.3183344661e-004   9.8961612688e-001  -7.5934730453e-003   1.0002166743e+000  -1.6101509760e-003   5.9172727866e-004   1.8088061051e-004
  5.1643750000e+008  -4.5921795627e-004   3.1854019729e-005   9.8898583688e-001  -6.3454097808e-003   1.0004578053e+000  -1.6637223926e-003   6.4647791386e-004   1.6459821850e-004
  5.2502500000e+008  -2.9684703852e-004   5.5752149239e-004   9.9164381876e-001  -6.2622686282e-003   1.0007136531e+000  -1.1755506488e-003   3.3003370395e-004  -5.4600935644e-004
  5.3361250000e+008   2.9645789467e-004   3.2762690195e-004   9.9102858324e-001  -7.2804024495e-003   1.0008556962e+000  -2.1488381810e-003  -1.4205684039e-004  -7.8461202060e-004
  5.4220000000e+008   6.2030868136e-004   5.0239354163e-005   9.9116748415e-001  -8.4389800122e-003   1.0003872449e+000  -2.5003227987e-003  -9.1701901837e-004  -3.6018293983e-004
  5.5078750000e+008   7.1511419004e-004  -6.5696122252e-004   9.9117814315e-001  -8.1208671531e-003   1.0003245777e+000  -2.7601284822e-003  -1.0170889446e-003  -3.0846968225e-004
  5.5937500000e+008   5.7113692023e-004  -7.4313192217e-004   9.9009606475e-001  -7.4890905705e-003   1.0008229596e+000  -2.6228469527e-003  -9.6100907840e-004   1.4843576834e-004
  5.6796250000e+008   3.1060048110e-004  -8.7088154383e-004   9.9165122611e-001  -7.9387926565e-003   1.0001220652e+000  -2.5365708043e-003  -1.1223010520e-003   5.6309252096e-004
  5.7655000000e+008  -2.7140523137e-004  -1.1161221605e-003   9.9005241390e-001  -9.1368677573e-003   1.0009081508e+000  -3.0535564400e-003  -9.9725159810e-004   7.4845492952e-004
  5.8513750000e+008  -4.6988831884e-004  -1.0070894468e-003   9.8925929052e-001  -8.6809392128e-003   9.9943782622e-001  -2.7499022425e-003  -8.8888969282e-004   1.0163656485e-003
  5.9372500000e+008  -7.0795847714e-004  -8.5855283663e-004   9.8944769222e-001  -7.8237955108e-003   1.0000789429e+000  -3.3914425487e-003  -6.5598314111e-004   9.9497841554e-004
  6.0231250000e+008  -9.2783507501e-004  -7.0299696921e-004   9.8893798934e-001  -8.1300609679e-003   1.0001049221e+000  -3.0096197621e-003  -3.0365841866e-004   1.1207243323e-003
  6.1090000000e+008  -9.4032149225e-004  -3.1325097769e-004   9.9047524740e-001  -9.6126952871e-003   9.9965238624e-001  -2.4873924105e-003  -3.7651664686e-004   9.1738608293e-004
  6.1948750000e+008  -9.6438344304e-004   5.3063566157e-005   9.9011451141e-001  -7.5820856061e-003   9.9953454798e-001  -2.9677079741e-003  -3.4134040821e-004   6.8847996758e-004
  6.2807500000e+008  -8.1700717106e-004   6.4601974930e-005   9.9118601212e-001  -8.9354961660e-003   1.0003131737e+000  -2.6358817787e-003  -6.8740318876e-005   3.1551670194e-004
  6.3666250000e+008  -3.5479696263e-004   5.7631585831e-004   9.9397243409e-001  -7.0180015176e-003   1.0002932090e+000  -2.6260196333e-003   2.7188767293e-004   3.5922740327e-004
  6.4525000000e+008  -5.2883984314e-005   4.3125191639e-004   9.9467118121e-001  -8.6440160258e-003   9.9982286038e-001  -2.5612667424e-003   3.5783870669e-004  -4.8595814985e-005
  6.5383750000e+008   2.1047181262e-004   2.1606653578e-004   9.9556951726e-001  -7.8198214612e-003   9.9958079598e-001  -2.6795247347e-003   4.2699060562e-004  -2.4348058486e-004
  6.6242500000e+008   3.6439960236e-004   1.3224705417e-004   9.9108964972e-001  -7.0974406470e-003   1.0001095794e+000  -3.6679711648e-003   5.3136936192e-004  -3.7505782397e-004
  6.7101250000e+008   3.4218404741e-004  -2.1242246396e-004   9.9420928838e-001  -6.0531983930e-003   1.0002670554e+000  -2.6008337129e-003   3.2873593199e-004  -6.1858575933e-004
  6.7960000000e+008   7.9384842700e-004  -5.2194565507e-004   9.9272706403e-001  -7.5544982620e-003   9.9990727039e-001  -2.9937108566e-003   9.2694455565e-006  -1.0672421068e-003
  6.8818750000e+008   2.1525176846e-004  -7.6381313083e-004   9.9302127450e-001  -7.5123409257e-003   9.9988411902e-001  -3.3368732665e-003   4.6171327886e-005  -1.0812521543e-003
  6.9677500000e+008   1.3005503497e-004  -9.3570934125e-004   9.9383610532e-001  -6.7776342205e-003   1.0003202462e+000  -3.1846582231e-003  -2.0582171600e-004  -1.2517837249e-003
  7.0536250000e+008  -3.5843933207e-004  -1.1319438878e-003   9.9410512724e-001  -7.0965432225e-003   1.0005706772e+000  -2.8802251463e-003  -3.5349326360e-004  -1.4600901346e-003
  7.1395000000e+008  -6.5692828756e-004  -9.9375862611e-004   9.9416101348e-001  -6.7862103726e-003   1.0000135193e+000  -3.2167767554e-003  -6.0151563560e-004  -1.3297001368e-003
  7.2253750000e+008  -1.0879624164e-003  -7.6363423306e-004   9.9184340512e-001  -7.1450837538e-003   9.9977065327e-001  -2.8867510262e-003  -7.1060448466e-004  -1.2416354850e-003
  7.3112500000e+008  -1.1037794486e-003  -3.9982903936e-004   9.9111534502e-001  -7.6779890938e-003   1.0008835411e+000  -2.5738364535e-003  -1.0822691091e-003  -1.1025794463e-003
  7.3971250000e+008  -1.0337578291e-003  -3.6521639252e-005   9.8739735595e-001  -1.0398209849e-002   1.0001879630e+000  -3.6745260077e-003  -1.1887499504e-003  -7.5881524062e-004
  7.4830000000e+008  -1.0909394444e-003   5.2257278361e-004   9.8754553682e-001  -8.9064267778e-003   9.9947384150e-001  -2.8304325710e-003  -1.1227043210e-003  -5.6324615892e-004
  7.5688750000e+008  -7.4885183080e-004   7.2198946853e-004   9.8703224539e-001  -9.2867079085e-003   9.9901658434e-001  -3.4620881646e-003  -1.0601748405e-003  -1.8742993899e-004
  7.6547500000e+008  -1.0264184815e-004   8.4609119629e-004   9.9069048005e-001  -8.5900839328e-003   9.9917447028e-001  -3.5312643613e-003  -1.2306321746e-003  -5.7233901409e-006
  7.7406250000e+008   1.5986157195e-004   7.9840330198e-004   9.9041188667e-001  -8.1782549111e-003   9.9921966237e-001  -2.7515578574e-003  -9.8184835992e-004   3.0637243766e-004
  7.8265000000e+008   4.7386162222e-004   5.1775556683e-004   9.8974566558e-001  -8.9315103069e-003   9.9984818784e-001  -2.3731974358e-003  -7.9963579487e-004   6.0280915063e-004
  7.9123750000e+008   7.0923531208e-004   3.3977634092e-004   9.9088067852e-001  -7.7090599601e-003   1.0001139715e+000  -2.8155101432e-003  -8.7485087800e-004   5.4731569522e-004
  7.9982500000e+008   6.7963696316e-004   2.5826088931e-004   9.9143909901e-001  -7.3296674094e-003   1.0004426360e+000  -2.3355202136e-003  -5.6160979439e-004   7.6689477527e-004
  8.0841250000e+008   8.3264158900e-004   8.4946761105e-005   9.9103072604e-001  -7.5777308875e-003   9.9972564976e-001  -2.2565948315e-003  -5.6707216730e-004   8.3227202050e-004
  8.1700000000e+008   1.0279047240e-003  -1.2514996277e-004   9.9257367528e-001  -6.4377639919e-003   9.9968451025e-001  -2.9929559030e-003  -5.2911843537e-004   8.6934163645e-004
  8.2558750000e+008   1.0091400381e-003  -4.4779977639e-004   9.9093820004e-001  -7.3387404031e-003   1.0000607746e+000  -3.1468932242e-003  -5.4639742971e-004   9.6112106077e-004
  8.3417500000e+008   9.5078030052e-004  -9.6271176450e-004   9.9033360949e-001  -7.9623166301e-003   1.0013563195e+000  -3.0915682436e-003  -3.2528660106e-004   1.2228235953e-003
  8.4276250000e+008   6.5810256132e-004  -1.2549694188e-003   9.8961240390e-001  -7.8853799998e-003   9.9954089158e-001  -3.3326601521e-003  -2.0209581277e-004   1.3902820998e-003
  8.5135000000e+008   8.2621497464e-005  -1.3211407770e-003   9.9173886432e-001  -8.4378062410e-003   1.0009680018e+000  -3.4702884556e-003   2.9740970181e-004   1.5244072834e-003
  8.5993750000e+008  -1.2730802734e-004  -1.2379496418e-003   9.9269284524e-001  -7.7170722661e-003   9.9995721658e-001  -3.9428404233e-003   3.9563079924e-004   1.3367657535e-003
  8.6852500000e+008  -5.2445726857e-004  -9.5562677007e-004   9.9099142937e-001  -8.8125248015e-003   1.0002622579e+000  -2.8202642680e-003   8.5734145676e-004   9.8171519923e-004
  8.7711250000e+008  -5.5230325857e-004  -5.8853847009e-004   9.8870114980e-001  -9.2383434103e-003   1.0006238568e+000  -3.5898979204e-003   6.8021297001e-004   4.5822243206e-004
  8.8570000000e+008  -3.7980149867e-004  -4.5451662305e-004   9.9228299398e-001  -6.8464791415e-003   9.9984606510e-001  -3.0957844759e-003   7.0791044703e-004   2.1680832683e-004
  8.9428750000e+008  -3.7245354290e-004  -1.4483318383e-004   9.9176715140e-001  -8.7843569450e-003   9.9957782687e-001  -3.4481470933e-003   3.8437132118e-004  -2.7011201804e-004
  9.0287500000e+008  -4.7685007258e-005  -1.8466120642e-004   9.9204405462e-001  -8.7507748129e-003   9.9942152091e-001  -4.2508793441e-003   2.2576149172e-004  -4.8569023727e-004
  9.1146250000e+008   3.5227082742e-004  -2.6803625363e-004   9.9208727294e-001  -9.6049246469e-003   9.9893213126e-001  -3.7279707180e-003  -3.3822877190e-004  -6.6317908995e-004
  9.2005000000e+008   3.4867346623e-004  -3.6115044126e-004   9.9239661237e-001  -8.3863908379e-003   9.9805248204e-001  -3.5041563542e-003  -6.0373857942e-004  -7.5980123302e-004
  9.2863750000e+008   5.1895810416e-004  -4.9050899777e-004   9.9318053924e-001  -6.4154527445e-003   9.9948597725e-001  -4.2372877636e-003  -7.1346810728e-004  -7.5226873260e-004
  9.3722500000e+008   3.7888202064e-004  -9.4424371773e-004   9.9239057791e-001  -7.1842448043e-003   9.9857812502e-001  -3.7551087421e-003  -1.1167753545e-003  -7.7779067020e-004
  9.4581250000e+008   3.8672141333e-004  -1.0289458084e-003   9.9158360543e-001  -6.8487035033e-003   9.9859069447e-001  -3.1198531192e-003  -1.3328322733e-003  -6.1691180020e-004
  9.5440000000e+008   3.2844165888e-005  -1.2055504730e-003   9.9079270045e-001  -8.2316404406e-003   1.0001981175e+000  -3.0217050258e-003  -1.5081225199e-003  -4.2975780594e-004
  9.6298750000e+008  -3.3220878967e-004  -1.4213019525e-003   9.9235708800e-001  -7.6020627200e-003   9.9878244983e-001  -4.2961124212e-003  -1.6504366379e-003  -1.6012813761e-004
  9.7157500000e+008  -4.8397979000e-004  -1.2048982262e-003   9.9131832590e-001  -8.8120669878e-003   1.0000590623e+000  -3.8555938458e-003  -1.5582159441e-003  -1.4558212548e-004
  9.8016250000e+008  -9.0295216924e-004  -9.6040772865e-004   9.9126446131e-001  -7.9982234819e-003   9.9959255429e-001  -4.3777930328e-003  -1.4904533335e-003   9.5409346745e-005
  9.8875000000e+008  -1.0835964316e-003  -6.9981819616e-004   9.9174911240e-001  -6.8630149425e-003   9.9926130759e-001  -3.4607427218e-003  -1.3754422287e-003   1.3995226939e-004
  9.9733750000e+008  -1.1255361408e-003  -3.0505192076e-004   9.9070211768e-001  -8.4828056794e-003   9.9956851591e-001  -3.1944404166e-003  -1.2956499540e-003   1.1906453452e-004
  1.0059250000e+009  -1.0810067342e-003   1.0230058399e-004   9.9328744830e-001  -6.4798524134e-003   1.0004107177e+000  -3.8837597972e-003  -9.1065572698e-004   3.1874160336e-004
  1.0145125000e+009  -9.2587365615e-004   5.5564479401e-004   9.9298751839e-001  -9.5491564472e-003   9.9919941743e-001  -4.2964603044e-003  -6.5497305618e-004   3.1816671630e-004
  1.0231000000e+009  -6.1332973665e-004   4.9447984979e-004   9.9098547491e-001  -7.6609186505e-003   1.0000453039e+000  -3.7615880820e-003  -3.5385885608e-004   4.3107935815e-004
  1.0316875000e+009  -2.7064138559e-004   8.2034476584e-004   9.9212827279e-001  -8.1909199966e-003   9.9958631592e-001  -4.7567164400e-003  -5.7291357565e-005   2.3130741640e-004
  1.0402750000e+009   1.6951341907e-004   8.1310004114e-004   9.9185000920e-001  -8.5330740821e-003   9.9907320482e-001  -2.8517212634e-003   3.1795205563e-004  -1.8007888481e-005
  1.0488625000e+009   4.5128762276e-004   5.9024262641e-004   9.9111273577e-001  -8.3921793736e-003   9.9932967319e-001  -3.8132786074e-003   5.1467350646e-004  -1.9715151259e-004
  1.0574500000e+009   7.3002227273e-004   2.9858960002e-004   9.9109171673e-001  -8.5875672426e-003   9.9979438416e-001  -3.6193574040e-003   8.2532484045e-004  -3.9354532554e-004
