# Hz S RI R 50.000000
! Metas.Vna.Tools, 2.8.8664.20301
! Metas.Vna.Data, 2.8.8664.20285
! Created: UTC 2024.02.11 10:08:38
! FREQ                re:S1,1             im:S1,1             re:S2,1             im:S2,1             re:S1,2             im:S1,2             re:S2,2             im:S2,2          
  1.3000000000e+008  -1.8771921507e-004  -1.2576324553e-003   9.9508325486e-001  -5.9492785942e-003   1.0011251771e+000   2.5747939390e-004   7.8935818923e-004   9.2693240851e-004
  1.3858750000e+008  -1.8638997297e-004  -1.3325954807e-003   9.9581540662e-001  -4.8969378286e-003   1.0007227198e+000   2.3629666242e-004   9.5492796953e-004  -6.0318418388e-004
  1.4717500000e+008  -1.9204016376e-003  -1.0499769688e-003   9.9505209149e-001  -6.6680109193e-003   1.0005437777e+000   2.3310907791e-004   8.7167956721e-004  -4.0117717317e-004
  1.5576250000e+008  -1.5519405320e-003  -4.5870348886e-004   9.9465456331e-001  -5.4836920665e-003   1.0004022922e+000   5.2852104733e-004   1.3470079802e-003  -8.5791362752e-004
  1.6435000000e+008  -4.5855134954e-004   8.3293759654e-004   9.9506517586e-001  -5.5546938067e-003   1.0010125258e+000  -2.0862226735e-004   8.4825609878e-004  -4.2271893204e-004
  1.7293750000e+008  -1.1190738728e-003   4.4444510007e-004   9.9619787082e-001  -4.6575737306e-003   1.0007557975e+000  -1.7189670892e-006   8.7584656628e-004  -8.7523438528e-004
  1.8152500000e+008  -6.2791154670e-004   4.4368490560e-004   9.9547433047e-001  -6.4278575420e-003   9.9972695092e-001  -1.4673963074e-004   4.6224699780e-004  -7.4940715999e-004
  1.9011250000e+008  -6.0206473383e-004   9.0812277467e-004   9.9670594113e-001  -5.9522783039e-003   1.0007965273e+000   2.3833296775e-004   2.8960341077e-004  -1.4445319051e-003
  1.9870000000e+008  -3.6708571054e-004   8.1972393698e-004   9.9624071306e-001  -4.9232857593e-003   1.0006910329e+000  -7.0804062634e-004   6.3886527416e-004  -2.9949541740e-004
  2.0728750000e+008   5.7289849922e-005   4.7294113316e-004   9.9574154321e-001  -4.8022073938e-003   1.0007167581e+000  -7.7020499801e-004   3.2187525502e-004  -4.0447723913e-004
  2.1587500000e+008   2.7826095737e-005  -2.6532614973e-004   9.9590417404e-001  -5.9035501746e-003   9.9972466280e-001   1.6886046835e-004  -4.0888989689e-004   4.2276915609e-004
  2.2446250000e+008   5.2699000953e-004  -8.1992310344e-004   9.9534358590e-001  -5.0545576282e-003   1.0003182722e+000  -4.9229768721e-004  -7.1857331511e-004   4.3608932749e-005
  2.3305000000e+008  -1.6547888977e-004  -3.7620837168e-004   9.9496054367e-001  -7.0930177733e-003   1.0005266751e+000  -5.2095448229e-004  -4.7947949623e-004   5.9317011202e-005
  2.4163750000e+008  -9.6286137776e-005  -4.2034350634e-004   9.9602818863e-001  -7.0316441938e-003   1.0001195101e+000  -9.6231957195e-004  -6.1196419080e-004   6.3240959057e-005
  2.5022500000e+008  -1.4939384896e-004  -4.6364545825e-004   9.9647148792e-001  -4.9479713505e-003   1.0003507196e+000  -4.3021974137e-004  -1.0148711427e-003   6.1325787761e-004
  2.5881250000e+008  -5.0107562738e-004  -6.6901861392e-004   9.9512829935e-001  -5.8074729487e-003   1.0008962785e+000  -6.6325290848e-004  -8.5337791552e-004   7.3217462742e-004
  2.6740000000e+008  -9.9149280916e-004  -7.1498499860e-004   9.9562744452e-001  -6.8337764241e-003   1.0005910546e+000  -1.9125673084e-003  -4.4321994424e-004   5.7659734249e-004
  2.7598750000e+008  -3.4028596882e-004  -4.7780746112e-004   9.9463964034e-001  -7.4511848822e-003   1.0010463425e+000  -1.8049509256e-004  -3.5067857968e-004   8.6891031700e-004
  2.8457500000e+008  -6.9730171505e-004  -5.4771321076e-004   9.9426056647e-001  -5.5686851486e-003   1.0008814642e+000  -6.0073357609e-004  -3.3491495226e-004   4.1950259776e-004
  2.9316250000e+008  -9.9063106209e-004  -2.9955620272e-004   9.9551924853e-001  -6.1256976810e-003   1.0008591804e+000  -1.5915312184e-003  -4.2852899082e-004   7.7210330978e-004
  3.0175000000e+008  -8.8549057058e-004   3.1766999521e-004   9.9633536445e-001  -7.7182773123e-003   1.0010595340e+000  -6.7073982202e-004  -3.8868231233e-004   4.5517806930e-004
  3.1033750000e+008  -9.9269085122e-004   3.0190907526e-004   9.9672840763e-001  -5.7818994173e-003   1.0008633278e+000  -9.4747950833e-004  -5.0721410498e-004   5.0482026318e-004
  3.1892500000e+008  -9.7963533050e-004   8.7046561983e-005   9.9616160650e-001  -5.6845945531e-003   1.0005732894e+000  -1.7378996831e-004  -4.1789634925e-004   2.6716991328e-004
  3.2751250000e+008  -6.3347735745e-004   3.6828842298e-004   9.9712526700e-001  -7.3415817385e-003   1.0005808555e+000  -1.1505852465e-003  -6.4015123534e-004   1.2949368398e-004
  3.3610000000e+008  -6.5646644910e-004   1.0589052437e-004   9.9718579945e-001  -5.6105658721e-003   1.0008224983e+000  -1.0984051381e-003  -7.5874698764e-004   3.0881968669e-004
  3.4468750000e+008  -5.4691701514e-004   2.5063226719e-004   9.9429209012e-001  -5.9558284122e-003   1.0008436781e+000  -1.2515135385e-003  -6.4378673432e-004   6.9516878682e-005
  3.5327500000e+008  -5.5780592520e-004   1.8401517676e-004   9.9557330372e-001  -6.4312935056e-003   9.9949752909e-001  -7.9769634278e-004  -6.5402602249e-004   2.0259372267e-004
  3.6186250000e+008  -2.7618457649e-004   3.4157425306e-004   9.9705490546e-001  -6.6436854356e-003   1.0012609726e+000  -8.2871239802e-004  -5.8409636392e-004   5.6613189032e-004
  3.7045000000e+008  -7.7911723325e-004   6.5514812574e-004   9.9412542572e-001  -7.3199709826e-003   1.0009138946e+000  -1.3189817413e-003  -6.9643323152e-004   1.7325539394e-004
  3.7903750000e+008  -2.0885228923e-004   5.5020554109e-004   9.9514726549e-001  -6.1616286075e-003   1.0005428533e+000  -1.1461844002e-003  -6.0534091386e-004   1.4212982215e-004
  3.8762500000e+008  -1.3500242632e-005   4.7867122589e-004   9.9907076356e-001  -6.1455543577e-003   1.0003961296e+000  -8.1401301267e-004  -2.7949865203e-004   4.3542007828e-004
  3.9621250000e+008  -8.4793208972e-005   2.2403217180e-004   9.9590743454e-001  -6.8856008332e-003   1.0006833222e+000  -1.2984133668e-003  -4.9032102802e-004   4.1165704315e-004
  4.0480000000e+008  -1.3678875324e-005   1.4585656677e-004   9.9675173650e-001  -6.9630092242e-003   1.0001627511e+000  -1.2316598463e-003  -1.2015981951e-004   3.2786000454e-004
  4.1338750000e+008   1.8888305142e-004  -9.2863226949e-006   9.9664860265e-001  -5.3674544510e-003   1.0008413438e+000  -1.1360380155e-003   1.1791555627e-004   4.4804122836e-004
  4.2197500000e+008   1.4456842225e-004  -1.9192186100e-005   9.9665955665e-001  -6.8530246064e-003   1.0007456768e+000  -1.1035398345e-003   1.8860603622e-004   5.8441774613e-004
  4.3056250000e+008   1.6905406291e-004   1.3074530464e-004   9.9611693540e-001  -6.6641427250e-003   1.0004474293e+000  -1.2032069116e-003   3.4303483131e-004   4.4633441500e-004
  4.3915000000e+008   1.5488367192e-004  -1.0339994713e-004   9.9802890579e-001  -5.7535110258e-003   1.0005140055e+000  -1.3514455655e-003   7.1892425409e-004   3.0340758459e-004
  4.4773750000e+008   1.2051677823e-004  -3.9460674540e-004   9.9826817809e-001  -5.7782873639e-003   1.0004680951e+000  -1.7466759166e-003   5.6910018589e-004   2.0300843414e-004
  4.5632500000e+008  -7.6230546542e-005  -5.1690466799e-004   9.9620129152e-001  -5.9114321496e-003   1.0006378469e+000  -1.1578679636e-003   6.8883903825e-004   2.7173056793e-004
  4.6491250000e+008  -3.9696266491e-004   5.3028585069e-005   9.9550811535e-001  -7.0123871889e-003   1.0001687246e+000  -1.4834311755e-003   5.9550284059e-004  -3.7443121778e-005
  4.7350000000e+008  -4.5300840705e-004  -2.8480323148e-004   9.9519688386e-001  -5.9909758279e-003   1.0004370865e+000  -1.3229016192e-003   5.9494981374e-004  -7.3357892960e-005
  4.8208750000e+008  -4.0676922277e-004   6.6280651186e-006   9.9439430811e-001  -6.5005062798e-003   9.9975235162e-001  -1.1109326963e-003   5.6240073052e-004   6.3263212781e-005
  4.9067500000e+008   9.4741510007e-005  -2.4335290047e-004   9.9316395019e-001  -6.8477222821e-003   1.0002419985e+000  -1.6193872236e-003   5.7809934340e-004   2.0228308486e-005
  4.9926250000e+008  -1.2900160624e-004  -3.5004435095e-004   9.9264226993e-001  -7.1778517453e-003   9.9995468454e-001  -1.2030768589e-003   6.1477901347e-004  -4.1349973984e-005
  5.0785000000e+008  -5.7120055237e-004  -3.0115599376e-004   9.9366711644e-001  -6.7602391084e-003   9.9974110172e-001  -7.1973591269e-004   4.4187397984e-004   1.7862950704e-004
  5.1643750000e+008  -6.8967658583e-004   2.3025879140e-004   9.9279617454e-001  -6.1172102525e-003   1.0005642322e+000  -1.0205170398e-003   7.0489459496e-004  -1.8936559489e-004
  5.2502500000e+008  -3.6884083927e-004   5.4802907568e-004   9.9373735811e-001  -4.7302067918e-003   1.0009841737e+000  -7.6677033524e-004   2.3876311109e-004  -4.9914735561e-004
  5.3361250000e+008   4.7127778049e-004   3.9713248205e-004   9.9581764175e-001  -6.9638609658e-003   1.0001615973e+000  -1.3093167577e-003   4.3136644999e-005  -6.4701819059e-004
  5.4220000000e+008   7.0576468293e-004   1.2657421638e-004   9.9454204017e-001  -6.7370231280e-003   1.0007089450e+000  -1.3357342241e-003  -6.6037793766e-004  -3.4260652387e-004
  5.5078750000e+008   5.9029976403e-004  -5.2936424496e-004   9.9491618540e-001  -7.4486981998e-003   9.9993464262e-001  -1.8115940839e-003  -8.5367036625e-004  -1.3274215192e-004
  5.5937500000e+008   4.3279006101e-004  -6.6834073220e-004   9.9458841241e-001  -6.6336666128e-003   1.0001733254e+000  -1.7310821570e-003  -1.1370791644e-003   1.1698240817e-004
  5.6796250000e+008   3.1255371280e-004  -8.3431355165e-004   9.9456939964e-001  -6.8324151291e-003   1.0002728679e+000  -1.6367274641e-003  -1.0116950863e-003   5.1636784831e-004
  5.7655000000e+008  -2.6309992461e-004  -9.4264300524e-004   9.9520551706e-001  -9.2761722169e-003   1.0010350380e+000  -2.3854184305e-003  -9.7519209855e-004   7.4951438029e-004
  5.8513750000e+008  -4.9752292668e-004  -9.2483983490e-004   9.9588149385e-001  -7.8023956472e-003   9.9965492239e-001  -1.9269302282e-003  -9.2526473094e-004   8.5418613467e-004
  5.9372500000e+008  -5.4465879593e-004  -9.8685956461e-004   9.9277399160e-001  -6.8505691080e-003   9.9950642233e-001  -2.7805461816e-003  -7.0227769561e-004   1.0189505021e-003
  6.0231250000e+008  -9.2524278748e-004  -4.7358475165e-004   9.9478073713e-001  -6.4538134255e-003   1.0006724490e+000  -1.6570323509e-003  -5.6326714834e-004   9.6629122623e-004
  6.1090000000e+008  -8.9830301291e-004  -4.0192048149e-004   9.9512840694e-001  -8.8485371448e-003   9.9941279521e-001  -9.2963541409e-004  -4.7501375968e-004   1.0938300935e-003
  6.1948750000e+008  -7.4639563964e-004  -2.2469610873e-004   9.9402743681e-001  -6.2795530949e-003   9.9991709013e-001  -2.2384442938e-003  -3.5477935742e-004   6.8746792412e-004
  6.2807500000e+008  -8.8113611586e-004   1.0141174269e-005   9.9401172710e-001  -7.9605361961e-003   1.0002627830e+000  -2.1932305359e-003   6.6946621447e-005   4.4774265952e-004
  6.3666250000e+008  -4.4248213830e-004   3.4152652644e-004   9.9635000385e-001  -6.7270657882e-003   1.0006008877e+000  -1.9773095987e-003   1.1620425302e-004   3.1013955087e-004
  6.4525000000e+008  -1.4254339336e-004   2.9825976002e-004   9.9633126636e-001  -5.6298435126e-003   1.0004853827e+000  -2.0440385307e-003   3.9493217812e-004   6.3654864603e-005
  6.5383750000e+008   8.4172772693e-005   1.3713252560e-004   9.9579179274e-001  -7.4655059911e-003   9.9978130403e-001  -1.2095474626e-003   4.2279625264e-004  -9.3418562323e-005
  6.6242500000e+008   3.3929829289e-004   1.3771013391e-004   9.9326822129e-001  -7.2259124761e-003   1.0011395260e+000  -1.9058717852e-003   4.2012107259e-004  -3.7367232238e-004
  6.7101250000e+008   2.8440465457e-004  -1.2552938439e-004   9.9610661186e-001  -6.6513900821e-003   1.0000542546e+000  -1.2854225893e-003   3.4443942747e-004  -7.7476271833e-004
  6.7960000000e+008   6.9827174085e-004  -4.6982313366e-004   9.9555986901e-001  -7.4225147469e-003   1.0007769143e+000  -1.9213293949e-003   2.5512515515e-004  -9.7515104500e-004
  6.8818750000e+008   1.6363362627e-004  -7.5876154702e-004   9.9445914146e-001  -6.2858880681e-003   1.0001834498e+000  -2.2964785656e-003   2.3840471884e-005  -1.1239946435e-003
  6.9677500000e+008   2.4251157497e-004  -9.0977617298e-004   9.9392877756e-001  -6.6123756699e-003   1.0000183305e+000  -1.8187646107e-003  -4.6839461024e-005  -1.0709209901e-003
  7.0536250000e+008  -2.4468742107e-004  -1.0293987260e-003   9.9451159486e-001  -6.7656303371e-003   1.0002931347e+000  -1.9788178558e-003  -3.2124831369e-004  -1.3084105725e-003
  7.1395000000e+008  -6.0181956836e-004  -1.0557384725e-003   9.9304597122e-001  -6.9853169505e-003   1.0003815226e+000  -1.8516663356e-003  -5.5038785924e-004  -1.1230192115e-003
  7.2253750000e+008  -1.1548108687e-003  -8.2180262779e-004   9.9258403882e-001  -7.9751343704e-003   9.9985526300e-001  -2.3880197087e-003  -9.0363198077e-004  -1.3800781552e-003
  7.3112500000e+008  -1.0993120947e-003  -3.8855295919e-004   9.9377947150e-001  -7.5189449292e-003   1.0002226834e+000  -1.5021281681e-003  -9.0445926424e-004  -1.1830970474e-003
  7.3971250000e+008  -1.1464775415e-003  -2.2967764203e-004   9.9385477105e-001  -7.9969078707e-003   9.9960555182e-001  -2.5538865911e-003  -1.1923417483e-003  -7.9947341819e-004
  7.4830000000e+008  -1.0330096434e-003   3.2099021027e-004   9.9501997339e-001  -6.5022309257e-003   9.9940909281e-001  -2.4130380926e-003  -9.2707927808e-004  -7.1099623899e-004
  7.5688750000e+008  -8.5086589037e-004   6.4354956835e-004   9.9361398062e-001  -8.4415078738e-003   9.9904475476e-001  -2.2788428682e-003  -1.1956802177e-003  -2.8379434265e-004
  7.6547500000e+008  -2.6736582421e-004   7.5411991926e-004   9.9512789100e-001  -7.7507754659e-003   9.9996874541e-001  -2.1812983973e-003  -1.3183889444e-003  -1.6422975134e-004
  7.7406250000e+008   2.3703328425e-005   8.5688798720e-004   9.9437158064e-001  -7.7193311259e-003   1.0005192982e+000  -2.1079630677e-003  -8.8633826045e-004   3.0147757449e-004
  7.8265000000e+008   3.9064729220e-004   7.0672994270e-004   9.9359109732e-001  -7.5548461209e-003   1.0001051643e+000  -1.8843595600e-003  -7.8207052661e-004   6.3456347154e-004
  7.9123750000e+008   6.2608794326e-004   4.5248671963e-004   9.9333644392e-001  -7.4877747432e-003   9.9957003522e-001  -1.5936315967e-003  -7.9104821060e-004   5.7173511550e-004
  7.9982500000e+008   7.0782112470e-004   2.0965802935e-004   9.9098019574e-001  -6.7956463388e-003   1.0008964356e+000  -1.9657476994e-003  -3.9972161344e-004   7.7725027006e-004
  8.0841250000e+008   1.1317874542e-003   1.2136150864e-004   9.9157118508e-001  -8.9676947398e-003   9.9981577045e-001  -1.6488243103e-003  -6.0746621486e-004   9.8830237077e-004
  8.1700000000e+008   1.1816277371e-003  -1.9821269185e-004   9.9186705481e-001  -7.4376561107e-003   1.0004502374e+000  -1.6746160602e-003  -4.0417614859e-004   9.8907025758e-004
  8.2558750000e+008   1.0986788222e-003  -5.7002061943e-004   9.9281585808e-001  -6.8792348700e-003   9.9966169127e-001  -2.4225110176e-003  -4.9423376010e-004   1.0932577219e-003
  8.3417500000e+008   1.0955946789e-003  -1.1742616667e-003   9.9250661403e-001  -8.8064758990e-003   1.0005003652e+000  -2.8643665319e-003  -1.7371325556e-004   1.3108244449e-003
  8.4276250000e+008   6.0457321205e-004  -1.2244526161e-003   9.9197184729e-001  -7.0870657070e-003   9.9887602496e-001  -3.2154239527e-003   4.1468157195e-006   1.3070081613e-003
  8.5135000000e+008   9.2736411339e-005  -1.3175762311e-003   9.9209305498e-001  -8.1900477597e-003   1.0003339950e+000  -1.8628633158e-003   2.9011735847e-004   1.3052795041e-003
  8.5993750000e+008  -2.1177904551e-004  -1.3262760637e-003   9.9286717619e-001  -8.2184977036e-003   9.9960343463e-001  -2.7701998034e-003   4.4285663073e-004   1.1272984241e-003
  8.6852500000e+008  -5.9128035074e-004  -9.2916623033e-004   9.8835581464e-001  -9.5334163710e-003   9.9948618565e-001  -2.4230000768e-003   6.5579461929e-004   7.1920197387e-004
  8.7711250000e+008  -5.1110645923e-004  -7.8845438207e-004   9.9191671137e-001  -9.1933033556e-003   1.0005029512e+000  -2.8518572928e-003   7.2940381183e-004   3.9315567483e-004
  8.8570000000e+008  -3.7609443999e-004  -4.1383455350e-004   9.9426527075e-001  -6.8506707904e-003   9.9937900455e-001  -2.3077724573e-003   5.0537986473e-004   1.4646669391e-004
  8.9428750000e+008  -4.2090076922e-004  -2.9182311628e-004   9.9182591766e-001  -8.6860269193e-003   9.9997922634e-001  -3.3893498610e-003   1.8695915791e-004  -3.5510551917e-004
  9.0287500000e+008   4.7656306578e-006  -2.0827789208e-004   9.9268117516e-001  -8.6629082436e-003   9.9970814087e-001  -3.3269021369e-003  -1.3193675216e-004  -4.6444691848e-004
  9.1146250000e+008   7.3392882815e-005  -2.7270558088e-004   9.9275893740e-001  -8.4719204362e-003   9.9867801570e-001  -2.8971590956e-003  -5.0331739000e-004  -4.7577048589e-004
  9.2005000000e+008   1.5823606631e-004  -4.0015350175e-004   9.9258474601e-001  -8.5586001556e-003   9.9897076591e-001  -1.6158489281e-003  -7.5180389997e-004  -5.7688459671e-004
  9.2863750000e+008   4.7811711701e-004  -5.4908033333e-004   9.9324817728e-001  -8.5039084706e-003   9.9966214796e-001  -3.1531525985e-003  -8.3779035387e-004  -6.7354453478e-004
  9.3722500000e+008   3.6389505094e-004  -8.9899495715e-004   9.9189912140e-001  -8.5282272977e-003   9.9862409399e-001  -3.2756901381e-003  -1.1807535652e-003  -5.9084995957e-004
  9.4581250000e+008   2.3029468265e-004  -1.1162012107e-003   9.9091911420e-001  -8.2094893662e-003   9.9922644692e-001  -2.2816141992e-003  -1.4402924820e-003  -4.7135273405e-004
  9.5440000000e+008   2.9932665403e-005  -1.3466136526e-003   9.8970379900e-001  -8.2968642135e-003   9.9992897045e-001  -2.1163134159e-003  -1.5120450195e-003  -3.3945983195e-004
  9.6298750000e+008  -3.2104195812e-004  -1.3036227198e-003   9.9272209069e-001  -8.8760378804e-003   9.9900205275e-001  -4.0915196906e-003  -1.6610976243e-003  -2.8050982898e-005
  9.7157500000e+008  -5.9987879480e-004  -1.2996200009e-003   9.9276998961e-001  -9.2798177454e-003   1.0003145802e+000  -2.5338582593e-003  -1.5526832505e-003  -1.4230248065e-004
  9.8016250000e+008  -8.1618241672e-004  -1.0148167288e-003   9.9220549429e-001  -8.1620463145e-003   9.9991201526e-001  -3.9937066304e-003  -1.4382285577e-003   5.5590220819e-005
  9.8875000000e+008  -1.1563394351e-003  -6.9254045175e-004   9.9075425095e-001  -8.8127342810e-003   9.9921746817e-001  -2.6427156848e-003  -1.3091317454e-003   3.7549598958e-004
  9.9733750000e+008  -1.1003897005e-003  -4.4254475192e-004   9.9063335456e-001  -8.7058784974e-003   9.9961005439e-001  -1.9392610636e-003  -1.1981509179e-003   1.5795447508e-004
  1.0059250000e+009  -1.0002151157e-003   1.5692861651e-006   9.9334660637e-001  -8.8211090828e-003   1.0004381126e+000  -3.0309729924e-003  -8.5682056897e-004   2.8166801818e-004
  1.0145125000e+009  -9.2151320499e-004   2.7295423478e-004   9.9166070875e-001  -1.0991168083e-002   9.9975379944e-001  -2.5843394645e-003  -4.4690693823e-004   2.7115894578e-004
  1.0231000000e+009  -5.3413283812e-004   5.6537288593e-004   9.9228682806e-001  -8.1022063433e-003   9.9973413979e-001  -2.4001336915e-003  -2.3561603252e-004   2.0322701233e-004
  1.0316875000e+009  -3.0447490346e-004   8.0712725562e-004   9.9228488392e-001  -8.2622747575e-003   9.9900449112e-001  -3.2086740677e-003   9.2499049505e-005   1.2625514166e-004
  1.0402750000e+009   1.1294963728e-004   7.0833669315e-004   9.9096382849e-001  -9.5028219771e-003   9.9967932398e-001  -2.0207735490e-003   4.5630338220e-004  -1.3267388968e-004
  1.0488625000e+009   4.3190657143e-004   5.4138843705e-004   9.9128669935e-001  -8.1178780247e-003   9.9965978181e-001  -2.9180204582e-003   6.6160318140e-004  -2.1447662327e-004
  1.0574500000e+009   6.5750093262e-004   3.1254340783e-004   9.9312747508e-001  -8.4361429023e-003   9.9960098350e-001  -2.8126670129e-003   9.2750982467e-004  -5.6381961226e-004
