# Hz S RI R 50.000000
! Metas.Vna.Tools, 2.8.8664.20301
! Metas.Vna.Data, 2.8.8664.20285
! Created: UTC 2024.02.11 10:08:14
! FREQ                re:S1,1             im:S1,1             re:S2,1             im:S2,1             re:S1,2             im:S1,2             re:S2,2             im:S2,2          
  1.3000000000e+008   5.1518546043e-004  -1.2752824145e-003   9.9503123086e-001  -4.8658500952e-003   1.0007650996e+000  -1.2020725387e-003   8.0803425999e-004   5.7432090447e-004
  1.3858750000e+008  -5.6612396718e-004  -1.2468008967e-003   9.9681720054e-001  -4.1011286628e-003   1.0002044734e+000  -3.2515524836e-004   1.4482934094e-003  -6.5345369275e-005
  1.4717500000e+008  -1.4410883720e-003  -1.0366304292e-003   9.9759978179e-001  -5.7182071047e-003   1.0004896960e+000  -1.3917363676e-003   8.1153640019e-004  -3.8816915796e-004
  1.5576250000e+008  -1.3040526663e-003   9.1995925302e-005   9.9870902792e-001  -4.5435523170e-003   1.0001553349e+000  -5.9406798139e-004   1.2441314001e-003  -5.2113959962e-004
  1.6435000000e+008  -8.6189301472e-004   8.5986358046e-004   9.9772863911e-001  -4.4383817702e-003   1.0009734332e+000  -1.0390165016e-003   9.6294348926e-004  -3.2091236557e-004
  1.7293750000e+008  -9.2300123368e-004   2.8579435357e-004   9.9814144941e-001  -4.0328426206e-003   1.0005249684e+000  -1.2331358053e-003   5.2803769513e-004  -7.5073531101e-004
  1.8152500000e+008  -3.4303476970e-006   3.3616832905e-004   9.9661432738e-001  -4.9157237104e-003   1.0000886138e+000  -1.5312939123e-003   6.5732374148e-004  -4.7248933962e-004
  1.9011250000e+008  -5.5432460913e-004   4.1001284466e-004   9.9744308856e-001  -5.5850513775e-003   1.0008925370e+000  -1.6780252810e-003   1.9674708852e-004  -8.8336824199e-004
  1.9870000000e+008  -3.9579641689e-004   5.1914156219e-004   9.9773114586e-001  -4.7195638684e-003   1.0007235332e+000  -8.9560095949e-004   7.5131265932e-004  -3.0595783827e-004
  2.0728750000e+008   2.4054241055e-004   3.9092122472e-004   9.9566888067e-001  -4.0543196159e-003   1.0002886234e+000  -1.3276984241e-003   1.0023654673e-004  -2.7375633615e-004
  2.1587500000e+008  -2.3532320896e-005  -4.9464462503e-004   9.9542672375e-001  -5.4421630947e-003   9.9980143334e-001  -9.4643099976e-004  -7.6150746916e-005   1.8339068458e-004
  2.2446250000e+008  -1.1958052369e-004  -6.1727557356e-004   9.9496538071e-001  -5.0549401564e-003   9.9988252880e-001  -1.3926952305e-003   8.1206295537e-005   2.0936214893e-004
  2.3305000000e+008  -5.8610818568e-005  -2.8946657141e-004   9.9441968972e-001  -6.3703602263e-003   1.0002435886e+000  -1.6430040103e-003   1.1881180754e-004  -7.6544188157e-005
  2.4163750000e+008  -2.3199499086e-004  -4.2396151050e-004   9.9430090676e-001  -7.1475029170e-003   9.9975863622e-001  -2.3054978293e-003  -2.0499896037e-004  -7.0414766477e-005
  2.5022500000e+008  -1.7775794458e-004  -4.0036197073e-004   9.9474152388e-001  -5.0435097921e-003   1.0007279908e+000  -2.3005569145e-003  -9.1476799066e-004   7.3809538434e-004
  2.5881250000e+008  -5.6064873797e-004  -5.9519729923e-004   9.9308829963e-001  -5.5874937778e-003   1.0002898909e+000  -2.3083838586e-003  -5.1021476132e-004   6.9671076675e-004
  2.6740000000e+008  -7.5581070602e-004  -3.6470114355e-004   9.9565467144e-001  -5.6549226291e-003   1.0004214032e+000  -2.1974308116e-003  -4.6534678676e-004   3.1511722053e-004
  2.7598750000e+008  -3.1591567694e-004  -6.5498540235e-004   9.9558791270e-001  -6.1479369504e-003   1.0011937693e+000  -2.1199590070e-003  -4.2181634842e-004   7.0083665918e-004
  2.8457500000e+008  -9.4792431944e-004  -2.6078018149e-004   9.9685444225e-001  -5.6409430216e-003   1.0006815236e+000  -1.3319375413e-003  -9.4372020805e-005   7.3986459293e-004
  2.9316250000e+008  -6.7269330797e-004  -3.4067690441e-004   9.9643982598e-001  -4.6329432323e-003   1.0000313215e+000  -2.0537035352e-003  -2.2209727333e-004   4.9577425859e-004
  3.0175000000e+008  -1.0308553087e-003   6.3733856007e-004   9.9703266158e-001  -7.8403918869e-003   9.9982194852e-001  -1.3117094804e-003  -2.7049406945e-004   2.8515341009e-004
  3.1033750000e+008  -8.6657762070e-004   9.3130555923e-005   9.9555687297e-001  -5.7513204416e-003   1.0010847144e+000  -1.7526960419e-003  -8.2297501155e-004   4.0032231249e-004
  3.1892500000e+008  -9.7220760788e-004   7.4165231729e-005   9.9414415885e-001  -5.9616389340e-003   1.0003677196e+000  -1.9791814039e-003  -8.4784294297e-004   1.5487207465e-004
  3.2751250000e+008  -7.6890778106e-004   4.3663706001e-005   9.9523432989e-001  -6.7807384579e-003   1.0004211465e+000  -2.4731987817e-003  -6.1483285528e-004   1.1706598358e-004
  3.3610000000e+008  -6.8003332612e-004  -3.6236132169e-005   9.9398007961e-001  -6.6369143411e-003   1.0012866957e+000  -2.7056000539e-003  -7.3232351216e-004   6.1299373937e-005
  3.4468750000e+008  -7.4438951657e-004   2.2272044627e-004   9.9464471662e-001  -5.3461615111e-003   1.0005717684e+000  -1.9364741360e-003  -6.7734041798e-004   1.1873752838e-004
  3.5327500000e+008  -4.6111486251e-004   3.9075809067e-004   9.9552695248e-001  -7.0310950882e-003   9.9963357729e-001  -2.8676141255e-003  -7.4878597446e-004   2.3500504045e-006
  3.6186250000e+008  -5.4414094368e-004   2.3460131928e-004   9.9583268767e-001  -5.8950753335e-003   1.0004474725e+000  -2.1862609453e-003  -7.9325107147e-004   1.8590698707e-004
  3.7045000000e+008  -8.6934760945e-004   5.6774085161e-004   9.9497895651e-001  -5.8737056292e-003   1.0007482979e+000  -2.3862530383e-003  -5.9137380677e-004   2.7731484687e-004
  3.7903750000e+008  -3.3536226249e-004   9.5117896142e-004   9.9419928314e-001  -5.9040068469e-003   1.0003231755e+000  -2.2890253068e-003  -6.2974304631e-004   1.9537232560e-004
  3.8762500000e+008  -3.0546146528e-004   3.5506167623e-004   9.9566158890e-001  -5.3840955035e-003   1.0002093253e+000  -2.4327570811e-003  -2.4570549925e-004   2.0087989572e-004
  3.9621250000e+008  -2.4345172109e-005   1.5073454066e-004   9.9555069873e-001  -5.5142345488e-003   1.0005135429e+000  -1.9807874044e-003  -6.4287306416e-004   6.0625100513e-004
  4.0480000000e+008   3.3024409500e-004   2.4230771697e-004   9.9644588887e-001  -6.5730156060e-003   1.0004758556e+000  -1.9463868886e-003  -4.1702618507e-005   2.4917711072e-004
  4.1338750000e+008  -4.4403436293e-005   1.2308651705e-005   9.9619638303e-001  -5.1735499267e-003   1.0010456424e+000  -2.4289544428e-003   8.2111310538e-005   3.7323674183e-004
  4.2197500000e+008  -2.2502512275e-005  -2.3435197328e-004   9.9607235831e-001  -5.6610300254e-003   1.0002890408e+000  -2.4501347472e-003   1.9266549706e-004   5.2808800268e-004
  4.3056250000e+008   2.4610807858e-004  -2.9462613736e-005   9.9611717212e-001  -5.9182198534e-003   1.0006512378e+000  -2.2647955888e-003   5.0074661373e-004   1.8806744021e-004
  4.3915000000e+008   1.7868694314e-005  -2.8481503001e-004   9.9756911743e-001  -5.2614326955e-003   1.0002732369e+000  -2.5955193444e-003   4.8583125950e-004   8.2587197708e-005
  4.4773750000e+008   5.1131816256e-005  -2.8564380457e-004   9.9649507616e-001  -6.0370466393e-003   1.0002889013e+000  -2.8523221803e-003   6.1147887251e-004   9.3969383347e-005
  4.5632500000e+008  -2.0592070979e-004  -2.8123298138e-004   9.9456078286e-001  -5.8357681553e-003   1.0000776713e+000  -2.4743744264e-003   5.3565646017e-004   3.2311850828e-004
  4.6491250000e+008  -2.0381297414e-004  -2.2512966055e-004   9.9494265297e-001  -6.9100768805e-003   9.9991503808e-001  -2.7536077846e-003   6.0218283032e-004   8.7083856234e-005
  4.7350000000e+008  -3.6591427735e-004  -1.4451701133e-004   9.9443177310e-001  -6.8918824602e-003   9.9997492189e-001  -2.7508097512e-003   4.5706271090e-004  -3.4850244270e-005
  4.8208750000e+008  -4.6241466545e-004   1.6857440088e-004   9.9324014835e-001  -6.8351831053e-003   9.9965974943e-001  -2.3854596794e-003   5.4218402080e-004  -1.0062456807e-004
  4.9067500000e+008   4.8062745827e-005  -2.7872564223e-004   9.9152569346e-001  -6.6660983377e-003   9.9992587470e-001  -2.7042999295e-003   1.1583821014e-004  -1.4301962278e-005
  4.9926250000e+008  -5.6989916288e-005  -4.3251091458e-004   9.9259541052e-001  -6.2911513551e-003   9.9960439255e-001  -2.5438477581e-003   3.5144764826e-004  -7.1505970937e-005
  5.0785000000e+008  -5.8571732860e-004  -3.8242057514e-004   9.9450817482e-001  -4.9618832829e-003   9.9974074208e-001  -1.7579406697e-003   5.8845025366e-004   4.2495011980e-004
  5.1643750000e+008  -5.9804024380e-004  -9.8373135021e-005   9.9481963232e-001  -5.1936196346e-003   1.0003576383e+000  -2.2935658472e-003   7.5339057817e-004   6.5083271897e-005
  5.2502500000e+008  -3.8515698216e-004   6.2995129374e-004   9.9633455511e-001  -4.5449929407e-003   1.0005851729e+000  -1.7869200012e-003   4.5662467916e-004  -3.0310345603e-004
  5.3361250000e+008   4.4087045979e-004   4.7205798846e-004   9.9820944504e-001  -6.5160483573e-003   1.0004431564e+000  -2.3697346004e-003   1.3690300164e-004  -5.2933310211e-004
  5.4220000000e+008   6.1298066364e-004   2.2142699895e-004   9.9636855987e-001  -6.8806622009e-003   1.0009062156e+000  -2.6937017842e-003  -7.8131088853e-004  -4.0831506441e-004
  5.5078750000e+008   6.8013649103e-004  -4.7097152275e-004   9.9702819768e-001  -6.7311507344e-003   1.0005932925e+000  -3.1559292678e-003  -9.5457253458e-004  -3.0991249522e-004
  5.5937500000e+008   4.2618953449e-004  -8.4405241065e-004   9.9573920061e-001  -5.1443838932e-003   1.0004327228e+000  -2.7769326251e-003  -9.7244543292e-004   9.6796372271e-005
  5.6796250000e+008   2.8613391203e-004  -7.5791725472e-004   9.9759572673e-001  -6.0635462668e-003   1.0003410259e+000  -3.1558247172e-003  -8.4063405079e-004   4.6416437217e-004
  5.7655000000e+008  -3.8153780878e-004  -1.0454465914e-003   9.9741823508e-001  -7.7840033563e-003   1.0001590191e+000  -3.4666975723e-003  -7.0947977643e-004   7.1659638689e-004
  5.8513750000e+008  -5.4695941610e-004  -9.4878447390e-004   9.9647324238e-001  -7.1603552012e-003   9.9966139202e-001  -3.1160979813e-003  -7.9662154109e-004   8.7323479180e-004
  5.9372500000e+008  -5.4513852608e-004  -6.8674338828e-004   9.9636179168e-001  -5.5124093900e-003   1.0002998844e+000  -3.8690890218e-003  -6.2189330914e-004   9.9595801295e-004
  6.0231250000e+008  -8.5676046915e-004  -4.4684331071e-004   9.9698316283e-001  -5.6407814631e-003   9.9948116734e-001  -3.1949084095e-003  -2.1744753079e-004   8.8652775103e-004
  6.1090000000e+008  -9.3177952143e-004  -2.0819015802e-004   9.9720608628e-001  -6.8314973982e-003   9.9966598960e-001  -2.2599394298e-003  -3.1994611182e-004   9.1793521146e-004
  6.1948750000e+008  -9.7371035983e-004   1.1695084177e-004   9.9502931793e-001  -6.9245403311e-003   9.9977621717e-001  -3.4100144462e-003  -2.5410786924e-004   6.2702554301e-004
  6.2807500000e+008  -7.2431398116e-004   1.5671450374e-004   9.9719144697e-001  -7.9835986844e-003   1.0007364199e+000  -3.4781609051e-003   2.4808023539e-004   3.9257378516e-004
  6.3666250000e+008  -3.4513024879e-004   5.8586487751e-004   9.9844966259e-001  -5.3344521836e-003   1.0007265887e+000  -3.4295990979e-003   1.0393380296e-004   3.0976925716e-004
  6.4525000000e+008  -1.0380151308e-004   4.3750224989e-004   9.9675043630e-001  -4.8982646228e-003   1.0005291054e+000  -2.9392325311e-003   4.1469164399e-004   3.2810375843e-005
  6.5383750000e+008   1.7560860002e-004   2.8444527764e-004   9.9799157308e-001  -6.5769402486e-003   9.9994214561e-001  -2.5322358712e-003   3.4849442109e-004  -1.9621641725e-004
  6.6242500000e+008   3.1905608170e-004   7.4701861880e-005   9.9401655989e-001  -5.0742760601e-003   1.0005334713e+000  -3.6464218804e-003   3.9714857821e-004  -3.4574222191e-004
  6.7101250000e+008   3.6315936706e-004  -1.3839729378e-004   9.9400310286e-001  -5.2030022352e-003   1.0002902372e+000  -2.3898071210e-003   2.0392058700e-004  -6.1700484344e-004
  6.7960000000e+008   6.0183379983e-004  -4.8139233148e-004   9.9333688336e-001  -6.4281641354e-003   1.0002687231e+000  -3.3500248450e-003   4.1969318946e-005  -8.7562681694e-004
  6.8818750000e+008   3.2607280387e-004  -8.5217315624e-004   9.9443775773e-001  -7.2267328180e-003   1.0000940549e+000  -3.2051854770e-003   7.0712190285e-005  -9.5707361761e-004
  6.9677500000e+008   1.1741711795e-004  -1.1147117248e-003   9.9416613453e-001  -7.5483095682e-003   1.0000352720e+000  -3.6583496326e-003  -2.2737252252e-004  -1.1202261512e-003
  7.0536250000e+008  -3.1237343777e-004  -9.3318938323e-004   9.9362923030e-001  -7.1960387456e-003   1.0000296717e+000  -3.4860886841e-003  -2.4890660369e-004  -1.2447073884e-003
  7.1395000000e+008  -7.3377892621e-004  -1.0549275488e-003   9.9400135504e-001  -7.6718191535e-003   1.0003279701e+000  -3.3223849937e-003  -5.3592509777e-004  -1.1526042204e-003
  7.2253750000e+008  -1.1139273183e-003  -6.3522914454e-004   9.9369938753e-001  -6.4579368417e-003   9.9993861339e-001  -3.2485606709e-003  -7.2673370983e-004  -1.1144060979e-003
  7.3112500000e+008  -1.0007264103e-003  -3.3332299419e-004   9.9477167048e-001  -7.3441215263e-003   9.9965721507e-001  -2.6035779793e-003  -8.3982676842e-004  -9.8259299074e-004
  7.3971250000e+008  -1.1632822582e-003   4.1290553870e-005   9.9440150822e-001  -8.2710863691e-003   1.0000623637e+000  -4.6776028219e-003  -1.1013351077e-003  -6.5174020278e-004
  7.4830000000e+008  -8.4834884450e-004   5.2431226157e-004   9.9697360783e-001  -6.1551195510e-003   9.9960731319e-001  -2.9522451248e-003  -9.8386711478e-004  -4.2167569462e-004
  7.5688750000e+008  -6.2771133496e-004   6.4107901749e-004   9.9589378973e-001  -7.1546905333e-003   9.9939422805e-001  -4.0792583473e-003  -1.1315628118e-003  -8.2928449776e-006
  7.6547500000e+008  -6.6065756247e-005   8.6718850817e-004   9.9658921330e-001  -8.1554250668e-003   1.0000233073e+000  -3.5125169058e-003  -1.0006257206e-003   4.0849600093e-005
  7.7406250000e+008   1.0898090587e-004   7.7638056173e-004   9.9630244174e-001  -7.0533788891e-003   1.0000662781e+000  -2.8845538749e-003  -7.6658217224e-004   2.7633884626e-004
  7.8265000000e+008   4.0792409619e-004   5.0973509382e-004   9.9502133938e-001  -6.1168190682e-003   9.9977558598e-001  -3.2238890261e-003  -5.9573975330e-004   7.6589266870e-004
  7.9123750000e+008   5.6013625969e-004   3.0882341397e-004   9.9588719232e-001  -6.4090161856e-003   9.9952403215e-001  -2.9934796466e-003  -5.8197876245e-004   7.3652764952e-004
  7.9982500000e+008   5.2730863728e-004   2.2185247723e-004   9.9602916189e-001  -5.9705351016e-003   1.0000362427e+000  -2.5226643686e-003  -2.5461519115e-004   5.7473625833e-004
  8.0841250000e+008   6.8029520000e-004   1.5903903640e-004   9.9471614993e-001  -7.2677543196e-003   9.9970674456e-001  -3.4799318164e-003  -2.3182208228e-004   7.1408014019e-004
  8.1700000000e+008   1.0259159287e-003  -9.3258801512e-005   9.9546619791e-001  -6.2469163447e-003   1.0006177478e+000  -2.6509906142e-003  -2.1259064382e-004   7.6026839097e-004
  8.2558750000e+008   1.1874923399e-003  -2.8148144107e-004   9.9493185890e-001  -6.5409457801e-003   1.0005259643e+000  -3.4435274995e-003  -3.8244208511e-004   9.3454902971e-004
  8.3417500000e+008   1.0367325860e-003  -8.4156176925e-004   9.9438023723e-001  -7.6294703370e-003   1.0006347863e+000  -3.4926468916e-003  -1.9542609259e-004   1.0189944999e-003
  8.4276250000e+008   6.5413394446e-004  -1.2574476414e-003   9.9381722467e-001  -7.0199839450e-003   1.0000789147e+000  -4.1265675555e-003  -7.6063060704e-005   1.2605438929e-003
  8.5135000000e+008   2.9828898401e-004  -1.1942861410e-003   9.9522655976e-001  -5.7426651319e-003   1.0010167302e+000  -3.2565922793e-003   8.9477898268e-005   1.2783764819e-003
  8.5993750000e+008  -1.5729420705e-004  -1.2616229230e-003   9.9570399983e-001  -7.1973706701e-003   1.0007053829e+000  -4.1260835436e-003   3.3982813070e-004   1.0835371624e-003
  8.6852500000e+008  -4.9835219627e-004  -1.0350166334e-003   9.9423269607e-001  -6.9736042380e-003   1.0001119015e+000  -3.5068564498e-003   5.5483108176e-004   9.2941765898e-004
  8.7711250000e+008  -4.1304454459e-004  -6.8830310640e-004   9.9532126445e-001  -6.7627060094e-003   9.9951445850e-001  -3.9843114520e-003   4.7406870508e-004   3.8867554225e-004
  8.8570000000e+008  -3.7249191970e-004  -3.2610418431e-004   9.9726150795e-001  -5.7335215813e-003   9.9984490377e-001  -4.1916246753e-003   5.9979890941e-004   1.4821647007e-004
  8.9428750000e+008  -2.6083136839e-004  -2.3699037361e-004   9.9547703786e-001  -5.7853428785e-003   1.0003063904e+000  -4.6478708440e-003   3.6239183185e-004  -1.7072926208e-004
  9.0287500000e+008   7.9817783482e-006  -2.4509614865e-005   9.9830428033e-001  -5.1729683120e-003   1.0013505798e+000  -4.8390687494e-003   2.6891376385e-004  -4.0691507033e-004
  9.1146250000e+008   2.3949345053e-004  -1.4274196200e-004   9.9608559506e-001  -7.0229288857e-003   9.9886273419e-001  -4.6961691454e-003  -3.0359026330e-004  -5.2129005427e-004
  9.2005000000e+008   3.5099949595e-004  -4.4865613596e-004   9.9722941521e-001  -6.7778372597e-003   9.9821731869e-001  -3.8016271156e-003  -4.7845394132e-004  -6.3376131960e-004
  9.2863750000e+008   4.3056281152e-004  -6.3557799895e-004   9.9778914886e-001  -6.7736243089e-003   9.9975695692e-001  -4.0422188876e-003  -8.6737898360e-004  -6.0230667944e-004
  9.3722500000e+008   2.9871075742e-004  -7.6255589121e-004   9.9787305078e-001  -6.6011894981e-003   9.9921637521e-001  -4.2628970609e-003  -1.0298969878e-003  -7.7490132125e-004
  9.4581250000e+008   2.8907212041e-004  -1.0635448192e-003   9.9610445272e-001  -5.3305890809e-003   9.9939178116e-001  -3.0085728457e-003  -1.3432777636e-003  -5.4838345610e-004
  9.5440000000e+008  -7.0194282561e-005  -1.2294575342e-003   9.9569496111e-001  -6.8905096020e-003   1.0002516027e+000  -3.5553557312e-003  -1.3719307671e-003  -2.8490248624e-004
  9.6298750000e+008  -4.9883509488e-004  -1.2627395977e-003   9.9762177604e-001  -4.2253350016e-003   9.9980203189e-001  -4.4047820307e-003  -1.3816896590e-003  -1.5152690263e-004
  9.7157500000e+008  -6.4283009251e-004  -1.2883495853e-003   9.9622652034e-001  -6.6601217625e-003   1.0004578475e+000  -4.1241243867e-003  -1.4105443899e-003  -2.9621640278e-005
  9.8016250000e+008  -9.2348582245e-004  -9.4425206670e-004   9.9631352834e-001  -7.2905470458e-003   9.9921277119e-001  -5.0893105302e-003  -1.3796941816e-003   1.6711673847e-004
  9.8875000000e+008  -1.1727463748e-003  -4.9547612749e-004   9.9552271217e-001  -6.4188941403e-003   9.9907729260e-001  -3.0411461692e-003  -1.3114164500e-003   2.1116723554e-004
  9.9733750000e+008  -1.0040132743e-003  -2.2179618665e-004   9.9547663002e-001  -6.8957770831e-003   9.9960157287e-001  -3.5741582600e-003  -1.1394049598e-003   1.6427921808e-004
  1.0059250000e+009  -1.0584761236e-003   1.1213395305e-004   9.9712627387e-001  -6.3793142906e-003   1.0000883834e+000  -4.2550031912e-003  -8.7979742945e-004   3.3653911868e-004
  1.0145125000e+009  -8.4354321387e-004   4.3188472217e-004   9.9650024862e-001  -8.5828169318e-003   9.9999169226e-001  -3.9285112690e-003  -4.0609882313e-004   2.8777959965e-004
  1.0231000000e+009  -5.3644951204e-004   4.9913848507e-004   9.9619390898e-001  -5.7692693206e-003   9.9940775370e-001  -4.1979649513e-003  -1.7104453638e-004   3.1717436672e-004
  1.0316875000e+009  -3.1784609156e-004   7.6697013261e-004   9.9691793888e-001  -7.6734780714e-003   9.9957178131e-001  -4.4375689044e-003   1.1036977473e-004   2.8305682925e-004
  1.0402750000e+009   1.9606395420e-004   6.5755992709e-004   9.9551552798e-001  -7.4331876816e-003   9.9946250605e-001  -3.8685854378e-003   4.5696800259e-004   6.6183131628e-006
  1.0488625000e+009   3.9113527226e-004   4.9734340409e-004   9.9787224349e-001  -6.9200088137e-003   9.9896822643e-001  -4.0034305420e-003   6.9334051785e-004  -3.6917588433e-005
  1.0574500000e+009   6.4732715241e-004   1.8251326004e-004   9.9604015847e-001  -7.2172914913e-003   9.9978813796e-001  -4.2195289621e-003   7.3724086585e-004  -4.4551958913e-004
