# Hz S RI R 50.000000
! Metas.Vna.Tools, 2.8.8664.20301
! Metas.Vna.Data, 2.8.8664.20285
! Created: UTC 2024.02.11 10:08:54
! FREQ                re:S1,1             im:S1,1             re:S2,1             im:S2,1             re:S1,2             im:S1,2             re:S2,2             im:S2,2          
  1.3000000000e+008   3.8211722176e-004  -1.5751264032e-003   9.9309943126e-001  -7.4881179365e-003   1.0000938994e+000   5.7059962529e-004   9.7360101407e-004   3.7647436052e-004
  1.3858750000e+008  -8.4522096641e-004  -1.1451641103e-003   9.9402042888e-001  -6.0252924426e-003   1.0008957927e+000   5.6872093354e-004   1.3365643277e-003   1.3389791319e-004
  1.4717500000e+008  -1.5301057543e-003  -1.3134694020e-003   9.9307993635e-001  -6.1573566102e-003   9.9997066283e-001   4.5679464990e-004   8.6580885437e-004  -4.5527832208e-004
  1.5576250000e+008  -1.1789096164e-003   1.5314041934e-004   9.9388267983e-001  -5.2688059165e-003   1.0004930308e+000   4.5237581357e-004   1.5326598808e-003  -7.5650216925e-004
  1.6435000000e+008  -8.6673465322e-004   7.1085316497e-004   9.9392401944e-001  -5.2798913259e-003   1.0007406362e+000   1.4069227943e-004   7.3728000885e-004  -7.4115385100e-004
  1.7293750000e+008  -8.7185775965e-004   7.5901153555e-004   9.9421390267e-001  -5.4223373001e-003   1.0006592572e+000   1.1340354036e-004   7.2817160362e-004  -7.5143129192e-004
  1.8152500000e+008  -6.9318943537e-004   1.8374664054e-004   9.9166667206e-001  -6.7540580826e-003   1.0001456135e+000   7.3190260831e-005   7.8414695430e-004  -3.2206105336e-004
  1.9011250000e+008  -3.9080559491e-004   7.8286314433e-004   9.9657730602e-001  -5.9311126038e-003   1.0006772124e+000  -1.6102554128e-004   3.0447168578e-004  -1.2283849318e-003
  1.9870000000e+008   2.9928651762e-005   9.4589691923e-004   9.9622384885e-001  -6.0071431276e-003   1.0005303394e+000  -3.1111924051e-004   1.5017958910e-004  -4.4633872769e-004
  2.0728750000e+008   4.0480068951e-004   2.6864835220e-004   9.9474040419e-001  -5.9251982116e-003   1.0002457795e+000  -5.0773390651e-004   1.8266162857e-004  -6.8600074986e-004
  2.1587500000e+008   2.4690421363e-004  -5.5013269468e-004   9.9545359311e-001  -5.3131403375e-003   9.9973048033e-001  -4.3344185042e-005  -4.4986760658e-004  -1.2919610921e-004
  2.2446250000e+008   1.8659169612e-004  -4.8469477605e-004   9.9503777539e-001  -6.5884268964e-003   9.9995002653e-001  -1.7008414617e-004  -6.5073060090e-004   4.9684406261e-004
  2.3305000000e+008   2.4062091309e-004   2.0627097398e-004   9.9453640451e-001  -6.3266638856e-003   1.0004562356e+000  -1.9720479064e-004  -1.8810664832e-004  -1.2802086732e-004
  2.4163750000e+008  -1.6098545916e-004  -4.7652794508e-004   9.9489409045e-001  -6.1267062301e-003   1.0005637738e+000  -4.5517432960e-004  -7.0999959982e-004   2.7018384775e-005
  2.5022500000e+008  -5.3125325575e-004  -3.7402991099e-004   9.9572936623e-001  -6.7013481814e-003   1.0007602843e+000  -1.2091013040e-003  -1.0267323714e-003   6.3783776136e-004
  2.5881250000e+008  -7.4274961839e-004  -7.5599312548e-004   9.9428239570e-001  -5.6711357234e-003   1.0006172432e+000  -7.9614000219e-004  -6.8222265776e-004   7.3184139220e-004
  2.6740000000e+008  -8.7723841339e-004  -6.0625741579e-004   9.9608086428e-001  -6.9073218241e-003   1.0005703197e+000  -9.4134166631e-004  -5.8126920291e-004   1.6514052400e-004
  2.7598750000e+008  -3.6283970068e-004  -5.3762486212e-004   9.9396269989e-001  -7.2599932584e-003   1.0005316217e+000  -1.6984964327e-004  -4.0251334858e-004   6.0915196939e-004
  2.8457500000e+008  -7.8811239827e-004  -5.6594894482e-004   9.9522043100e-001  -6.0028269519e-003   1.0007657246e+000   1.8695527366e-004  -3.9365167572e-004   8.3838518201e-004
  2.9316250000e+008  -5.6911668219e-004  -6.6872078886e-004   9.9484711607e-001  -6.3891452621e-003   1.0005862111e+000  -1.0329882450e-003  -3.6559875957e-004   4.3774227549e-004
  3.0175000000e+008  -1.0108132752e-003   2.2274805141e-004   9.9458266138e-001  -7.4771049553e-003   1.0002785320e+000  -1.1056874365e-004  -4.6364266183e-004   2.4268344012e-004
  3.1033750000e+008  -8.7288083266e-004   2.1631993966e-004   9.9631656934e-001  -5.7501829397e-003   1.0007551511e+000  -4.6302806290e-004  -8.0441904700e-004   5.7958090207e-004
  3.1892500000e+008  -9.9335734297e-004  -9.7095143918e-005   9.9420951496e-001  -5.6909745749e-003   1.0005611442e+000   4.6116170266e-004  -8.1554878078e-004   3.7321013208e-004
  3.2751250000e+008  -7.4417109090e-004  -9.3614247730e-005   9.9669539982e-001  -8.4329115812e-003   1.0000507788e+000  -1.2863693106e-003  -4.7427633763e-004   4.5270042194e-004
  3.3610000000e+008  -8.5549116971e-004   9.0227128986e-005   9.9568440828e-001  -5.2257055868e-003   1.0016606272e+000  -1.2143035586e-003  -5.6297990812e-004   2.3499059002e-004
  3.4468750000e+008  -4.9225809785e-004   2.4511709413e-004   9.9523123909e-001  -6.5425350645e-003   1.0010322358e+000  -7.5601435295e-004  -3.8725677461e-004   3.1947579681e-004
  3.5327500000e+008  -5.5115814827e-004   5.9740553482e-004   9.9463926825e-001  -8.1929519257e-003   9.9911657337e-001  -1.5299620602e-003  -5.6019044759e-004   2.3721594949e-004
  3.6186250000e+008  -6.6566786022e-004   2.3856606747e-004   9.9543428109e-001  -6.7434315975e-003   1.0002714943e+000   2.0695663908e-004  -4.4776761116e-004   3.6251152633e-004
  3.7045000000e+008  -8.3359786046e-004   5.4423431525e-004   9.9419363882e-001  -6.7416231178e-003   1.0007012032e+000  -1.0513553678e-003  -5.1129070478e-004   1.7062857872e-004
  3.7903750000e+008  -1.9766743164e-004   6.3380537761e-004   9.9459885612e-001  -6.9748393118e-003   1.0003933346e+000  -6.4110389583e-004  -3.2965180441e-004   2.4974221492e-004
  3.8762500000e+008  -6.5913442939e-005   4.6201773231e-004   9.9729492075e-001  -5.7203088012e-003   1.0001549415e+000  -1.0450535684e-003  -1.8962010154e-004   5.9827579337e-004
  3.9621250000e+008  -9.8005148394e-005  -6.9033548717e-005   9.9479777602e-001  -6.0293542841e-003   1.0002756985e+000  -7.5845193938e-004  -4.6471972813e-004   5.9513553800e-004
  4.0480000000e+008   4.1727445949e-004   3.1272214241e-004   9.9660170258e-001  -7.4140605438e-003   1.0004545897e+000  -5.0332728772e-004  -1.1865473461e-004   2.2658217636e-004
  4.1338750000e+008   4.1413454206e-004   3.1811332040e-004   9.9579552578e-001  -5.2972410251e-003   1.0010961231e+000  -9.0294575852e-004   1.0309216633e-004   2.8416722553e-004
  4.2197500000e+008   4.6718262774e-005  -2.3536503955e-004   9.9599710584e-001  -6.5281947239e-003   1.0009987927e+000  -1.1394351651e-003   1.2859443776e-004   6.3246192183e-004
  4.3056250000e+008   3.0912489300e-004   7.1962351309e-005   9.9543228881e-001  -6.2926446211e-003   1.0007458953e+000  -1.0367656715e-003   3.7589627570e-004   5.3399405338e-004
  4.3915000000e+008   5.7027810745e-005  -2.4260775627e-004   9.9767418289e-001  -6.1619050689e-003   1.0003204547e+000  -1.4422065664e-003   5.9255859324e-004   1.1315550810e-004
  4.4773750000e+008   5.0677314316e-005  -4.8042114108e-004   9.9527465451e-001  -6.9510583502e-003   1.0003797238e+000  -1.5020143205e-003   5.8758751058e-004   1.1461065812e-004
  4.5632500000e+008  -8.0232833033e-005  -1.3657583446e-004   9.9469365927e-001  -6.2052026522e-003   1.0004513674e+000  -1.3871473258e-003   5.5675417138e-004   1.6152418478e-004
  4.6491250000e+008  -3.7109576463e-004  -2.0951015107e-004   9.9539128496e-001  -7.8776482537e-003   9.9993271052e-001  -1.3215900161e-003   5.1488849572e-004   1.6333268174e-004
  4.7350000000e+008  -3.8920087478e-004  -3.5941563313e-004   9.9472198334e-001  -6.2277883718e-003   1.0004990643e+000  -1.3058920911e-003   4.6212890115e-004   1.8164213655e-004
  4.8208750000e+008  -3.7559710922e-004  -5.4811697917e-005   9.9292554864e-001  -6.9172709809e-003   9.9970220642e-001  -1.1289619952e-003   6.5597601396e-004   1.4063452047e-004
  4.9067500000e+008  -8.2027240142e-005  -2.8419075430e-004   9.9310979717e-001  -6.8568215525e-003   1.0004273161e+000  -9.7434273623e-004   4.7235638938e-004  -1.4095961171e-005
  4.9926250000e+008  -8.8658117375e-005  -5.5204783695e-004   9.9376313746e-001  -7.1228303156e-003   1.0001705400e+000  -1.1704248462e-003   7.6354601635e-004  -6.7969021163e-005
  5.0785000000e+008  -6.8236107208e-004  -2.5932569339e-004   9.9230289346e-001  -6.8621049871e-003   9.9966196077e-001  -5.8067827556e-004   3.6671271080e-004   3.1899043184e-004
  5.1643750000e+008  -4.1265699497e-004   1.7765946393e-004   9.9260293805e-001  -6.5669696253e-003   1.0006359786e+000  -1.4288461581e-003   6.0375715917e-004  -1.4448458847e-004
  5.2502500000e+008  -9.5498577182e-005   3.4897963994e-004   9.9415133342e-001  -7.0476814846e-003   1.0003841473e+000  -6.9570612108e-004   2.5202800605e-004  -2.8202236142e-004
  5.3361250000e+008   4.2422285517e-004   1.4238060636e-004   9.9471489149e-001  -7.0578342532e-003   1.0003460049e+000  -9.1582762539e-004  -1.2598744314e-004  -4.7792299648e-004
  5.4220000000e+008   6.0105495994e-004  -1.1129074222e-004   9.9309319050e-001  -8.1562550427e-003   1.0004110952e+000  -1.3390069538e-003  -8.6583301673e-004  -1.5188184670e-004
  5.5078750000e+008   5.4745748308e-004  -6.3440401837e-004   9.9410632021e-001  -8.6203686226e-003   9.9989530279e-001  -1.7825569667e-003  -8.0771489370e-004  -2.1119238706e-004
  5.5937500000e+008   3.1784281112e-004  -5.7080776479e-004   9.9245063006e-001  -6.3542189801e-003   1.0002504478e+000  -1.0847292230e-003  -8.8080433843e-004   2.9835101862e-005
  5.6796250000e+008   2.8040369817e-004  -7.3842978352e-004   9.9023200869e-001  -7.5040487000e-003   1.0004093358e+000  -1.1685503946e-003  -8.3127462941e-004   3.0138969054e-004
  5.7655000000e+008  -1.4497217371e-004  -1.0132347184e-003   9.8993948633e-001  -1.0924603330e-002   1.0004331927e+000  -2.0814800622e-003  -6.1706834954e-004   6.2253597633e-004
  5.8513750000e+008  -5.4559359901e-004  -1.0102086603e-003   9.8861452525e-001  -9.0735160615e-003   9.9954601363e-001  -1.3494494731e-003  -8.3372578460e-004   8.8010404090e-004
  5.9372500000e+008  -6.4344159407e-004  -8.1165355267e-004   9.8769080793e-001  -9.0333917135e-003   1.0000401116e+000  -1.0889677444e-003  -5.5577091475e-004   8.4893354733e-004
  6.0231250000e+008  -9.3016419116e-004  -5.4431236572e-004   9.8887701404e-001  -8.8848652698e-003   9.9957238705e-001  -1.5906558876e-003  -4.4862214360e-004   7.5592087919e-004
  6.1090000000e+008  -1.0357283499e-003  -4.2639942170e-004   9.9004129619e-001  -1.0552032413e-002   9.9972385011e-001  -1.1791508474e-003  -5.1224347832e-004   7.8024168622e-004
  6.1948750000e+008  -9.2096731621e-004  -5.8183100551e-006   9.8974083727e-001  -8.1538007439e-003   9.9995384418e-001  -2.0534434611e-003  -2.9445684145e-004   7.4956600075e-004
  6.2807500000e+008  -8.3876737666e-004   7.6949737822e-005   9.8956181894e-001  -1.0171091466e-002   1.0002353752e+000  -1.6163346322e-003  -2.7871679825e-005   3.1864234312e-004
  6.3666250000e+008  -3.3799238330e-004   4.5576065018e-004   9.9068109240e-001  -8.5566663909e-003   1.0003444809e+000  -2.2544192114e-003   3.4192597298e-005   2.3110719835e-004
  6.4525000000e+008  -1.9109640279e-004   4.5091592690e-004   9.8961845432e-001  -7.3509469628e-003   9.9987174632e-001  -1.0856062022e-003   1.2454854607e-004  -1.3576638492e-004
  6.5383750000e+008   1.5212362572e-004   2.8627796929e-004   9.9027849403e-001  -8.6801124160e-003   9.9980867288e-001  -1.1478462048e-003   1.7245678463e-004  -7.3218845894e-005
  6.6242500000e+008   4.0691785650e-004   2.1468322497e-004   9.9193614484e-001  -7.5844496986e-003   1.0005906625e+000  -2.3261539626e-003   2.8879988349e-004  -3.4921731246e-004
  6.7101250000e+008   3.6553687681e-004  -1.3558726494e-004   9.9340501153e-001  -6.5547189101e-003   9.9971927493e-001  -1.1511853341e-003   2.9504354575e-004  -5.5576178691e-004
  6.7960000000e+008   6.5227221191e-004  -4.9909043328e-004   9.9291521419e-001  -7.4570203990e-003   1.0001608687e+000  -1.8612924167e-003   7.4458433692e-005  -1.0216849281e-003
  6.8818750000e+008   2.2763231937e-004  -8.3987357418e-004   9.9262323549e-001  -7.9386590437e-003   1.0004375303e+000  -2.3983552748e-003   1.2748757580e-004  -1.0243299543e-003
  6.9677500000e+008   1.8543496091e-004  -9.7045051818e-004   9.9288597936e-001  -7.3845930692e-003   9.9977264716e-001  -2.3846056981e-003  -2.3089213355e-004  -1.1765718691e-003
  7.0536250000e+008  -2.9752341474e-004  -1.1222921800e-003   9.9346239073e-001  -7.6846557920e-003   1.0001260801e+000  -1.7875710094e-003  -1.7535979319e-004  -1.1672678480e-003
  7.1395000000e+008  -6.2384105191e-004  -1.0853822707e-003   9.9282993574e-001  -6.5565967569e-003   9.9968397223e-001  -1.8743969903e-003  -5.6311590539e-004  -1.0951453509e-003
  7.2253750000e+008  -1.0526344637e-003  -8.0013539980e-004   9.9112348340e-001  -7.5833197277e-003   9.9982811359e-001  -2.2796712094e-003  -7.3084530065e-004  -1.3060158901e-003
  7.3112500000e+008  -9.7992214070e-004  -3.9594341790e-004   9.9251410896e-001  -7.1200578600e-003   9.9996348923e-001  -1.3027459227e-003  -8.0322708084e-004  -1.1314091567e-003
  7.3971250000e+008  -1.1353409634e-003  -1.8842660002e-004   9.9338294838e-001  -7.6004601624e-003   9.9945693438e-001  -1.8792099612e-003  -1.0784561385e-003  -9.2460132640e-004
  7.4830000000e+008  -8.9277744431e-004   5.0659248854e-004   9.9383773565e-001  -6.2381528683e-003   9.9952014971e-001  -1.6310270920e-003  -1.0143758614e-003  -8.1682016260e-004
  7.5688750000e+008  -8.0524347010e-004   5.7193032042e-004   9.9311199503e-001  -7.3824782904e-003   9.9956905112e-001  -2.4387129789e-003  -1.0913557256e-003  -3.7634708740e-004
  7.6547500000e+008  -3.3371862692e-004   8.6562969302e-004   9.9356806274e-001  -8.4169612598e-003   9.9960943478e-001  -1.6910059058e-003  -1.0499330167e-003  -1.1835637507e-004
  7.7406250000e+008   7.4363510810e-005   8.5939300947e-004   9.9328276065e-001  -8.4313393549e-003   1.0006038500e+000  -2.4100768532e-003  -7.9699048978e-004   9.6974922264e-005
  7.8265000000e+008   3.6842442350e-004   7.0770445608e-004   9.9133143186e-001  -7.1872991530e-003   9.9970500195e-001  -1.6978223724e-003  -8.9925885687e-004   4.8355780854e-004
  7.9123750000e+008   6.7438485302e-004   4.8323570369e-004   9.9252791261e-001  -6.6766712688e-003   9.9990282273e-001  -1.6920255205e-003  -9.4525998307e-004   4.0157344861e-004
  7.9982500000e+008   7.2999430747e-004   2.9412879245e-004   9.9355424571e-001  -7.0692217849e-003   9.9987294031e-001  -1.1526552167e-003  -7.5025854595e-004   7.0319684569e-004
  8.0841250000e+008   1.1325247189e-003   9.0145578606e-005   9.9117941024e-001  -8.3269794397e-003   9.9943772007e-001  -1.7113481705e-003  -6.0073566961e-004   7.9710418118e-004
  8.1700000000e+008   1.1975282435e-003  -4.0992548604e-004   9.9406912621e-001  -7.1835067506e-003   1.0000884266e+000  -1.9599278510e-003  -5.0756105575e-004   1.1298950503e-003
  8.2558750000e+008   1.0702069345e-003  -6.6047607930e-004   9.9398972418e-001  -6.9029683418e-003   9.9997940417e-001  -2.6721706522e-003  -4.8729205876e-004   1.2160964466e-003
  8.3417500000e+008   9.0020556630e-004  -9.9766616858e-004   9.9429345109e-001  -8.0220904989e-003   1.0003312613e+000  -2.8944102969e-003  -2.4008056918e-004   1.3567071597e-003
  8.4276250000e+008   4.9286748211e-004  -1.2922725836e-003   9.9191741458e-001  -7.4876629238e-003   9.9975830033e-001  -2.0898232597e-003   5.8569153002e-005   1.3698639081e-003
  8.5135000000e+008  -6.8931246213e-005  -1.2226310993e-003   9.9308383204e-001  -6.8079781235e-003   1.0005665125e+000  -1.5893744746e-003   1.8728124108e-004   1.3876862722e-003
  8.5993750000e+008  -2.4674212528e-004  -1.2023184531e-003   9.9413401702e-001  -7.1486302378e-003   1.0007292722e+000  -2.9021253970e-003   3.2212984151e-004   1.1541805715e-003
  8.6852500000e+008  -5.7520519126e-004  -9.0349761901e-004   9.9219643659e-001  -8.3854667318e-003   9.9913094564e-001  -2.7807758720e-003   6.3717215088e-004   8.6455363691e-004
  8.7711250000e+008  -4.2039638498e-004  -5.2479319808e-004   9.9332367203e-001  -7.5226572412e-003   1.0000843268e+000  -2.3749396221e-003   4.1012474451e-004   4.2674049103e-004
  8.8570000000e+008  -3.4515322332e-004  -3.5486507236e-004   9.9378670116e-001  -7.3176810167e-003   9.9975628822e-001  -2.9670105118e-003   3.3350715898e-004   7.5023243773e-005
  8.9428750000e+008  -1.6566571578e-004  -2.2684676802e-004   9.9140841589e-001  -9.0567354632e-003   9.9972764385e-001  -2.5335117369e-003   1.1640053362e-004  -1.0631435588e-004
  9.0287500000e+008  -7.4162178410e-006  -2.1838309941e-004   9.9452609664e-001  -7.9710122905e-003   9.9958306105e-001  -3.7254733707e-003  -2.1300446728e-005  -2.4424101609e-004
  9.1146250000e+008   2.6937377055e-004  -2.3111660571e-004   9.9372931357e-001  -8.5887859991e-003   9.9919255876e-001  -2.1638849221e-003  -4.8227858839e-004  -4.2168470851e-004
  9.2005000000e+008   3.3123191211e-004  -4.4278011581e-004   9.9398041504e-001  -6.2220324166e-003   9.9883574776e-001  -2.1550620344e-003  -6.4612280574e-004  -4.8776332865e-004
  9.2863750000e+008   4.4072267925e-004  -6.2357227458e-004   9.9410055852e-001  -8.3726611123e-003   9.9864244390e-001  -2.9752024618e-003  -9.0234012828e-004  -5.5707965889e-004
  9.3722500000e+008   1.9501935091e-004  -7.3498359376e-004   9.9451735246e-001  -8.0437946857e-003   9.9864070256e-001  -2.0511767116e-003  -1.1578342698e-003  -7.4319297248e-004
  9.4581250000e+008   2.0195368656e-004  -1.1170221607e-003   9.9347626867e-001  -7.0546771774e-003   9.9994404969e-001  -3.0700395978e-003  -1.2936870497e-003  -5.0109652828e-004
  9.5440000000e+008  -1.1133950847e-004  -1.2931555287e-003   9.9227978749e-001  -8.1899233467e-003   1.0005157520e+000  -2.2608397177e-003  -1.3882565871e-003  -3.0367062752e-004
  9.6298750000e+008  -3.6326859144e-004  -1.3317287080e-003   9.9370750884e-001  -6.5959814444e-003   9.9962913234e-001  -3.4118489233e-003  -1.4416400811e-003  -2.2880689839e-004
  9.7157500000e+008  -5.5284122532e-004  -1.2905169948e-003   9.9267784395e-001  -8.8950736515e-003   1.0002633757e+000  -2.7714449027e-003  -1.3143649658e-003  -2.7515367587e-004
  9.8016250000e+008  -8.9982456997e-004  -9.0854311071e-004   9.9459813211e-001  -8.0328112919e-003   9.9967604884e-001  -3.2286151833e-003  -1.5675079918e-003  -3.7572687691e-005
  9.8875000000e+008  -1.1025251388e-003  -5.8840621291e-004   9.9298011554e-001  -6.4635560179e-003   1.0000145651e+000  -2.6882755739e-003  -1.2763147841e-003   1.0315411603e-004
  9.9733750000e+008  -1.0593467067e-003  -3.1851674793e-004   9.9283171306e-001  -7.8562782113e-003   9.9941248604e-001  -2.3325493728e-003  -1.2538376794e-003   1.3741680668e-004
  1.0059250000e+009  -9.9335095702e-004   1.7621846371e-005   9.9288748788e-001  -7.3973185742e-003   1.0006780756e+000  -1.7324161582e-003  -7.9847644692e-004   7.7763662050e-005
  1.0145125000e+009  -8.1367584919e-004   2.4200699161e-004   9.9369584405e-001  -9.5571974721e-003   9.9957008776e-001  -2.5881315254e-003  -5.2268075526e-004   1.8195941231e-004
  1.0231000000e+009  -5.5944024608e-004   4.1727827954e-004   9.9380140587e-001  -7.2273662251e-003   9.9921808742e-001  -2.8915961943e-003  -2.8389374034e-004   1.4293803976e-004
  1.0316875000e+009  -2.5475764798e-004   6.2364096107e-004   9.9375885869e-001  -9.0883311301e-003   9.9932722715e-001  -2.7266180667e-003  -4.0823332277e-005   1.4039699417e-004
  1.0402750000e+009   1.4178340152e-004   5.8612262428e-004   9.9261227921e-001  -6.9153183482e-003   9.9917995602e-001  -2.3983440993e-003   2.9891016753e-004  -6.6910038589e-005
  1.0488625000e+009   3.8564022115e-004   3.1857260032e-004   9.9386210426e-001  -6.9242770777e-003   9.9965744585e-001  -2.1489531535e-003   5.7390579820e-004  -2.3603797103e-004
  1.0574500000e+009   5.2752498116e-004   1.0333184500e-004   9.9324218899e-001  -7.8797954326e-003   1.0000490809e+000  -2.6993143547e-003   7.4250698726e-004  -5.4101226321e-004
