# Hz S RI R 50.000000
! Metas.Vna.Tools, 2.8.8664.20301
! Metas.Vna.Data, 2.8.8664.20285
! Created: UTC 2024.02.11 10:08:07
! FREQ                re:S1,1             im:S1,1             re:S2,1             im:S2,1             re:S1,2             im:S1,2             re:S2,2             im:S2,2          
  1.3000000000e+008   1.4229010233e-004  -6.2365596069e-004   9.9783521229e-001  -2.1612929043e-003   9.9951400137e-001  -1.8365710863e-003   1.3147829636e-003   3.4157637256e-004
  1.3858750000e+008   1.3534713960e-005  -4.0514838310e-004   9.9728282561e-001  -1.0996521500e-003   9.9988740644e-001  -1.5505099596e-003   9.0127938321e-005  -1.7408775482e-004
  1.4717500000e+008  -2.1057852519e-004  -2.6854898752e-004   9.9779550449e-001  -2.2312983734e-003   9.9937120821e-001  -1.3494416684e-003  -6.1277644804e-004   2.8611415957e-004
  1.5576250000e+008  -1.4110829030e-004   3.0034306974e-004   9.9743150446e-001  -8.6990960526e-004   1.0001280488e+000  -1.0006103081e-003   2.3262368236e-004  -7.3136787257e-004
  1.6435000000e+008  -7.0856274463e-005   7.4459134157e-004   9.9758747943e-001  -1.4165043332e-003   9.9981176106e-001  -1.2989241799e-003   2.9585155331e-004  -1.7951882328e-004
  1.7293750000e+008  -2.8055287308e-004   4.5439260857e-004   9.9951432290e-001  -6.2666379820e-004   9.9967636057e-001  -1.3769135504e-003   2.3430982350e-004  -3.5033595051e-004
  1.8152500000e+008   4.9034401011e-004  -4.0596853586e-004   9.9769758932e-001  -1.3150079380e-003   9.9936453697e-001  -1.3521516534e-003   2.8650075170e-005  -3.3867177024e-004
  1.9011250000e+008  -1.3779308858e-004  -8.4129493278e-005   9.9887342396e-001  -3.2881219574e-003   1.0000366750e+000  -1.1935203176e-003   1.6144408548e-004  -8.1277151430e-004
  1.9870000000e+008  -1.5977071134e-005   1.1742783693e-006   9.9861561737e-001  -1.7708402553e-003   1.0000302419e+000  -1.8805140216e-003   3.7412440141e-004   2.4880521152e-004
  2.0728750000e+008   4.7509126090e-005   1.7400940545e-004   9.9724949025e-001  -1.5424595203e-003   9.9968376947e-001  -1.4916515598e-003  -2.0836557421e-004   8.5105962388e-005
  2.1587500000e+008   6.3437102038e-005  -2.9275264168e-004   9.9840498797e-001  -1.7327575122e-003   9.9954092988e-001  -7.0486642412e-004  -3.8198527237e-004   5.2286858777e-004
  2.2446250000e+008   4.7133900366e-005  -4.6908673269e-004   9.9856950436e-001  -1.8826200116e-003   9.9984007603e-001  -1.1122416630e-003  -6.0779726062e-004   8.5155939611e-006
  2.3305000000e+008  -2.1224897181e-004  -2.6511158545e-004   9.9816312820e-001  -2.1648646578e-003   1.0001712739e+000  -1.5710542430e-003  -1.2144631885e-004   1.1727260116e-004
  2.4163750000e+008  -3.5629976406e-004  -2.2075821778e-004   9.9877885609e-001  -3.1710358147e-003   9.9940071342e-001  -1.5908634077e-003  -4.5693149741e-004   8.0660833004e-005
  2.5022500000e+008  -7.9158902616e-004  -3.8312140454e-004   9.9846369394e-001  -2.3928818389e-003   9.9932511262e-001  -1.4474416942e-003  -5.6846646417e-004   3.9275319271e-004
  2.5881250000e+008  -3.5343269761e-004  -3.2442324932e-004   9.9690368393e-001  -1.1777144859e-003   9.9999243237e-001  -1.8924209135e-003  -5.7908313898e-005   5.2131953007e-004
  2.6740000000e+008  -6.2544180619e-004  -1.8757375495e-004   9.9912913841e-001  -1.6064051537e-003   9.9973682066e-001  -1.6213841730e-003  -5.1248664051e-004  -1.9893405136e-005
  2.7598750000e+008   1.2484036916e-004   1.5762406286e-004   9.9621785631e-001  -3.3779709988e-003   1.0002944954e+000  -1.5606496677e-003   2.5941696483e-005   1.5650814536e-004
  2.8457500000e+008  -3.0008928336e-004  -2.5022522562e-004   9.9824095234e-001  -2.2351097237e-003   1.0007376337e+000  -1.5074811005e-003   3.6278623384e-005   3.5624041248e-004
  2.9316250000e+008   7.7982109203e-005  -3.1120056155e-004   9.9743608453e-001  -1.4272531431e-003   9.9995555195e-001  -1.9839237250e-003   1.3377271478e-004   2.2781930469e-004
  3.0175000000e+008  -6.2902079357e-004   4.1815878181e-004   9.9834839372e-001  -3.6053188896e-003   9.9979245637e-001  -1.0939792055e-003   1.8887549500e-004   4.2144796810e-004
  3.1033750000e+008  -3.7964592539e-004   6.2671129574e-004   1.0000675326e+000  -7.1667803542e-004   1.0003823947e+000  -2.4355609100e-003  -9.9233514934e-005   6.1371950340e-004
  3.1892500000e+008  -4.8058823516e-004  -8.7638853949e-005   9.9737190727e-001  -2.1017396320e-003   9.9915746579e-001  -8.6502590755e-004  -2.4762761937e-004   3.0347041541e-004
  3.2751250000e+008  -2.4001649824e-004   2.2627654464e-004   9.9828102381e-001  -3.0669308056e-003   9.9944686087e-001  -2.6929332619e-003  -2.8499644896e-004  -1.0470398955e-004
  3.3610000000e+008  -4.5015595855e-004  -6.1433764499e-005   9.9904995908e-001  -1.2891645120e-003   1.0000937686e+000  -2.4524198090e-003  -2.2598232714e-005   2.5614299491e-005
  3.4468750000e+008  -3.0777428198e-004   1.5531251002e-005   9.9829496725e-001  -3.1240885995e-003   9.9989648262e-001  -1.8193739789e-003   2.9419230518e-005   1.0263734404e-004
  3.5327500000e+008  -1.5874359902e-004   6.3405714850e-005   9.9965918907e-001  -3.0600301193e-003   9.9845829260e-001  -2.6466219025e-003  -3.5743491993e-004   3.6045440521e-005
  3.6186250000e+008  -4.9727743515e-005   2.4946956395e-004   9.9934374242e-001  -2.0114382339e-003   9.9981815858e-001  -1.4619748032e-003  -3.3129539524e-004   3.2579081593e-004
  3.7045000000e+008  -5.3726929704e-004  -4.9408313068e-005   9.9816841474e-001  -2.4811688103e-003   1.0004168171e+000  -2.5802799811e-003  -3.3778638971e-004   2.8692653697e-004
  3.7903750000e+008  -2.8248894549e-004   1.7469405511e-004   9.9833298126e-001  -1.0261966552e-003   9.9968001052e-001  -2.3132945854e-003  -2.1949601410e-004   2.3311988758e-004
  3.8762500000e+008  -2.9674165847e-005   2.1837606312e-005   1.0019203421e+000  -1.6427605587e-003   9.9916277814e-001  -1.9142674351e-003  -1.6552193632e-004   2.2661460149e-004
  3.9621250000e+008  -5.1960339219e-005   8.0226237203e-006   9.9961909474e-001  -2.4386927417e-003   1.0000342943e+000  -2.2919135780e-003  -2.1131151006e-004   4.2543050942e-004
  4.0480000000e+008   1.0935341496e-004   2.4053586697e-004   1.0005818745e+000  -2.5486166962e-003   9.9949096182e-001  -1.9420047948e-003   5.3867681763e-005  -6.2515182308e-005
  4.1338750000e+008   1.4726381606e-004   1.5453681445e-004   9.9962942925e-001  -1.3798344561e-003   1.0003126589e+000  -1.9203763060e-003   9.4308316301e-005   2.6517226203e-004
  4.2197500000e+008  -2.8243372405e-004  -7.0169576280e-005   1.0008013693e+000  -1.9692258950e-003   1.0001055463e+000  -1.9133366281e-003   7.9373633076e-005   4.3092922782e-004
  4.3056250000e+008   1.8232933059e-004   2.0569992233e-004   9.9967999572e-001  -2.0155543308e-003   9.9994251570e-001  -2.0608168553e-003   5.0423910003e-004   4.0756677106e-004
  4.3915000000e+008  -3.1933422850e-005   1.5708530475e-005   1.0023183494e+000  -8.8384377627e-004   9.9976957895e-001  -2.3127160744e-003   4.0540500575e-004   3.4885563249e-004
  4.4773750000e+008   2.2549634911e-004  -2.1066649923e-004   1.0005707472e+000  -1.7393710460e-003   9.9976865539e-001  -2.6801993300e-003   3.7199139953e-004   1.7341217609e-004
  4.5632500000e+008  -6.9257174183e-006  -1.9372772029e-004   9.9952050433e-001  -1.6535229926e-003   9.9950912162e-001  -2.0643091033e-003   4.9274574163e-004   1.3781996442e-004
  4.6491250000e+008  -5.4585034846e-005  -6.5383044669e-005   9.9945392967e-001  -2.4301470996e-003   9.9955528219e-001  -2.5999692432e-003   3.9410954209e-004   1.4911689653e-004
  4.7350000000e+008  -9.9348910981e-005  -2.3763048535e-004   9.9867631549e-001  -2.0122662852e-003   1.0000173180e+000  -2.6284449260e-003   4.2552944665e-004   8.7074859619e-005
  4.8208750000e+008  -1.1791339374e-004   2.5544475740e-004   9.9766477458e-001  -2.3710864099e-003   9.9933866220e-001  -1.9498910815e-003   5.6771686498e-004   2.4223405193e-004
  4.9067500000e+008   1.3999892796e-004  -4.8533702255e-004   9.9670617680e-001  -2.9239236736e-003   9.9962524288e-001  -2.3463566033e-003   3.6009699287e-004  -5.1803395245e-005
  4.9926250000e+008  -8.0901493339e-005  -3.6181800902e-004   9.9676868085e-001  -1.8363968643e-003   9.9927931467e-001  -2.2102108600e-003   5.2911626799e-004   6.3137868255e-006
  5.0785000000e+008  -3.5422415579e-004  -2.7108535789e-004   9.9782517080e-001  -3.1429369626e-003   9.9918360664e-001  -1.7059062791e-003   3.4960130264e-004   2.3921989077e-004
  5.1643750000e+008  -4.5599663551e-004  -4.0484113853e-005   9.9564327006e-001  -1.2738180280e-003   1.0000307955e+000  -2.0863506629e-003   4.7784109427e-004   1.3290392624e-004
  5.2502500000e+008  -3.4970006731e-004   3.1620475637e-004   9.9806052500e-001  -1.8425126892e-003   1.0001532393e+000  -1.5997984359e-003   2.1195095437e-004  -3.1663860944e-004
  5.3361250000e+008  -7.4585744051e-006   3.7244495371e-004   9.9829696857e-001  -2.8562079668e-003   9.9957376325e-001  -2.1046214427e-003   9.2809555294e-005  -4.4918436166e-004
  5.4220000000e+008   4.3309319801e-004   2.5119918200e-004   9.9803214130e-001  -3.0182477746e-003   1.0001849527e+000  -2.2749244991e-003  -3.9163984148e-004  -1.6296038677e-004
  5.5078750000e+008   3.7126077715e-004  -3.3423951773e-004   9.9720013626e-001  -3.1467422744e-003   9.9986587174e-001  -2.5750864139e-003  -4.7626138262e-004  -2.7833516810e-004
  5.5937500000e+008   5.6293573454e-005  -2.2791300114e-004   9.9652642376e-001  -1.0236937728e-003   1.0001368429e+000  -2.5366654397e-003  -7.4767679480e-004  -9.4519793924e-005
  5.6796250000e+008   2.0446674423e-004  -4.0629944319e-004   9.9810565586e-001  -2.6186260298e-003   1.0000698032e+000  -2.6417577630e-003  -5.2776207571e-004   3.1626014063e-004
  5.7655000000e+008  -2.8679070605e-004  -5.1057940823e-004   9.9806513748e-001  -4.4734276205e-003   9.9962857822e-001  -2.7340974998e-003  -2.6671695213e-004   3.7255596890e-004
  5.8513750000e+008  -2.4146555302e-004  -2.3280003422e-004   9.9800880236e-001  -3.2646081033e-003   9.9959706331e-001  -2.1989642496e-003  -4.5384139299e-004   3.8639093934e-004
  5.9372500000e+008  -1.9084026957e-004  -3.3442326711e-004   9.9746287194e-001  -2.9568268262e-003   9.9949245392e-001  -2.8066278767e-003  -2.3752711863e-004   5.3589495523e-004
  6.0231250000e+008  -4.2617899061e-004  -1.4028298576e-004   9.9701624139e-001  -2.2945901402e-003   9.9944173831e-001  -1.8790063894e-003  -6.1630567669e-005   5.3431724985e-004
  6.1090000000e+008  -3.5583288482e-004  -1.5217382471e-004   9.9639587573e-001  -3.9832492825e-003   9.9955674408e-001  -1.9804473138e-003  -2.9609420722e-004   5.4377224308e-004
  6.1948750000e+008  -5.3871543882e-004   1.5471594468e-004   9.9479423061e-001  -3.7570193637e-003   9.9943243203e-001  -2.1667773190e-003  -7.2647229905e-005   3.4081619338e-004
  6.2807500000e+008  -3.6143621502e-004   1.2000419563e-004   9.9559055768e-001  -5.9053813864e-003   9.9991355068e-001  -2.2443245193e-003   7.7519709567e-005   3.7793301962e-005
  6.3666250000e+008  -1.4934884127e-004   4.2661354845e-004   9.9739512017e-001  -4.0492916276e-003   9.9995092369e-001  -2.5193952006e-003   1.0972409889e-004   1.7511200965e-004
  6.4525000000e+008   1.1410485062e-005   3.4800147496e-004   9.9676322647e-001  -2.4250332646e-003   9.9974857681e-001  -2.3112052040e-003   3.4302407150e-004   5.7576080249e-005
  6.5383750000e+008  -4.1961633770e-005   1.4076768001e-004   9.9873607877e-001  -2.3322628448e-003   9.9915628039e-001  -2.4278666993e-003   2.5214628325e-004  -1.6075442568e-004
  6.6242500000e+008   1.8453288068e-004   5.1472429944e-005   9.9596362438e-001  -2.3832809134e-003   9.9995868275e-001  -2.9830380456e-003   4.3489992786e-004  -1.6418764550e-004
  6.7101250000e+008   1.0158605287e-004   4.6020626675e-005   9.9858094185e-001  -2.5538937593e-003   9.9925634126e-001  -1.9341692433e-003   3.4418972229e-004  -4.0753730876e-004
  6.7960000000e+008   2.8618452573e-004  -2.8489668613e-004   9.9896180371e-001  -3.0422715853e-003   9.9992992924e-001  -2.5534858213e-003   1.2538492710e-004  -6.2267584899e-004
  6.8818750000e+008  -3.6681181544e-006  -2.9257131702e-004   9.9839292138e-001  -2.8933896019e-003   9.9978389805e-001  -2.8616067391e-003   6.6372901406e-005  -6.3238629662e-004
  6.9677500000e+008  -8.6150558364e-005  -2.7682504656e-004   9.9906213562e-001  -1.5828933117e-003   9.9970050078e-001  -2.4896711489e-003  -9.4783367061e-005  -5.1721439508e-004
  7.0536250000e+008  -2.1848312824e-004  -4.2395231869e-004   9.9727228376e-001  -3.8634177304e-003   9.9958577090e-001  -2.7112742448e-003  -2.7812824398e-004  -7.2227356449e-004
  7.1395000000e+008  -3.4772938747e-004  -2.7335101383e-004   9.9958259276e-001  -1.5410731079e-003   1.0000087077e+000  -2.8501526240e-003  -3.5880367572e-004  -6.9401555758e-004
  7.2253750000e+008  -7.1493848849e-004  -2.2000766413e-004   9.9817665593e-001  -2.6958365004e-003   9.9973926504e-001  -2.7100139557e-003  -4.3283702837e-004  -5.5339366772e-004
  7.3112500000e+008  -5.9963513125e-004  -6.9781183287e-005   9.9884533944e-001  -2.3091809889e-003   1.0001952041e+000  -1.6116096041e-003  -4.5771189573e-004  -4.3830488070e-004
  7.3971250000e+008  -4.3014851468e-004   2.7094077654e-004   9.9902086339e-001  -3.4893169768e-003   9.9924123897e-001  -3.3249625219e-003  -6.3872511490e-004  -1.6530596980e-004
  7.4830000000e+008  -3.1514021925e-004   5.3011591730e-004   9.9919453764e-001  -1.8213504920e-003   9.9883616720e-001  -2.1299428412e-003  -5.7282670648e-004  -2.4171795380e-004
  7.5688750000e+008  -3.5816894462e-004   5.3076458784e-004   9.9898321522e-001  -3.0702725912e-003   9.9876894536e-001  -2.9645670299e-003  -6.9163759304e-004   1.5968737038e-004
  7.6547500000e+008   8.0231149080e-005   5.6151442004e-004   9.9859544495e-001  -2.7331423215e-003   9.9871871998e-001  -3.1104067315e-003  -7.1601284431e-004   3.8169947922e-005
  7.7406250000e+008   2.7586926141e-004   4.0431258478e-004   9.9839444350e-001  -2.6395000456e-003   9.9936891127e-001  -3.1933379565e-003  -4.5136105114e-004   1.0433222277e-004
  7.8265000000e+008   2.7237665094e-004   1.7780507188e-004   9.9812262957e-001  -2.4656584207e-003   9.9926765664e-001  -2.7210065956e-003  -3.8803170413e-004   4.2866645379e-004
  7.9123750000e+008   4.6981012514e-004  -1.5908488524e-005   9.9774815217e-001  -2.4919992450e-003   9.9956525108e-001  -2.7388346401e-003  -3.5407517272e-004   4.2941070625e-004
  7.9982500000e+008   5.3727423992e-005   4.5535463106e-005   9.9790296689e-001  -2.0287964589e-003   1.0002749085e+000  -1.9055199350e-003  -3.1481804773e-004   4.1984360088e-004
  8.0841250000e+008   1.9265594446e-004  -5.2379456575e-005   9.9774096205e-001  -2.7705594313e-003   9.9910915103e-001  -2.9019964275e-003  -2.6874854489e-004   4.7236137175e-004
  8.1700000000e+008   3.8109061141e-004   7.6872180709e-005   9.9854063551e-001  -1.6917124691e-003   9.9998630804e-001  -2.8916345598e-003  -2.9792679468e-004   4.0841812856e-004
  8.2558750000e+008   5.3542002244e-004  -3.8519867665e-005   9.9990316851e-001  -2.2666630291e-003   1.0000871557e+000  -2.9159374143e-003  -4.8929102396e-004   4.6497576123e-004
  8.3417500000e+008   5.5086783830e-004  -2.7058760844e-004   9.9821707312e-001  -1.6662735523e-003   9.9999149953e-001  -3.3236015294e-003  -2.4915125790e-004   6.3965853693e-004
  8.4276250000e+008   3.5391384510e-004  -5.4289337756e-004   9.9887720854e-001  -2.6051035577e-003   9.9915526554e-001  -3.4525074742e-003  -5.9058698888e-005   6.7727120086e-004
  8.5135000000e+008  -1.4838761059e-005  -5.4285022186e-004   9.9859559705e-001  -2.0661217279e-003   1.0002398788e+000  -2.0124584180e-003   2.9052031592e-005   7.7615073243e-004
  8.5993750000e+008   4.0012204589e-005  -6.7752140317e-004   9.9897553933e-001  -1.5324095898e-003   1.0000967105e+000  -3.6321539024e-003   1.3564389857e-004   6.7037792146e-004
  8.6852500000e+008  -3.6817044024e-004  -4.5255928143e-004   9.9710424981e-001  -2.8087256507e-003   9.9993973409e-001  -2.3837525447e-003   2.7278806334e-004   4.8331503992e-004
  8.7711250000e+008  -3.9196776275e-004  -3.1194873960e-004   9.9875118344e-001  -3.1642332686e-003   1.0000153526e+000  -2.9479630188e-003   4.5153341473e-004   1.6675504861e-004
  8.8570000000e+008  -3.2199537401e-004  -2.3482674635e-004   9.9982428142e-001  -2.3207613061e-003   1.0005099365e+000  -3.6545884044e-003   5.2753726193e-004  -3.3107282547e-005
  8.9428750000e+008  -2.7866443282e-004  -4.5003475052e-005   9.9903903915e-001  -2.5524792682e-003   1.0000107548e+000  -3.6951616784e-003   3.1899425593e-004  -1.2184624510e-004
  9.0287500000e+008  -1.5908229700e-004  -6.3566598109e-006   9.9900789176e-001  -3.0104401416e-003   9.9959492946e-001  -4.1551657813e-003   2.2455400367e-004  -4.0683442919e-004
  9.1146250000e+008   3.7323500057e-005  -1.2966473388e-004   9.9843869094e-001  -2.6237128707e-003   9.9822564563e-001  -3.3580026189e-003  -9.6208080000e-005  -2.8064869110e-004
  9.2005000000e+008  -5.1000606867e-005  -2.1768089957e-004   9.9843761266e-001  -1.6303042468e-003   9.9902237415e-001  -2.8516601683e-003  -2.1772224460e-004  -4.7299509710e-004
  9.2863750000e+008   1.3552296923e-004  -2.2251989006e-004   9.9904335059e-001  -1.2467368831e-003   9.9875203185e-001  -3.8474142250e-003  -3.2271289448e-004  -3.9201084683e-004
  9.3722500000e+008   5.7877697158e-005  -4.3367819113e-004   9.9895820084e-001  -3.6201342335e-003   9.9818744817e-001  -2.1948248148e-003  -4.7501576580e-004  -4.6816726096e-004
  9.4581250000e+008   2.1997248060e-005  -4.4470177283e-004   9.9979483097e-001  -3.4469869353e-003   9.9908249240e-001  -2.5016539646e-003  -6.6824656812e-004  -4.2504515137e-004
  9.5440000000e+008  -2.3674482685e-004  -5.6196558252e-004   9.9897277726e-001  -3.0260422611e-003   9.9907594642e-001  -1.8326624892e-003  -7.2051371910e-004  -3.1206535122e-004
  9.6298750000e+008  -4.4917055618e-004  -6.2621418251e-004   1.0010708436e+000  -6.1933893151e-004   9.9941840502e-001  -3.5668036406e-003  -8.2464258517e-004  -8.4790609699e-005
  9.7157500000e+008  -3.8435783363e-004  -5.9398168746e-004   9.9953522216e-001  -1.9481409795e-003   1.0000282209e+000  -2.1777626499e-003  -8.5768711977e-004  -6.0408358282e-005
  9.8016250000e+008  -6.7663907897e-004  -4.0242540611e-004   9.9859918844e-001  -1.9896710942e-003   9.9923658389e-001  -4.4309232372e-003  -7.2040688103e-004   9.1960311995e-005
  9.8875000000e+008  -7.8044385859e-004  -1.0145154845e-004   1.0009826546e+000  -2.3905748794e-003   9.9900374686e-001  -2.7062912732e-003  -7.2975053320e-004   2.6996080445e-004
  9.9733750000e+008  -8.2722717906e-004   9.1763171596e-005   9.9939815286e-001  -2.1669474043e-003   9.9963319970e-001  -2.9777238486e-003  -5.3502920494e-004   1.0636581788e-004
  1.0059250000e+009  -6.2915685965e-004   3.2735828009e-004   9.9956494527e-001  -2.0848806630e-003   1.0002725869e+000  -3.2970615940e-003  -3.6839268731e-004   3.0943645247e-004
  1.0145125000e+009  -5.6649448349e-004   4.2816127764e-004   1.0007219771e+000  -3.9248627459e-003   9.9967194986e-001  -2.2850604674e-003  -2.0586358419e-004   2.7756552972e-004
  1.0231000000e+009  -3.6462151531e-004   5.6052434089e-004   9.9959740550e-001  -1.3531907344e-003   9.9946172871e-001  -2.6332663579e-003  -1.8439911486e-004   2.8253993889e-004
  1.0316875000e+009  -1.4880898356e-004   6.2817263508e-004   1.0015390172e+000  -2.3855014149e-003   9.9962771478e-001  -3.7765755134e-003   5.6999518548e-005   2.7222754354e-004
  1.0402750000e+009  -1.7889028971e-005   5.7051671458e-004   1.0007241580e+000  -2.0117175172e-003   9.9959230131e-001  -2.8458892004e-003   2.2272701964e-004   1.1480168778e-004
  1.0488625000e+009   1.4183595871e-004   5.0081235806e-004   1.0016739704e+000  -3.2210975440e-003   9.9864818452e-001  -3.1659760732e-003   5.4564008041e-004   7.1186810222e-005
  1.0574500000e+009   2.7112858512e-004   3.6006183790e-004   1.0008238536e+000  -2.5859778173e-003   9.9969869028e-001  -3.5233378418e-003   5.4761264780e-004  -1.3438097381e-004
