# Hz S RI R 50.000000
! Metas.Vna.Tools, 2.8.8664.20301
! Metas.Vna.Data, 2.8.8664.20285
! Created: UTC 2024.02.11 10:08:25
! FREQ                re:S1,1             im:S1,1             re:S2,1             im:S2,1             re:S1,2             im:S1,2             re:S2,2             im:S2,2          
  1.3000000000e+008   6.2465736798e-005  -1.7470937971e-003   9.9250085423e-001  -5.7332783899e-003   1.0005694909e+000  -1.2153143382e-003   9.9524045368e-004   1.0863414486e-003
  1.3858750000e+008  -9.3958772099e-004  -1.5896356578e-003   9.9370003842e-001  -5.7844575355e-003   1.0013873480e+000  -7.7825718881e-005   1.2984344705e-003   7.5801551637e-006
  1.4717500000e+008  -1.7876743394e-003  -1.4766743088e-003   9.9336969123e-001  -6.8646450282e-003   1.0007848160e+000   2.1171951752e-004   1.3613601491e-003  -2.2113802707e-004
  1.5576250000e+008  -1.4089945912e-003   8.9859390232e-005   9.9368688515e-001  -5.9133476184e-003   1.0007484619e+000   2.3389393415e-004   9.4073128231e-004  -9.2614824903e-004
  1.6435000000e+008  -1.0923471473e-003   6.6491167433e-004   9.9371254321e-001  -6.2268210174e-003   1.0008826756e+000  -4.3753251044e-004   1.2932499078e-003  -4.4598928509e-004
  1.7293750000e+008  -9.6942791056e-004   5.9045355999e-004   9.9459206998e-001  -5.6897073643e-003   1.0008771963e+000  -1.9396479050e-004   8.9400073457e-004  -9.5901101728e-004
  1.8152500000e+008  -4.4079089156e-004   4.7556138168e-004   9.9278568826e-001  -5.7052442725e-003   1.0006178977e+000  -7.1236917341e-004   6.9760560993e-004  -4.7697720266e-004
  1.9011250000e+008  -7.5207530738e-004   1.9838615465e-004   9.9468670947e-001  -7.6482560745e-003   1.0006606258e+000  -7.9020096369e-004   2.2037424847e-004  -1.1186656780e-003
  1.9870000000e+008  -3.2500887749e-004   1.0122224993e-003   9.9364731101e-001  -6.7502456568e-003   1.0002188999e+000  -9.0102258073e-004   1.7750880688e-004  -4.1599209886e-004
  2.0728750000e+008  -1.1567484768e-004   5.4663382661e-004   9.9344716191e-001  -6.4655503887e-003   1.0009718513e+000  -6.0984709348e-004   4.0864817223e-004  -5.2460262297e-004
  2.1587500000e+008   7.1501858498e-004  -3.7858349147e-004   9.9394914170e-001  -6.4457736809e-003   1.0001609282e+000  -1.3463372946e-004  -5.7439560269e-004   1.4586453055e-004
  2.2446250000e+008   2.9206567795e-004  -6.7855081152e-004   9.9187024140e-001  -6.9512390307e-003   1.0005888588e+000  -6.2327021271e-004  -6.4769814104e-004  -1.5717120479e-004
  2.3305000000e+008   1.1993516195e-004  -4.2927408787e-004   9.9185774565e-001  -8.2388492729e-003   1.0007025621e+000  -1.0382078532e-003  -3.7018672620e-004   9.7771316709e-005
  2.4163750000e+008  -1.2940257605e-004  -5.8259687325e-004   9.9293327140e-001  -8.5466608213e-003   9.9995481155e-001  -1.7973888316e-003  -6.7245075416e-004   4.6000795717e-004
  2.5022500000e+008  -4.9548168558e-004  -2.0124919886e-004   9.9341532591e-001  -7.3560497700e-003   1.0005045193e+000  -1.0543722367e-003  -1.1264008592e-003   5.8808833930e-004
  2.5881250000e+008  -3.5380508229e-004  -7.1002787540e-004   9.9216973576e-001  -6.0403582343e-003   1.0006970606e+000  -1.3688994748e-003  -4.0305169779e-004   4.7519505109e-004
  2.6740000000e+008  -5.3553907315e-004  -4.0945217058e-004   9.9426217165e-001  -6.7258146409e-003   1.0011999885e+000  -1.7493344797e-003  -6.4228343669e-004   6.7731577982e-004
  2.7598750000e+008   1.9445799043e-005  -4.3329441483e-004   9.9226364157e-001  -8.0797119435e-003   1.0008646894e+000  -7.8524352360e-004  -3.6315219693e-004   7.5483259837e-004
  2.8457500000e+008  -7.9447396779e-004  -5.5586945999e-004   9.9285295969e-001  -7.0577179087e-003   1.0009357011e+000  -7.5076435445e-004  -4.5793863020e-004   1.0189136707e-003
  2.9316250000e+008  -5.8592080128e-004  -2.9292516950e-004   9.9355196588e-001  -6.4232842279e-003   1.0003770772e+000  -2.0466028585e-003  -1.0558324355e-004   5.5857060218e-004
  3.0175000000e+008  -8.0722142695e-004   1.4730245843e-004   9.9328352529e-001  -8.6834177023e-003   1.0003091481e+000  -6.9371596452e-004  -1.8577644076e-004   2.7556976829e-004
  3.1033750000e+008  -9.0089359277e-004   1.3482781196e-004   9.9350112681e-001  -6.2014913493e-003   1.0012356523e+000  -1.5807853707e-003  -7.9466103868e-004   6.0428839717e-004
  3.1892500000e+008  -7.0749112398e-004   1.4428819880e-004   9.9332545510e-001  -7.3043989257e-003   1.0000724847e+000  -5.7088603424e-004  -6.6257662815e-004   4.6893486958e-004
  3.2751250000e+008  -5.9393137878e-004   3.8831293078e-004   9.9337750074e-001  -8.3212978095e-003   1.0007584399e+000  -1.9016755154e-003  -3.8657679039e-004   2.3808770871e-004
  3.3610000000e+008  -7.6750155662e-004   1.1014716262e-004   9.9488476291e-001  -6.6060068281e-003   1.0011368941e+000  -1.7905483040e-003  -5.9457376839e-004   1.2597996674e-004
  3.4468750000e+008  -7.7406680390e-004   1.8270358830e-004   9.9360484886e-001  -7.5076580898e-003   1.0005424448e+000  -1.2979010775e-003  -3.3294719307e-004   2.8204192667e-005
  3.5327500000e+008  -5.0972430418e-004   3.0953937472e-004   9.9457544538e-001  -6.2006951498e-003   9.9944495327e-001  -1.6072345777e-003  -6.4787816032e-004   1.6796628839e-004
  3.6186250000e+008  -5.2281128034e-004   3.7490581551e-004   9.9437516910e-001  -8.1579506153e-003   1.0005537169e+000  -1.6879254405e-003  -4.9778620679e-004   2.9025058871e-004
  3.7045000000e+008  -7.7447390817e-004   7.1958822279e-004   9.9331589458e-001  -6.9773679237e-003   1.0003660854e+000  -1.4097422555e-003  -4.7586583561e-004   6.9525252490e-005
  3.7903750000e+008  -2.8970645150e-004   6.6641963944e-004   9.9228895327e-001  -7.1950191418e-003   1.0007527095e+000  -1.5546247752e-003  -6.5222100179e-004   3.5158507793e-004
  3.8762500000e+008  -2.2796854582e-004   4.4669199136e-004   9.9696091748e-001  -6.2914444390e-003   1.0001855988e+000  -1.2488366795e-003  -4.4010111629e-004   3.8463726796e-004
  3.9621250000e+008  -1.9846267303e-005   2.6659738622e-004   9.9327725819e-001  -7.4836631532e-003   1.0007088610e+000  -1.4787447381e-003  -5.0470415117e-004   2.7577625839e-004
  4.0480000000e+008   3.2214053373e-004   4.7507312030e-004   9.9572658818e-001  -7.1020434024e-003   1.0001880197e+000  -1.3142756660e-003  -2.3422839703e-004   2.2159917630e-004
  4.1338750000e+008   1.3992887982e-004   3.2995912929e-004   9.9461478508e-001  -5.9634591435e-003   1.0013001630e+000  -1.7779782418e-003  -2.6990019198e-005   3.0788248928e-004
  4.2197500000e+008  -3.0769061152e-005  -1.0885618271e-004   9.9518561300e-001  -6.0564658076e-003   1.0006573053e+000  -1.8600848492e-003   1.0404705696e-004   3.6500154798e-004
  4.3056250000e+008   2.0144285551e-004   6.6747566008e-005   9.9456096631e-001  -6.9627789327e-003   1.0007040682e+000  -2.2889786038e-003   3.4388247756e-004   3.3421902202e-004
  4.3915000000e+008   1.6733420259e-004  -1.6870701719e-004   9.9716376453e-001  -5.0136885984e-003   1.0002046483e+000  -1.9688781438e-003   4.8594034246e-004   3.4438108120e-004
  4.4773750000e+008   2.1337383121e-004  -1.1214198588e-004   9.9683250973e-001  -6.2841808143e-003   1.0005253000e+000  -2.2230148232e-003   4.8307471908e-004   3.2762945999e-004
  4.5632500000e+008  -1.5822320187e-004  -2.3051320245e-004   9.9387087679e-001  -6.6632639905e-003   1.0003812643e+000  -1.9675933055e-003   5.6556962721e-004   1.0242332304e-004
  4.6491250000e+008  -1.7203354265e-004  -1.6437861177e-004   9.9434369349e-001  -7.0510848256e-003   1.0002071259e+000  -1.9859905483e-003   5.1508922858e-004   2.0328071191e-004
  4.7350000000e+008  -3.1478067219e-004  -3.1284909136e-004   9.9391414767e-001  -7.3259905381e-003   1.0004932139e+000  -2.0485343400e-003   4.6327988031e-004  -7.0069429695e-005
  4.8208750000e+008  -4.2592880714e-004  -5.1694933093e-006   9.9147646883e-001  -8.1296475791e-003   9.9989303691e-001  -1.6558416711e-003   6.9808575770e-004   2.9321388351e-004
  4.9067500000e+008  -1.4513418937e-004  -2.6587395760e-004   9.9118753371e-001  -7.7180960383e-003   9.9973753356e-001  -2.0228957262e-003   5.3503028258e-004   5.5351444110e-005
  4.9926250000e+008  -2.9932020546e-004  -3.6668667918e-004   9.9061160655e-001  -7.9595719241e-003   9.9979586554e-001  -1.8066908659e-003   6.6170468122e-004   8.1406021048e-005
  5.0785000000e+008  -5.0697516264e-004  -1.8297046123e-004   9.9108974854e-001  -7.5002311816e-003   1.0000430824e+000  -1.2867669032e-003   5.0313349755e-004   3.4661129481e-004
  5.1643750000e+008  -5.9123734076e-004   1.1936142230e-004   9.9111137247e-001  -6.4472998916e-003   1.0000763470e+000  -1.4530305619e-003   9.4117077359e-004   3.8354748874e-005
  5.2502500000e+008  -3.5430618886e-004   5.4826795906e-004   9.9188583572e-001  -6.7838958618e-003   1.0005752577e+000  -1.3395524347e-003   3.9599787771e-004  -4.2977058048e-004
  5.3361250000e+008   4.3930432689e-004   5.0560460149e-004   9.9241704615e-001  -7.9384157795e-003   1.0007949814e+000  -1.8520302258e-003  -9.6780665952e-005  -6.2861441969e-004
  5.4220000000e+008   7.0219351310e-004   2.5346313676e-004   9.9311342509e-001  -7.2252546035e-003   1.0005413406e+000  -1.5979843613e-003  -6.8045076521e-004  -3.8091655339e-004
  5.5078750000e+008   6.3743670620e-004  -5.9211361701e-004   9.9325703999e-001  -7.7909319234e-003   1.0003186751e+000  -2.3729144623e-003  -8.7194480136e-004  -3.2824051742e-004
  5.5937500000e+008   5.0995852371e-004  -7.1495984597e-004   9.9225391123e-001  -7.0658484860e-003   1.0004105501e+000  -2.5310320020e-003  -1.1284397315e-003   4.1679990989e-005
  5.6796250000e+008   4.4166153498e-004  -7.2177869111e-004   9.9309287732e-001  -8.3989050136e-003   9.9998113506e-001  -1.7592864649e-003  -9.8754855938e-004   2.5545055998e-004
  5.7655000000e+008  -2.3974695669e-004  -1.0740976179e-003   9.9313508485e-001  -9.8519642013e-003   1.0006233308e+000  -2.6249181897e-003  -8.9549041334e-004   8.0274656086e-004
  5.8513750000e+008  -4.0451791626e-004  -1.0554165256e-003   9.9238102716e-001  -7.0228781494e-003   1.0002684579e+000  -2.1727253158e-003  -9.8277638109e-004   7.6399016347e-004
  5.9372500000e+008  -6.6318710644e-004  -8.5498576087e-004   9.9177498975e-001  -8.0685367329e-003   9.9939157927e-001  -2.6566861150e-003  -6.1487237051e-004   9.0150724937e-004
  6.0231250000e+008  -9.7237542566e-004  -7.2741220745e-004   9.9272315986e-001  -7.0653343617e-003   1.0006275938e+000  -2.2992352493e-003  -4.8179516105e-004   1.0286262153e-003
  6.1090000000e+008  -9.3795801337e-004  -3.6252496582e-004   9.9366147147e-001  -8.7008187096e-003   9.9992265894e-001  -1.6863497456e-003  -4.5820278027e-004   9.0222314105e-004
  6.1948750000e+008  -9.2811934188e-004  -1.0910690188e-004   9.9159846374e-001  -6.6851463175e-003   9.9991736362e-001  -2.3335746325e-003  -4.7206485957e-004   5.2983009550e-004
  6.2807500000e+008  -8.6059920135e-004   7.2133323423e-005   9.9203498997e-001  -8.3536028530e-003   1.0009044230e+000  -1.9777075368e-003  -7.5000424559e-005   5.1254560109e-004
  6.3666250000e+008  -3.5880161240e-004   5.5803656700e-004   9.9437330446e-001  -7.5169054279e-003   1.0004271449e+000  -2.2291475214e-003  -1.6442512889e-004   3.5948440242e-004
  6.4525000000e+008  -1.7885770408e-004   4.3259429778e-004   9.9408200615e-001  -6.6289784451e-003   1.0003032044e+000  -2.0456823572e-003   1.3604223706e-004   1.3145834542e-005
  6.5383750000e+008   5.6886330991e-005   2.4820773672e-004   9.9498793142e-001  -6.5987644759e-003   1.0000458270e+000  -2.4415185584e-003   1.8815776231e-004  -1.9772175478e-004
  6.6242500000e+008   3.3639179343e-004   1.8606676621e-004   9.9112179907e-001  -9.7573087294e-003   1.0007452052e+000  -2.7298017652e-003   2.7233011154e-004  -2.5630136779e-004
  6.7101250000e+008   3.7356453179e-004  -7.2525444389e-005   9.9306340233e-001  -7.4051628868e-003   1.0000456985e+000  -1.5964739392e-003   2.5253014875e-004  -5.5248456261e-004
  6.7960000000e+008   6.7962754555e-004  -5.0696862108e-004   9.9222422975e-001  -6.7728887873e-003   1.0004820203e+000  -3.0765117345e-003   3.3688941097e-004  -8.9491968096e-004
  6.8818750000e+008   1.7702587635e-004  -7.7427673364e-004   9.9286011825e-001  -8.5008190853e-003   1.0007343218e+000  -2.8561662794e-003   1.2635030548e-004  -1.0567959511e-003
  6.9677500000e+008   2.4151489584e-004  -9.7519755374e-004   9.9238849812e-001  -7.5485672621e-003   1.0001318001e+000  -2.9539457180e-003  -1.5854812398e-004  -9.8263922884e-004
  7.0536250000e+008  -9.7391963850e-005  -1.1590173404e-003   9.9127714423e-001  -7.6717612060e-003   1.0000774587e+000  -2.6384059136e-003  -1.9579148821e-004  -1.1639450175e-003
  7.1395000000e+008  -5.8144987356e-004  -1.0231900274e-003   9.9164556786e-001  -7.7539858414e-003   1.0001087801e+000  -2.7892953077e-003  -3.9970700589e-004  -1.3279698019e-003
  7.2253750000e+008  -1.0424568464e-003  -8.8029797988e-004   9.9093879855e-001  -7.4879726670e-003   1.0000508744e+000  -2.5397562637e-003  -7.4363289231e-004  -1.3049485616e-003
  7.3112500000e+008  -1.0420164255e-003  -4.6069309422e-004   9.9218604088e-001  -8.5140911556e-003   1.0005647000e+000  -2.5202287939e-003  -8.3988071512e-004  -9.2717076740e-004
  7.3971250000e+008  -1.1145684543e-003  -8.9666814088e-005   9.9182262928e-001  -9.7401138174e-003   9.9957804308e-001  -2.8830457206e-003  -1.0893605469e-003  -8.4653495519e-004
  7.4830000000e+008  -9.1918126786e-004   6.4200423092e-004   9.9126088460e-001  -6.9072750842e-003   9.9973303083e-001  -2.4138587244e-003  -9.0748000371e-004  -8.1174827537e-004
  7.5688750000e+008  -8.2942390688e-004   5.9550838515e-004   9.9137549885e-001  -8.7095921133e-003   9.9937731307e-001  -2.6441950908e-003  -1.0200586148e-003  -4.6007447307e-004
  7.6547500000e+008  -2.8192338914e-004   8.8441260278e-004   9.9127396235e-001  -8.7160973825e-003   9.9967780799e-001  -3.0169850676e-003  -1.1785704829e-003  -1.6328030914e-004
  7.7406250000e+008  -9.9101383658e-006   1.0263509188e-003   9.9124052468e-001  -8.9529766780e-003   9.9976064695e-001  -2.5069539336e-003  -8.7698326963e-004   1.0271373228e-004
  7.8265000000e+008   2.9416514138e-004   7.1276736896e-004   9.9244290791e-001  -8.5409949866e-003   9.9995467288e-001  -2.5970335547e-003  -8.5348782854e-004   4.9953159505e-004
  7.9123750000e+008   7.6848460915e-004   4.3407873407e-004   9.9199167765e-001  -7.9910073750e-003   9.9949346324e-001  -1.9994847961e-003  -8.3018365894e-004   4.1084489551e-004
  7.9982500000e+008   6.1802921874e-004   2.5770642607e-004   9.9240383986e-001  -7.2102313521e-003   1.0001968782e+000  -2.0097974912e-003  -5.6819340581e-004   6.9868787157e-004
  8.0841250000e+008   9.9604584765e-004   2.0952634977e-004   9.9177004869e-001  -9.2615421024e-003   9.9984868686e-001  -3.2634159193e-003  -5.6808718820e-004   8.0205795474e-004
  8.1700000000e+008   1.1101176210e-003  -6.6127013791e-005   9.9291649834e-001  -6.9354831010e-003   1.0002321281e+000  -1.4906589549e-003  -6.1196075697e-004   9.2524647325e-004
  8.2558750000e+008   1.1522652524e-003  -5.0050189042e-004   9.9238073807e-001  -7.1837663605e-003   1.0008034096e+000  -2.6335961243e-003  -6.6458909702e-004   1.1083601176e-003
  8.3417500000e+008   1.0612294948e-003  -9.1433313782e-004   9.9333096879e-001  -7.6347162516e-003   1.0009996305e+000  -2.4303529591e-003  -4.2861915779e-004   1.3998854279e-003
  8.4276250000e+008   6.9152025449e-004  -1.2029932213e-003   9.9119132549e-001  -7.6128285129e-003   1.0003441344e+000  -3.1090280830e-003  -1.3487961879e-004   1.2900392937e-003
  8.5135000000e+008   3.8989659069e-005  -1.3467401723e-003   9.9211237273e-001  -8.3275984899e-003   1.0001254414e+000  -3.1175970224e-003   1.3831081997e-004   1.3413325776e-003
  8.5993750000e+008  -1.4009667704e-004  -1.3105220441e-003   9.9247873020e-001  -9.1837192224e-003   9.9991492469e-001  -4.0488058463e-003   3.4632690934e-004   1.3233899436e-003
  8.6852500000e+008  -5.1916738914e-004  -1.0603866098e-003   9.9116976287e-001  -8.0819335298e-003   9.9956959073e-001  -2.0827669856e-003   5.9059948490e-004   1.1176280293e-003
  8.7711250000e+008  -6.7146859453e-004  -8.1069488147e-004   9.9028307891e-001  -9.7164213273e-003   1.0003936268e+000  -2.9577487684e-003   6.6415274001e-004   5.2509282896e-004
  8.8570000000e+008  -4.8529436065e-004  -4.4647816994e-004   9.9358218800e-001  -7.9167056595e-003   9.9977822846e-001  -3.3799423149e-003   7.3452730278e-004   3.8964760669e-004
  8.9428750000e+008  -2.5971758865e-004  -1.9132365008e-004   9.9236537128e-001  -9.0677868935e-003   1.0001642906e+000  -4.0602746618e-003   4.7294679666e-004  -3.2250981543e-004
  9.0287500000e+008  -1.0057822637e-004  -1.0678583201e-004   9.9434239485e-001  -8.2073643425e-003   9.9946335581e-001  -2.4457112800e-003   3.3114652649e-004  -3.7619108758e-004
  9.1146250000e+008   1.4361190193e-004  -1.0183787931e-004   9.9346453456e-001  -9.1118158533e-003   9.9927846264e-001  -3.7233587715e-003  -1.8862975085e-004  -3.8841988676e-004
  9.2005000000e+008   2.5911871013e-004  -2.7840089806e-004   9.9259780667e-001  -8.3173221744e-003   9.9889377968e-001  -3.3974077650e-003  -5.1266998873e-004  -7.3094548310e-004
  9.2863750000e+008   4.8585942382e-004  -4.5367389504e-004   9.9327750873e-001  -8.9820667292e-003   9.9936591600e-001  -3.8889113256e-003  -6.2196625398e-004  -7.9567442383e-004
  9.3722500000e+008   3.9791052373e-004  -8.2660513184e-004   9.9244243423e-001  -7.8298525729e-003   9.9907410827e-001  -4.0713215414e-003  -8.9399544376e-004  -8.3675330548e-004
  9.4581250000e+008   3.2487013936e-004  -1.0503351037e-003   9.9041425100e-001  -7.6844178084e-003   9.9961483781e-001  -3.6637071176e-003  -1.2713630682e-003  -5.9244662514e-004
  9.5440000000e+008   1.4897460437e-004  -1.2403767337e-003   9.9165313549e-001  -7.3785964602e-003   9.9951796611e-001  -3.3833635835e-003  -1.3154311182e-003  -7.5540311146e-004
  9.6298750000e+008  -3.0844504111e-004  -1.3625233034e-003   9.9328987654e-001  -8.4442995302e-003   9.9960569202e-001  -3.3504930879e-003  -1.4553762657e-003  -4.0727384214e-004
  9.7157500000e+008  -5.0120914535e-004  -1.3096084165e-003   9.9301278026e-001  -8.3504377363e-003   9.9989608716e-001  -3.9893692295e-003  -1.5592429394e-003  -3.3365744559e-004
  9.8016250000e+008  -9.3441427183e-004  -1.0437578407e-003   9.9247486192e-001  -8.4288266664e-003   9.9967698664e-001  -3.6667999987e-003  -1.5777693235e-003  -5.0695433576e-005
  9.8875000000e+008  -1.1342310298e-003  -8.3509595332e-004   9.9366357528e-001  -7.6280012986e-003   9.9895243677e-001  -2.9554170734e-003  -1.5402804480e-003   7.6478895159e-005
  9.9733750000e+008  -1.1605694229e-003  -3.5379231877e-004   9.9195010687e-001  -8.4510345709e-003   9.9914168083e-001  -2.6181843305e-003  -1.4366100526e-003   7.1021343784e-005
  1.0059250000e+009  -1.0145201448e-003  -4.9052744456e-005   9.9215316576e-001  -8.2015047473e-003   1.0003789560e+000  -2.5217491700e-003  -1.0757014371e-003   1.5091939572e-004
  1.0145125000e+009  -8.9168152371e-004   3.6279964526e-004   9.9231261958e-001  -1.0207276384e-002   9.9984183716e-001  -3.4314991851e-003  -7.4492035240e-004   2.8369235002e-004
  1.0231000000e+009  -6.2461154451e-004   5.5896756250e-004   9.9095108786e-001  -7.5427449536e-003   9.9922486486e-001  -3.8076444337e-003  -4.3306807873e-004   4.0626838347e-004
  1.0316875000e+009  -3.1952027428e-004   8.1151127887e-004   9.9307263092e-001  -8.4605525283e-003   9.9880571791e-001  -4.0785126554e-003  -1.0011074760e-004   2.7084321240e-004
  1.0402750000e+009   2.2124335453e-005   7.0984460434e-004   9.9208400328e-001  -7.6093259211e-003   9.9945439897e-001  -2.6954542069e-003   1.5574769008e-004   1.3311085756e-004
  1.0488625000e+009   4.6478802330e-004   5.4981306878e-004   9.9331142943e-001  -8.1907497390e-003   9.9906716202e-001  -3.6269423552e-003   5.4687195384e-004  -1.6840638442e-005
  1.0574500000e+009   6.8129186975e-004   2.8604705635e-004   9.9303032821e-001  -7.5916525384e-003   9.9989943719e-001  -3.5219863225e-003   6.7513493883e-004  -2.5370949417e-004
