# Hz S RI R 50.000000
! Metas.Vna.Tools, 2.8.8664.20301
! Metas.Vna.Data, 2.8.8664.20285
! Created: UTC 2024.02.11 10:08:33
! FREQ                re:S1,1             im:S1,1             re:S2,1             im:S2,1             re:S1,2             im:S1,2             re:S2,2             im:S2,2          
  1.3000000000e+008  -5.2773712160e-005  -1.4085231830e-003   9.9386129709e-001  -4.9304881855e-003   1.0014296202e+000  -3.3787614061e-004   6.1250317571e-004   1.0306744737e-003
  1.3858750000e+008  -8.7341349469e-004  -1.6226271084e-003   9.9500063503e-001  -4.7559287698e-003   1.0006829888e+000   6.7881021657e-004   1.3311954567e-003  -1.1185879669e-005
  1.4717500000e+008  -1.6419480268e-003  -1.3677340872e-003   9.9343318720e-001  -6.5858739164e-003   1.0005489476e+000   2.2099040916e-004   7.4263930834e-004   1.3476393449e-004
  1.5576250000e+008  -1.4058382757e-003  -4.5768780174e-005   9.9459756030e-001  -6.1353913146e-003   1.0008935821e+000   4.0504449002e-004   1.0811275694e-003  -1.3381607591e-003
  1.6435000000e+008  -1.2446854873e-003   6.2889100553e-004   9.9498953181e-001  -5.5402025803e-003   1.0011342700e+000  -5.5395547059e-004   8.3378652486e-004  -6.6543585180e-004
  1.7293750000e+008  -9.4086660199e-004   4.1165593332e-004   9.9584692324e-001  -4.8148152121e-003   1.0002706322e+000   1.7035493541e-004   7.3673829863e-004  -5.2731039271e-004
  1.8152500000e+008  -8.0593245137e-004   7.0099450088e-004   9.9473519623e-001  -5.7929021373e-003   1.0001106266e+000  -2.4118008523e-004   2.3549306258e-004  -4.2624705301e-004
  1.9011250000e+008  -2.6247684589e-004   7.4928801435e-004   9.9359015083e-001  -8.0107285232e-003   1.0008661151e+000  -2.9229530227e-004   1.4293054727e-004  -1.0083961629e-003
  1.9870000000e+008  -2.2659259381e-004   1.0623592097e-003   9.9421575549e-001  -6.7711226701e-003   1.0008701624e+000   7.1988372470e-006   5.7062278798e-004  -6.4064371483e-004
  2.0728750000e+008   2.2304116638e-004   3.0258807711e-004   9.9550004149e-001  -5.5172052950e-003   1.0003592377e+000  -7.7347987069e-004   1.1761024508e-004   3.6224016754e-005
  2.1587500000e+008  -1.0626145680e-004  -1.6681076856e-004   9.9556144881e-001  -5.1006653816e-003   9.9962678251e-001  -2.7770576178e-004  -5.9403481631e-004  -3.0120920270e-005
  2.2446250000e+008   3.9379416467e-004  -5.5521785287e-004   9.9558086559e-001  -4.1630317940e-003   1.0005957197e+000  -4.7093331363e-004  -5.1240113193e-004  -8.8764456129e-005
  2.3305000000e+008   2.4539342034e-004   3.7172727792e-005   9.9469793181e-001  -5.3076917674e-003   1.0006509871e+000  -2.1811038557e-004  -3.9918380493e-004   4.0942427812e-005
  2.4163750000e+008  -1.7569027417e-004  -6.4232066152e-004   9.9485711107e-001  -7.0797814011e-003   9.9998255877e-001  -1.2318113856e-003  -9.5922452656e-004  -6.0331302796e-005
  2.5022500000e+008  -4.1069004595e-004  -5.4169921992e-004   9.9481792819e-001  -5.8801025676e-003   9.9976819722e-001  -1.0058413918e-003  -9.1774151419e-004   3.9653340381e-004
  2.5881250000e+008  -4.1011747211e-004  -8.1455551267e-004   9.9318360972e-001  -5.5919462025e-003   1.0005345847e+000  -1.3953378891e-003  -9.5918814633e-004   6.0980964365e-004
  2.6740000000e+008  -8.0710739475e-004  -4.0813839606e-004   9.9479875995e-001  -6.8983381942e-003   1.0005430430e+000  -1.1354041435e-003  -7.5158494879e-004   1.2120958626e-004
  2.7598750000e+008  -4.5913206909e-004  -5.3857121435e-004   9.9414777520e-001  -7.5119241875e-003   1.0004626102e+000  -1.3907246538e-003  -8.3622057000e-004   5.8012112881e-004
  2.8457500000e+008  -8.1902388940e-004  -4.4529826376e-004   9.9551688997e-001  -7.3788258094e-003   1.0005737095e+000  -3.1807377947e-004  -4.5731918072e-004   6.3221681713e-004
  2.9316250000e+008  -5.9082732550e-004  -2.8461854523e-004   9.9510280727e-001  -5.7056256244e-003   1.0002829085e+000  -1.3451219786e-003  -3.7536225162e-004   4.3344117916e-004
  3.0175000000e+008  -6.8719079521e-004   3.9676130584e-004   9.9312656453e-001  -8.3681146572e-003   1.0006707809e+000  -1.1594495919e-003  -4.0208002357e-004   1.3821208546e-004
  3.1033750000e+008  -8.4573511070e-004   1.3048984091e-004   9.9314713644e-001  -7.0640676794e-003   1.0014638339e+000  -1.3176926136e-003  -3.7433829025e-004   3.7928095201e-004
  3.1892500000e+008  -9.4159602703e-004   1.0221646066e-004   9.9292964279e-001  -7.6424408979e-003   1.0001514127e+000  -5.6053899306e-004  -6.5333773516e-004   1.2042253187e-004
  3.2751250000e+008  -8.3024212743e-004   1.4526873264e-004   9.9340972842e-001  -7.8681792562e-003   1.0006200124e+000  -9.9006576028e-004  -8.3668459367e-004   1.5999783865e-004
  3.3610000000e+008  -6.1647117773e-004   6.5047718189e-005   9.9146058966e-001  -7.9217547361e-003   1.0010130198e+000  -1.6691104711e-003  -5.8218877098e-004   3.8991312986e-004
  3.4468750000e+008  -8.0660316388e-004   2.0040087577e-004   9.9394838136e-001  -6.3773493865e-003   1.0004714743e+000  -1.3308693169e-003  -5.0088357773e-004   9.2430575070e-005
  3.5327500000e+008  -6.5996303280e-004   2.4563909976e-004   9.9480122117e-001  -7.5573358533e-003   9.9994254561e-001  -1.6216776369e-003  -6.5559493352e-004   2.9890855127e-004
  3.6186250000e+008  -3.9439265196e-004   3.9638543442e-004   9.9604445814e-001  -6.1887950859e-003   1.0005958305e+000  -3.4195390219e-004  -5.2187287907e-004   3.3586825481e-004
  3.7045000000e+008  -7.2767428876e-004   4.9386858842e-004   9.9479925719e-001  -6.7307308034e-003   1.0010932310e+000  -1.4926087484e-003  -6.5142639953e-004   4.3108854565e-005
  3.7903750000e+008  -3.2494324536e-004   6.4630922955e-004   9.9437921876e-001  -5.5751089158e-003   1.0003467041e+000  -1.4331779238e-003  -3.8102089780e-004   1.6939901354e-004
  3.8762500000e+008  -3.5439302499e-004   4.6860997966e-004   9.9691992414e-001  -5.8026479284e-003   1.0002869960e+000  -1.6425854599e-003  -4.8011535124e-004   6.2500831371e-004
  3.9621250000e+008   1.4729911881e-004   1.1889896474e-004   9.9524086730e-001  -6.7790872808e-003   1.0007418067e+000  -1.3423983053e-003  -4.6756131609e-004   6.4948221043e-004
  4.0480000000e+008   2.2663592345e-004   2.1027498500e-004   9.9532798280e-001  -6.6319224285e-003   1.0005603560e+000  -1.3215005230e-003  -1.6148896636e-004   3.2742384402e-004
  4.1338750000e+008   3.0326637153e-004   1.5431022335e-004   9.9494940697e-001  -5.9445888159e-003   1.0010418489e+000  -1.3048062076e-003   2.9015168425e-005   4.5763206801e-004
  4.2197500000e+008  -1.9156633112e-005  -5.0848562745e-005   9.9507589207e-001  -7.5072944749e-003   1.0006370257e+000  -1.7220756051e-003   2.3332757551e-004   5.1250348713e-004
  4.3056250000e+008   2.3319185602e-004  -7.4275303932e-005   9.9442905502e-001  -7.2398218508e-003   1.0005636517e+000  -1.6777285766e-003   3.9223347781e-004   4.0097332634e-004
  4.3915000000e+008  -1.9513199878e-006  -3.9409694808e-005   9.9708715116e-001  -5.5324498723e-003   1.0004173798e+000  -1.7685273569e-003   4.5356211520e-004   5.5265129230e-004
  4.4773750000e+008   4.1267476965e-005  -2.4204613665e-004   9.9722109265e-001  -6.0218158714e-003   1.0004776195e+000  -1.6871765543e-003   6.6995105749e-004   1.3486113759e-004
  4.5632500000e+008   3.3203595980e-005  -2.5530996266e-004   9.9514743872e-001  -5.3294285529e-003   1.0002253716e+000  -1.4962194418e-003   7.0984960654e-004   1.7608949246e-004
  4.6491250000e+008  -3.0060360230e-004  -2.2281159803e-004   9.9583559149e-001  -7.2327351913e-003   1.0005203122e+000  -1.5657684513e-003   4.7526364591e-004   2.4366310911e-004
  4.7350000000e+008  -3.0185119646e-004  -2.6048494305e-004   9.9510558299e-001  -7.2737787843e-003   1.0004168883e+000  -1.5468401288e-003   4.6873817638e-004  -2.3329369914e-005
  4.8208750000e+008  -3.7936166817e-004  -3.6427682318e-005   9.9262981957e-001  -7.3197059163e-003   9.9976955971e-001  -1.1644949134e-003   5.0524483944e-004   1.3964657266e-004
  4.9067500000e+008   1.8180415436e-006  -3.8717442614e-004   9.9270293953e-001  -6.9342202894e-003   1.0002969576e+000  -1.7761255391e-003   4.3639728719e-004   5.9197683111e-005
  4.9926250000e+008  -1.1764674038e-004  -2.5148127095e-004   9.9296663124e-001  -7.1342193059e-003   1.0000000677e+000  -1.2982716434e-003   5.8288474745e-004  -9.6537600612e-005
  5.0785000000e+008  -5.6891056807e-004  -2.7572817936e-004   9.9274024896e-001  -6.4675469666e-003   9.9986042163e-001  -8.3668600500e-004   5.1561888852e-004   2.9356767731e-004
  5.1643750000e+008  -6.5303775467e-004   3.0748028090e-005   9.9264570113e-001  -6.6788808602e-003   1.0003745665e+000  -1.1338202409e-003   9.0416883280e-004  -7.1223076000e-005
  5.2502500000e+008  -1.6224655557e-004   5.0044823782e-004   9.9466327561e-001  -6.7604898012e-003   1.0007184776e+000  -7.6327457830e-004   4.8323577978e-004  -3.9078054998e-004
  5.3361250000e+008   4.1923282871e-004   3.3703507797e-004   9.9506342280e-001  -7.2546421553e-003   1.0006987922e+000  -1.2952669387e-003  -1.1392976067e-004  -4.7996087826e-004
  5.4220000000e+008   7.1744658054e-004   1.4594464492e-004   9.9343823888e-001  -7.5655038368e-003   1.0005694503e+000  -1.6370398632e-003  -9.1441609289e-004  -4.8032560948e-004
  5.5078750000e+008   5.6157804570e-004  -4.9956871612e-004   9.9405636556e-001  -8.2646511826e-003   1.0005974198e+000  -2.0159049973e-003  -8.9877141760e-004  -2.0531905136e-004
  5.5937500000e+008   4.3683174917e-004  -6.7890941773e-004   9.9374800789e-001  -6.8901753623e-003   1.0001792285e+000  -2.2683016189e-003  -9.1026283073e-004  -3.0242540972e-005
  5.6796250000e+008   2.3416894562e-004  -8.4692853560e-004   9.9442031574e-001  -7.7950655981e-003   1.0004729555e+000  -2.1797806436e-003  -1.0829250177e-003   3.7862047953e-004
  5.7655000000e+008  -2.0740493972e-004  -1.1314005616e-003   9.9405397759e-001  -8.3676370635e-003   1.0005841159e+000  -1.9842702689e-003  -9.8101546949e-004   7.1430568037e-004
  5.8513750000e+008  -5.0241644662e-004  -9.2738315621e-004   9.9294759657e-001  -7.3106562479e-003   9.9994876975e-001  -1.9243721777e-003  -7.5371802960e-004   8.4358894843e-004
  5.9372500000e+008  -6.5896486034e-004  -8.3311970556e-004   9.9233050726e-001  -6.8877119346e-003   1.0004893679e+000  -2.8656819669e-003  -7.4053501002e-004   9.2858009396e-004
  6.0231250000e+008  -9.9905214173e-004  -5.3063001286e-004   9.9326906119e-001  -7.1434368882e-003   1.0001218173e+000  -1.9482074731e-003  -4.6204866826e-004   9.1202703947e-004
  6.1090000000e+008  -8.0529720433e-004  -2.8942371438e-004   9.9425725101e-001  -8.5071657310e-003   9.9953688737e-001  -1.2527914698e-003  -3.7641282230e-004   9.3402646256e-004
  6.1948750000e+008  -9.4373045769e-004   7.5558067762e-005   9.9282294117e-001  -6.7455344895e-003   9.9954858731e-001  -2.0241210116e-003  -3.0423992795e-004   6.9883295968e-004
  6.2807500000e+008  -8.3510764477e-004   4.9965003098e-005   9.9270475473e-001  -8.7524895684e-003   1.0008060009e+000  -1.8557639344e-003   1.2874265509e-004   5.4557987973e-004
  6.3666250000e+008  -3.9615132121e-004   3.8527524055e-004   9.9380375197e-001  -8.0749064298e-003   1.0005080382e+000  -2.8038055307e-003   1.2205785291e-004   3.7195933881e-004
  6.4525000000e+008  -2.5982545459e-005   5.7809202730e-004   9.9217662488e-001  -6.9112791310e-003   1.0005608696e+000  -1.8351682750e-003   3.0798139012e-004   5.7271430968e-005
  6.5383750000e+008   2.5453982869e-004   3.0252021845e-004   9.9339982881e-001  -7.8772854611e-003   9.9984687910e-001  -2.0628111208e-003   3.8531746931e-004  -1.5770359452e-004
  6.6242500000e+008   5.0897384790e-004   1.7562516541e-004   9.9097122434e-001  -7.4414751149e-003   1.0009327103e+000  -2.6349679459e-003   4.5838172727e-004  -2.9949666553e-004
  6.7101250000e+008   4.1345838136e-004  -4.5089461950e-005   9.9276835516e-001  -7.4529662353e-003   1.0000512989e+000  -1.6914164014e-003   3.6400796149e-004  -5.0543445268e-004
  6.7960000000e+008   5.8974417098e-004  -5.5767342540e-004   9.9354673347e-001  -7.2825361950e-003   1.0006103419e+000  -2.6144551673e-003   3.3912478376e-004  -9.6928516112e-004
  6.8818750000e+008   3.9535769017e-004  -9.0349265801e-004   9.9250345519e-001  -7.6761871263e-003   9.9997099845e-001  -2.4881041182e-003   8.0057349632e-005  -1.2900880863e-003
  6.9677500000e+008   1.7386029233e-004  -1.0989278413e-003   9.9335655286e-001  -7.0183218302e-003   1.0000998301e+000  -2.6334776170e-003  -6.3938659561e-005  -1.1902348036e-003
  7.0536250000e+008  -2.0547558014e-004  -1.0572880752e-003   9.9245146335e-001  -8.4813572276e-003   9.9938183681e-001  -2.4036207271e-003  -3.9507950710e-004  -1.3184070703e-003
  7.1395000000e+008  -5.2194786585e-004  -8.9827293422e-004   9.9252905624e-001  -7.2501163611e-003   1.0004427797e+000  -2.5798164643e-003  -5.7156501301e-004  -1.4234245129e-003
  7.2253750000e+008  -1.0643941662e-003  -1.0133038358e-003   9.9133569565e-001  -8.3153039558e-003   9.9973255725e-001  -2.2739668096e-003  -8.8530803693e-004  -1.2665373480e-003
  7.3112500000e+008  -9.8923770546e-004  -3.7339914478e-004   9.9228046500e-001  -7.6134073596e-003   1.0004044967e+000  -1.8852780371e-003  -9.3052684053e-004  -1.0404874617e-003
  7.3971250000e+008  -1.1272958248e-003  -9.6697067410e-005   9.9360405899e-001  -9.0750740717e-003   9.9965507188e-001  -2.6567865587e-003  -1.1413228875e-003  -8.4511474489e-004
  7.4830000000e+008  -9.7895381222e-004   4.6045298185e-004   9.9226225581e-001  -7.6056531677e-003   9.9986728739e-001  -1.8764219441e-003  -1.0907625737e-003  -6.7362702884e-004
  7.5688750000e+008  -8.5359657592e-004   6.3683111993e-004   9.9128033959e-001  -7.9137576998e-003   9.9946528152e-001  -3.1325718317e-003  -1.2513207015e-003  -3.1960482920e-004
  7.6547500000e+008  -1.5418343715e-004   8.9813258919e-004   9.9285043967e-001  -8.5987711213e-003   9.9956983151e-001  -2.3157385193e-003  -1.2947208195e-003   1.7503322280e-005
  7.7406250000e+008   1.9916060917e-004   9.4455288464e-004   9.9129273258e-001  -8.5004148414e-003   1.0001492433e+000  -2.9651339013e-003  -8.8861892928e-004   2.3251065965e-004
  7.8265000000e+008   4.3393167982e-004   5.7603604979e-004   9.9193941873e-001  -7.9941173762e-003   9.9992258441e-001  -2.3640422764e-003  -7.3225310711e-004   6.4891994687e-004
  7.9123750000e+008   6.9107586443e-004   4.7910475227e-004   9.9178389381e-001  -7.6788954610e-003   1.0000007277e+000  -1.8221418736e-003  -7.2931637478e-004   6.1191351501e-004
  7.9982500000e+008   7.3495326705e-004   2.2833456422e-004   9.9203618684e-001  -7.9697526671e-003   9.9985545514e-001  -1.9407095221e-003  -5.2835319728e-004   8.6773691305e-004
  8.0841250000e+008   1.0547482915e-003  -1.2758645413e-005   9.9137336542e-001  -8.6117840896e-003   9.9926136358e-001  -2.0947095150e-003  -4.8080788701e-004   9.1252050096e-004
  8.1700000000e+008   1.1182611911e-003  -2.6030766384e-004   9.9335562566e-001  -7.2658472179e-003   1.0010313915e+000  -2.0285290889e-003  -4.6015301312e-004   1.0932628465e-003
  8.2558750000e+008   1.1960403443e-003  -6.7261260907e-004   9.9505279519e-001  -6.8308036090e-003   1.0006099801e+000  -2.6550950665e-003  -6.4096915879e-004   1.2028659720e-003
  8.3417500000e+008   8.6179812603e-004  -1.0789380521e-003   9.9283931550e-001  -7.1817600138e-003   1.0006818340e+000  -2.6152163519e-003  -2.8173065929e-004   1.2964175872e-003
  8.4276250000e+008   6.1943732788e-004  -1.4147143115e-003   9.9147659138e-001  -7.9628403668e-003   1.0002256846e+000  -2.3698047962e-003   1.8818582818e-006   1.3027519106e-003
  8.5135000000e+008   2.0807619050e-005  -1.3449571363e-003   9.9118753757e-001  -7.7684397372e-003   1.0006337543e+000  -2.2840947205e-003   3.0679077626e-004   1.3352844435e-003
  8.5993750000e+008  -1.2281433258e-004  -1.3126842245e-003   9.9159249209e-001  -8.3218997947e-003   1.0005051284e+000  -2.8897393639e-003   3.4278514755e-004   1.0792928229e-003
  8.6852500000e+008  -5.2673660790e-004  -1.0136022125e-003   9.9069080033e-001  -8.5959535390e-003   1.0001611317e+000  -2.1206816490e-003   5.8457984470e-004   8.7700624027e-004
  8.7711250000e+008  -5.8420953134e-004  -6.4901244063e-004   9.9165809679e-001  -8.1811665581e-003   1.0005505460e+000  -2.6298697059e-003   6.1957502100e-004   4.0161970367e-004
  8.8570000000e+008  -3.6775840721e-004  -2.4850260577e-004   9.9301992734e-001  -7.8760169624e-003   9.9987871793e-001  -3.3408812085e-003   4.4641955053e-004   1.0425032846e-004
  8.9428750000e+008  -2.6537242144e-004  -1.4766390999e-004   9.9180116885e-001  -8.7337207884e-003   9.9973648621e-001  -3.8135350628e-003   2.7238816761e-004  -2.0967797363e-004
  9.0287500000e+008  -5.6672282953e-005  -2.4601789483e-004   9.9238331676e-001  -8.4556974636e-003   9.9971384361e-001  -2.8195758495e-003   8.2690154611e-005  -3.6114850960e-004
  9.1146250000e+008   2.6367119755e-004  -1.5766108388e-004   9.9217429428e-001  -8.3741499171e-003   9.9935445691e-001  -3.3931190346e-003  -4.4078682668e-004  -5.2638235666e-004
  9.2005000000e+008   2.7080685872e-004  -3.7627031260e-004   9.9375874312e-001  -7.4331263092e-003   9.9897353042e-001  -1.6166329431e-003  -5.9089528470e-004  -5.5875123922e-004
  9.2863750000e+008   5.0196022708e-004  -5.1689521143e-004   9.9285303839e-001  -7.1824589065e-003   9.9904435982e-001  -3.2656340190e-003  -8.9427054207e-004  -6.2812353774e-004
  9.3722500000e+008   4.2077694334e-004  -9.2097441930e-004   9.9222316569e-001  -8.2157451679e-003   9.9990537496e-001  -3.1515332476e-003  -1.1823862046e-003  -6.2969532309e-004
  9.4581250000e+008   4.0300257265e-004  -1.1273540373e-003   9.9157490340e-001  -7.0786339535e-003   9.9932084317e-001  -2.4784611116e-003  -1.2693804636e-003  -5.0591274216e-004
  9.5440000000e+008   1.3178626677e-005  -1.3234710662e-003   9.9290809215e-001  -9.1281142997e-003   1.0001154317e+000  -2.9679543134e-003  -1.5909023854e-003  -4.2463797906e-004
  9.6298750000e+008  -3.1044137522e-004  -1.4112424969e-003   9.9335925043e-001  -8.1445185777e-003   9.9996365486e-001  -3.3755338139e-003  -1.6425255368e-003  -2.1496214915e-004
  9.7157500000e+008  -5.8401673585e-004  -1.4115539771e-003   9.9299682412e-001  -7.5352604145e-003   1.0009651914e+000  -2.5565155090e-003  -1.3914061625e-003  -1.6682773596e-004
  9.8016250000e+008  -8.6274545872e-004  -1.0056698689e-003   9.9338523386e-001  -7.7750073962e-003   9.9967640366e-001  -3.5225906522e-003  -1.5347992066e-003   8.8244817635e-005
  9.8875000000e+008  -1.1173895823e-003  -6.9541484877e-004   9.9240488627e-001  -7.2543591214e-003   9.9832847876e-001  -2.5752217262e-003  -1.4012001214e-003   2.2059715262e-004
  9.9733750000e+008  -1.1855012093e-003  -3.6942070034e-004   9.9194814550e-001  -8.3270526090e-003   9.9970053020e-001  -2.6056222859e-003  -1.1468760611e-003   1.0861781460e-004
  1.0059250000e+009  -1.0653144766e-003   2.3459802780e-005   9.9310871018e-001  -8.2485028042e-003   1.0003240947e+000  -2.6563307856e-003  -8.6577290443e-004   2.1242477482e-004
  1.0145125000e+009  -1.0228812134e-003   4.0436990721e-004   9.9348228273e-001  -1.0006569148e-002   9.9958540854e-001  -3.1408240250e-003  -5.2902659499e-004   2.4692307981e-004
  1.0231000000e+009  -6.0223238774e-004   4.3265715493e-004   9.9157152186e-001  -7.5658989708e-003   1.0001319215e+000  -3.7069349396e-003  -3.7777729716e-004   2.0989838427e-004
  1.0316875000e+009  -3.2835687279e-004   7.6404408838e-004   9.9271422592e-001  -9.1745242479e-003   9.9886112475e-001  -3.6524607872e-003   6.7133804800e-006   1.6782116392e-004
  1.0402750000e+009   1.5811335765e-004   6.8865700360e-004   9.9172985256e-001  -8.5092479237e-003   9.9980553240e-001  -2.4531645355e-003   3.8297579264e-004  -3.5197799294e-005
  1.0488625000e+009   4.0237208353e-004   5.4904295673e-004   9.9298602393e-001  -8.6916372353e-003   9.9936909398e-001  -2.7884895742e-003   6.6235854230e-004  -2.1832160528e-004
  1.0574500000e+009   7.1700518645e-004   2.4557609386e-004   9.8887619110e-001  -9.1901271448e-003   9.9944141556e-001  -3.0919666944e-003   7.7410180813e-004  -4.8367827523e-004
