# Hz S RI R 50.000000
! Metas.Vna.Tools, 2.8.8664.20301
! Metas.Vna.Data, 2.8.8664.20285
! Created: UTC 2024.02.11 10:08:39
! FREQ                re:S1,1             im:S1,1             re:S2,1             im:S2,1             re:S1,2             im:S1,2             re:S2,2             im:S2,2          
  1.3000000000e+008   5.1696313890e-005  -1.5285397939e-003   9.9783295792e-001  -4.7541165457e-003   1.0007324352e+000  -6.7484511404e-004   1.2903121160e-003   6.9397826398e-004
  1.3858750000e+008  -6.6238961079e-004  -1.7023392299e-003   9.9806586589e-001  -3.5252768304e-003   1.0006899030e+000   7.2361887885e-004   1.1609676371e-003  -2.4914710087e-004
  1.4717500000e+008  -1.7324788368e-003  -9.8585982094e-004   9.9663970042e-001  -5.1113183221e-003   1.0000399723e+000  -4.5966547257e-005   9.2709664580e-004   3.0628762385e-005
  1.5576250000e+008  -1.9922925775e-003   4.9694064867e-006   9.9850085878e-001  -4.4432109263e-003   1.0006358479e+000   6.3480160848e-004   1.4472822994e-003  -1.2244780174e-003
  1.6435000000e+008  -1.0483543800e-003   1.7327077507e-004   9.9811090776e-001  -3.3082512364e-003   1.0008364993e+000   4.4952318482e-004   6.8091187070e-004  -3.7402419861e-004
  1.7293750000e+008  -8.6555895474e-004   6.6746725194e-004   9.9802136310e-001  -3.9720449265e-003   1.0001544630e+000  -2.1083380086e-004   1.1665557545e-003  -1.1476853327e-003
  1.8152500000e+008  -2.3814308745e-004   1.0295495891e-003   9.9764777783e-001  -4.3369121912e-003   1.0005860974e+000  -3.7321174697e-004   7.2110668633e-004  -5.7234898511e-004
  1.9011250000e+008  -1.8745000420e-004   7.7913388691e-004   9.9919024015e-001  -4.6400908726e-003   1.0010122434e+000  -3.0303180042e-004   1.4276533966e-004  -1.1919713378e-003
  1.9870000000e+008   2.1665352692e-004   1.2587026310e-003   9.9888847934e-001  -4.6800707188e-003   1.0004322629e+000  -3.7737881238e-004   4.3446407258e-004  -8.1896121971e-004
  2.0728750000e+008   2.4556981315e-004   1.6434831223e-004   9.9770684292e-001  -4.0060036056e-003   1.0003943949e+000  -6.1280558570e-004   1.5246007462e-004  -3.1022726581e-004
  2.1587500000e+008   5.4189165239e-004  -1.3555548212e-005   9.9954171730e-001  -5.2385192891e-003   1.0004246010e+000  -9.1115919702e-005  -2.7036769702e-004   1.4764776651e-004
  2.2446250000e+008   4.6595031853e-004  -4.5493368006e-004   9.9860211084e-001  -4.5838788581e-003   1.0004980658e+000   1.1647417855e-004  -4.4055233430e-004   1.7826173735e-005
  2.3305000000e+008   1.6774000031e-006  -2.2694397669e-004   9.9833457070e-001  -4.6532103336e-003   1.0007095007e+000  -4.7501620130e-004  -5.2923237303e-004   5.8493126066e-005
  2.4163750000e+008  -1.9068818402e-004  -6.7198300807e-004   9.9897579128e-001  -6.0310609249e-003   9.9996130661e-001  -1.0901973779e-003  -8.8657870850e-004   4.2480948802e-005
  2.5022500000e+008  -4.1897354692e-004  -5.7290503303e-004   9.9721118599e-001  -4.4671923546e-003   1.0005243362e+000  -8.2401785428e-004  -1.0801700081e-003   4.6690625218e-004
  2.5881250000e+008  -5.5626625009e-004  -9.2853304338e-004   9.9701485931e-001  -4.8297334556e-003   1.0003779875e+000  -8.3531408085e-004  -6.1494614288e-004   8.2847734421e-004
  2.6740000000e+008  -9.8490362806e-004  -6.9225636815e-004   9.9729571076e-001  -4.8092995262e-003   1.0009772431e+000  -1.2038547020e-003  -8.3122756739e-004   1.8325583258e-004
  2.7598750000e+008  -2.5993343898e-004  -3.9282036416e-004   9.9620507888e-001  -6.7297493077e-003   1.0004910352e+000  -3.0072024200e-004  -5.4895290852e-004   5.7947564819e-004
  2.8457500000e+008  -7.3841477334e-004  -3.0045928077e-004   9.9760468071e-001  -6.2227104949e-003   1.0008754306e+000  -3.7807699886e-004  -5.3136419808e-004   5.3906573316e-004
  2.9316250000e+008  -7.1514890788e-004  -5.9770420751e-004   9.9688549964e-001  -4.6737338339e-003   1.0005232479e+000  -8.1295572431e-004  -4.1529047124e-004   3.5852401774e-004
  3.0175000000e+008  -1.1755636875e-003   3.4653153181e-004   9.9781076216e-001  -6.3228182699e-003   1.0005301641e+000   4.8354950406e-005  -4.6347545727e-004   2.5900704165e-004
  3.1033750000e+008  -9.8634822920e-004   2.5902480334e-004   9.9857651950e-001  -4.4858145751e-003   1.0010176694e+000  -7.7490036178e-004  -6.4648505522e-004   5.8465471469e-004
  3.1892500000e+008  -1.0301901696e-003   6.5510254343e-005   9.9750938452e-001  -5.8243202545e-003   1.0006766474e+000  -3.2277641376e-004  -6.2751400821e-004   3.7524511633e-004
  3.2751250000e+008  -6.5526872728e-004   9.1780365374e-005   9.9867770067e-001  -7.7383280195e-003   9.9976938258e-001  -1.4364575335e-003  -8.5339276300e-004   4.5408896876e-004
  3.3610000000e+008  -7.3328673751e-004   4.6886957467e-004   9.9933084917e-001  -4.5131975760e-003   1.0012729549e+000  -1.5011329359e-003  -7.6960482783e-004   4.1304723812e-004
  3.4468750000e+008  -3.7743025180e-004   2.9467344555e-004   9.9686490404e-001  -5.8464953162e-003   1.0009527242e+000  -1.1200161501e-003  -5.0433723204e-004   1.0348498740e-004
  3.5327500000e+008  -5.1806892806e-004   3.5277825708e-004   9.9872134827e-001  -5.7452268590e-003   9.9933513494e-001  -1.6253833857e-003  -4.6917549732e-004   1.5367942120e-004
  3.6186250000e+008  -5.8183461464e-004   3.8650879928e-004   9.9976363089e-001  -6.3742576978e-003   1.0012729281e+000  -2.2185593585e-004  -7.2019043671e-004   5.5940094186e-004
  3.7045000000e+008  -7.2773127159e-004   6.0331445483e-004   9.9799894103e-001  -5.3386681924e-003   1.0004429340e+000  -1.1200801444e-003  -6.4790460665e-004   1.6452495383e-004
  3.7903750000e+008  -2.9491017073e-004   4.1812869009e-004   9.9735805109e-001  -4.8112358471e-003   1.0004813967e+000  -1.0285606122e-003  -2.8945857323e-004   3.6580851022e-004
  3.8762500000e+008  -2.7301516114e-004   4.8531789316e-004   1.0006541858e+000  -4.4190933874e-003   9.9990208013e-001  -8.2139041057e-004  -3.0798426037e-004   5.6944439219e-004
  3.9621250000e+008  -1.2451706421e-004   2.6638439307e-004   9.9790931520e-001  -5.5834334208e-003   1.0006202517e+000  -1.1743672913e-003  -3.8815512852e-004   6.7925407455e-004
  4.0480000000e+008   3.0412961598e-004   3.4808812008e-004   9.9926666434e-001  -6.0135670297e-003   1.0006103490e+000  -9.8717975181e-004   1.4812922446e-004   5.0716307958e-004
  4.1338750000e+008   1.8427332118e-004   1.5114051030e-004   9.9537353878e-001  -5.5210476677e-003   1.0008683733e+000  -1.2216529755e-003   1.2863283130e-004   5.0533349090e-004
  4.2197500000e+008  -4.2775593901e-005  -6.3845736450e-007   9.9904735125e-001  -5.7479364755e-003   1.0005405095e+000  -1.0961146165e-003   3.0896681003e-004   8.1992704072e-004
  4.3056250000e+008   3.9589344633e-005   1.3254978694e-004   9.9870454878e-001  -5.3612574730e-003   1.0003448012e+000  -1.5486205100e-003   4.7508990846e-004   4.3807327677e-004
  4.3915000000e+008   8.8273013286e-005  -7.8598913013e-007   1.0000123410e+000  -4.7428622538e-003   1.0004326616e+000  -1.4605783371e-003   6.5161155859e-004   2.5016898438e-004
  4.4773750000e+008   1.2157629956e-004  -2.8011428458e-004   9.9961496387e-001  -5.5661911858e-003   1.0005492445e+000  -1.5770508454e-003   6.5672378116e-004   1.5073426331e-004
  4.5632500000e+008  -9.7740269767e-005  -4.0071904494e-004   9.9760626062e-001  -4.7113381638e-003   9.9999391429e-001  -1.5595177365e-003   7.1117723735e-004  -1.1553902828e-005
  4.6491250000e+008  -2.3734620085e-004  -1.1144379842e-004   9.9857364483e-001  -5.9109020683e-003   1.0001256108e+000  -1.7115793763e-003   4.8169553149e-004   4.2154763721e-005
  4.7350000000e+008  -3.0163301223e-004  -2.8163260187e-004   9.9734875796e-001  -6.0775989328e-003   1.0003852469e+000  -1.3329079160e-003   7.1358100515e-004  -6.2456774131e-005
  4.8208750000e+008  -3.4574494956e-004   7.5792841959e-005   9.9543835889e-001  -6.5442798763e-003   9.9987549117e-001  -1.3667503502e-003   6.1792627088e-004   1.4496285391e-004
  4.9067500000e+008   4.4144322474e-005  -4.7208935494e-004   9.9544916592e-001  -5.9289914353e-003   1.0001631118e+000  -1.7106610199e-003   4.2964948677e-004   2.1532000701e-004
  4.9926250000e+008  -2.9634084088e-004  -5.1088549480e-004   9.9494351686e-001  -6.2255241407e-003   9.9996613456e-001  -1.4968256663e-003   4.7440170358e-004  -2.8088336301e-005
  5.0785000000e+008  -4.4609789481e-004  -2.9732283573e-004   9.9550442362e-001  -5.2832139113e-003   9.9987594853e-001  -9.6667318392e-004   2.6486479755e-004   3.3154391000e-004
  5.1643750000e+008  -7.1490354631e-004  -5.7213331158e-005   9.9561057199e-001  -5.0721241246e-003   1.0001757618e+000  -1.4051615242e-003   6.5571674165e-004  -2.9399087523e-004
  5.2502500000e+008  -4.7304095789e-004   3.9502601365e-004   9.9667225732e-001  -4.7067276286e-003   1.0001624631e+000  -7.4220627467e-004   9.8674553421e-005  -5.6139536436e-004
  5.3361250000e+008   2.9033351899e-004   3.2326136050e-004   9.9785353460e-001  -6.2198245814e-003   1.0002144114e+000  -8.3842896953e-004  -8.9243743591e-005  -7.1833667596e-004
  5.4220000000e+008   5.9022638911e-004   1.1398619003e-004   9.9593627934e-001  -5.2351984851e-003   1.0009785969e+000  -2.0015548606e-003  -8.8099330460e-004  -2.4255030469e-004
  5.5078750000e+008   5.5878184438e-004  -5.2897085776e-004   9.9659480388e-001  -6.3264798490e-003   1.0004786326e+000  -1.9203028715e-003  -9.7118113101e-004  -1.6526742284e-004
  5.5937500000e+008   3.1942833422e-004  -5.8201469878e-004   9.9585805315e-001  -5.6488154492e-003   1.0003555327e+000  -1.3800471944e-003  -8.7267058243e-004   2.7339206520e-004
  5.6796250000e+008   2.8687641492e-004  -8.9187224480e-004   9.9658991507e-001  -6.1814552994e-003   9.9980845830e-001  -1.2768203907e-003  -1.1326004700e-003   5.6263402921e-004
  5.7655000000e+008  -4.5859652611e-004  -9.2611814049e-004   9.9609278048e-001  -8.9253401100e-003   1.0009226136e+000  -1.9288587373e-003  -8.5299155347e-004   9.4100584226e-004
  5.8513750000e+008  -3.0240387066e-004  -8.6975099368e-004   9.9511294994e-001  -6.5605387421e-003   9.9954386644e-001  -1.6478236333e-003  -7.9697865621e-004   1.0480890543e-003
  5.9372500000e+008  -5.2685604910e-004  -7.7105451959e-004   9.9441205118e-001  -5.9280409961e-003   1.0004581673e+000  -2.5742126578e-003  -7.4561443336e-004   1.1001844471e-003
  6.0231250000e+008  -9.8236382875e-004  -6.0774591787e-004   9.9592401525e-001  -5.0853284841e-003   1.0001386716e+000  -2.1346365596e-003  -3.9474463589e-004   1.0663728265e-003
  6.1090000000e+008  -9.3836769676e-004  -4.1856285025e-004   9.9622514527e-001  -6.2378870371e-003   9.9983501229e-001  -1.6785806785e-003  -3.2479486464e-004   9.1498613535e-004
  6.1948750000e+008  -7.8109994241e-004  -1.2590424196e-004   9.9560357086e-001  -6.6143693227e-003   9.9973405060e-001  -1.9745860922e-003  -1.4866535571e-004   6.0435109688e-004
  6.2807500000e+008  -8.5040717570e-004  -2.4695845009e-005   9.9599534516e-001  -7.3403458887e-003   1.0004587228e+000  -1.5870876331e-003   9.8753079223e-005   5.1064684043e-004
  6.3666250000e+008  -5.4851010952e-004   4.8640100714e-004   9.9658511745e-001  -5.5124888304e-003   1.0002461908e+000  -2.4118046808e-003   2.7207419668e-004   4.0240039671e-004
  6.4525000000e+008  -1.9379438542e-004   2.3641608263e-004   9.9772236244e-001  -4.9024673402e-003   1.0002854663e+000  -1.6958803544e-003   4.1292426015e-004  -2.3425543447e-005
  6.5383750000e+008  -1.6705256679e-005   2.4745253371e-004   9.9551907833e-001  -5.6472787548e-003   1.0003468132e+000  -2.2761230742e-003   3.3274662586e-004  -2.1370481625e-004
  6.6242500000e+008   1.2917259908e-004   1.8878335911e-004   9.9541797846e-001  -5.1525425918e-003   1.0004159364e+000  -2.6463892859e-003   2.7125889648e-004  -4.8872673692e-004
  6.7101250000e+008   2.9487173464e-004  -3.7242008527e-006   9.9460658593e-001  -4.7878078877e-003   1.0002057792e+000  -1.4385417868e-003   2.2750211068e-004  -8.7983008949e-004
  6.7960000000e+008   4.7797891411e-004  -3.6913843500e-004   9.9627994823e-001  -6.8007916342e-003   1.0004955476e+000  -2.0264717494e-003   1.3070851131e-004  -1.0988430494e-003
  6.8818750000e+008   2.3674537178e-004  -8.2752310777e-004   9.9397672223e-001  -5.9252180891e-003   9.9980125602e-001  -1.8645827841e-003  -6.7956643014e-005  -1.1990385741e-003
  6.9677500000e+008   2.3693006392e-004  -8.5153016129e-004   9.9372787163e-001  -6.2361787961e-003   1.0002412419e+000  -2.3705211243e-003  -1.5948969963e-004  -1.2180855756e-003
  7.0536250000e+008  -1.3102998551e-004  -9.1224471924e-004   9.9558603364e-001  -7.0524270458e-003   1.0000580229e+000  -2.2126390377e-003  -4.2278936584e-004  -1.3549270896e-003
  7.1395000000e+008  -4.7031276270e-004  -9.1234531694e-004   9.9612213488e-001  -5.8679653246e-003   1.0001094390e+000  -2.4056849619e-003  -7.1694091301e-004  -1.1654284617e-003
  7.2253750000e+008  -1.0146176481e-003  -8.7775697389e-004   9.9443543279e-001  -7.0783792352e-003   1.0000704221e+000  -2.3213026395e-003  -1.0201759309e-003  -1.2576335662e-003
  7.3112500000e+008  -9.9900272550e-004  -4.9093520467e-004   9.9558290765e-001  -7.0657612199e-003   1.0004386342e+000  -1.5021533568e-003  -1.0655266247e-003  -8.8180836182e-004
  7.3971250000e+008  -1.0081649225e-003   8.6667005361e-006   9.9540346036e-001  -7.3609164283e-003   9.9967063733e-001  -3.1190842700e-003  -1.2757745208e-003  -6.1401140882e-004
  7.4830000000e+008  -8.6435285298e-004   2.4764754173e-004   9.9609036577e-001  -5.2901005643e-003   9.9973404776e-001  -1.7621463414e-003  -1.1959548985e-003  -5.6421524548e-004
  7.5688750000e+008  -9.9010716656e-004   4.4779071358e-004   9.9547491669e-001  -7.1455392067e-003   9.9924080302e-001  -2.5456616854e-003  -1.2069930770e-003  -1.7678789912e-004
  7.6547500000e+008  -4.4199377603e-004   7.6723953584e-004   9.9590596338e-001  -6.7056303860e-003   9.9934369290e-001  -2.2180943156e-003  -1.2105968272e-003  -4.1673918215e-005
  7.7406250000e+008  -1.9810371235e-005   8.2656482568e-004   9.9524180707e-001  -6.6459782535e-003   9.9991322022e-001  -2.7357385129e-003  -8.6708972709e-004   2.9110365785e-004
  7.8265000000e+008   1.6732900265e-004   7.2651956386e-004   9.9476266908e-001  -6.3714565778e-003   9.9996355203e-001  -1.9776595027e-003  -8.1759940648e-004   6.5064183789e-004
  7.9123750000e+008   5.4369510178e-004   6.1162784990e-004   9.9535687866e-001  -6.1207484905e-003   9.9951783096e-001  -1.7598108469e-003  -7.6437360025e-004   7.9182785083e-004
  7.9982500000e+008   5.9281189188e-004   4.6986539411e-004   9.9675021565e-001  -5.5671155701e-003   1.0005673117e+000  -1.3505886401e-003  -4.7849900837e-004   7.6868952974e-004
  8.0841250000e+008   1.0760392859e-003   2.9036814119e-004   9.9560521340e-001  -7.5315414798e-003   9.9967342648e-001  -2.1048590146e-003  -2.0490043113e-004   9.4279150419e-004
  8.1700000000e+008   1.1758790871e-003  -6.7723805296e-005   9.9716737052e-001  -6.6053197811e-003   1.0000610050e+000  -1.8164025153e-003  -3.3001567101e-004   1.0259116982e-003
  8.2558750000e+008   1.2367030166e-003  -2.5981479263e-004   9.9708353025e-001  -5.5687352063e-003   1.0012672861e+000  -2.1647484207e-003  -4.1081700670e-004   1.0561134082e-003
  8.3417500000e+008   1.1651912281e-003  -9.8339680472e-004   9.9651482784e-001  -7.0851918248e-003   1.0009280200e+000  -2.8443452451e-003  -6.0485329411e-005   1.3360567945e-003
  8.4276250000e+008   6.1269469927e-004  -1.2596760489e-003   9.9370930258e-001  -7.4520960426e-003   9.9917129139e-001  -2.6527224868e-003   1.4298732644e-004   1.0909933208e-003
  8.5135000000e+008   1.8390531985e-004  -1.3611551979e-003   9.9485767931e-001  -5.8625635375e-003   1.0015223097e+000  -1.6826298577e-003   2.8435912320e-004   1.3648059152e-003
  8.5993750000e+008  -9.2912953840e-005  -1.4279993617e-003   9.9585151738e-001  -7.0817813054e-003   9.9925672321e-001  -2.4577056147e-003   3.8730369593e-004   1.0224630776e-003
  8.6852500000e+008  -5.1885204910e-004  -1.0928409142e-003   9.9517781373e-001  -7.4973864358e-003   9.9979738514e-001  -1.8942167098e-003   5.7358965684e-004   7.7278382031e-004
  8.7711250000e+008  -4.9298322397e-004  -8.7452274235e-004   9.9602704316e-001  -6.4968294300e-003   9.9940997046e-001  -3.0105088124e-003   5.2962827092e-004   3.0832998919e-004
  8.8570000000e+008  -5.7297333038e-004  -5.9331873583e-004   9.9725811294e-001  -6.2584824221e-003   1.0002201280e+000  -3.4473052360e-003   4.4328325953e-004  -6.1230469140e-005
  8.9428750000e+008  -4.7876982038e-004  -2.4832753771e-004   9.9640353958e-001  -6.1962632264e-003   1.0001078093e+000  -3.0654739469e-003   1.3522804816e-004  -1.8468582037e-004
  9.0287500000e+008  -9.0349398635e-005  -2.3338662617e-004   9.9709050887e-001  -5.9137032053e-003   9.9963825824e-001  -3.3069979043e-003  -5.0418097876e-005  -3.8743446716e-004
  9.1146250000e+008   4.0480587285e-005  -2.0370655287e-004   9.9667696729e-001  -7.4361956935e-003   9.9826863633e-001  -3.1603887708e-003  -4.5966736963e-004  -4.4998428166e-004
  9.2005000000e+008   1.3162880425e-004  -2.6829341726e-004   9.9581391065e-001  -6.1847425814e-003   9.9887774840e-001  -2.9136524580e-003  -8.0104058060e-004  -5.0799194361e-004
  9.2863750000e+008   4.2182329346e-004  -3.9041476546e-004   9.9534138960e-001  -6.5917261069e-003   9.9868955389e-001  -3.5871609812e-003  -9.6202842091e-004  -4.1957584917e-004
  9.3722500000e+008   4.4363378357e-004  -6.7943991937e-004   9.9638990210e-001  -5.8073141413e-003   9.9892356328e-001  -2.3145398889e-003  -1.1929277019e-003  -6.3133642877e-004
  9.4581250000e+008   4.0071534669e-004  -9.3847291447e-004   9.9656455515e-001  -5.5180214385e-003   9.9841293869e-001  -2.2545994378e-003  -1.3131061901e-003  -3.6507443590e-004
  9.5440000000e+008   6.2848226002e-005  -1.1353749586e-003   9.9563862677e-001  -5.9832551230e-003   1.0002585499e+000  -1.7025913454e-003  -1.4553715582e-003  -2.2084595499e-004
  9.6298750000e+008  -2.1441439416e-004  -1.2891927528e-003   9.9706381143e-001  -5.1779711381e-003   9.9976432046e-001  -3.1626986532e-003  -1.4908349671e-003   4.2560472280e-005
  9.7157500000e+008  -4.0790832609e-004  -1.2402828382e-003   9.9682052149e-001  -6.9893109354e-003   9.9986078237e-001  -3.3671666908e-003  -1.4004623490e-003  -5.2401273368e-005
  9.8016250000e+008  -6.5000958136e-004  -1.0623776299e-003   9.9535861515e-001  -7.4808656697e-003   9.9955622448e-001  -4.0283648523e-003  -1.3731215425e-003   2.7854896153e-004
  9.8875000000e+008  -9.7348492243e-004  -9.2615911359e-004   9.9617495956e-001  -5.0898330769e-003   9.9980616136e-001  -2.7314885312e-003  -1.0947827652e-003   2.0598643956e-004
  9.9733750000e+008  -9.9758384547e-004  -5.7462533896e-004   9.9602385231e-001  -6.7245119056e-003   9.9915820922e-001  -3.0821633294e-003  -1.0136773291e-003   1.2999543418e-004
  1.0059250000e+009  -9.8591529174e-004  -2.0760947576e-004   9.9694870032e-001  -7.0188954500e-003   1.0011131702e+000  -2.9032496262e-003  -6.0944213803e-004   1.6366961321e-004
  1.0145125000e+009  -1.0104553133e-003   1.9787367786e-004   9.9628455416e-001  -8.7510532889e-003   1.0000109741e+000  -2.6444999445e-003  -2.5265078117e-004   1.0355033399e-004
  1.0231000000e+009  -7.6988003624e-004   2.8343923045e-004   9.9532615724e-001  -6.1241653671e-003   9.9949486818e-001  -3.2735750534e-003  -2.9325991773e-005   1.7846336518e-004
  1.0316875000e+009  -5.7436699910e-004   6.8001007134e-004   9.9701164125e-001  -7.1626940950e-003   9.9930945644e-001  -3.3383684102e-003   9.4457842333e-005  -7.4020924715e-005
  1.0402750000e+009  -9.9378164685e-005   7.2976453677e-004   9.9477686402e-001  -7.1389351943e-003   9.9992069803e-001  -2.3775820812e-003   4.8871760547e-004  -2.9009507840e-004
  1.0488625000e+009   2.5211170346e-004   5.1295583082e-004   9.9631532106e-001  -6.8211123729e-003   9.9997259302e-001  -2.9910546333e-003   7.5781988036e-004  -4.2127541158e-004
  1.0574500000e+009   5.2022815802e-004   3.8331495245e-004   9.9595758848e-001  -7.7233719505e-003   1.0000249957e+000  -2.7561460215e-003   7.0310730106e-004  -6.2125717571e-004
