# Hz S RI R 50.000000
! Metas.Vna.Tools, 2.8.8664.20301
! Metas.Vna.Data, 2.8.8664.20285
! Created: UTC 2024.02.11 10:08:16
! FREQ                re:S1,1             im:S1,1             re:S2,1             im:S2,1             re:S1,2             im:S1,2             re:S2,2             im:S2,2          
  1.3000000000e+008  -2.9285017014e-004  -1.0526381579e-003   9.9322030770e-001  -5.5890953958e-003   1.0007208317e+000  -1.3423521442e-003   1.4912486240e-003   2.1345472619e-004
  1.3858750000e+008  -4.3161870746e-004  -9.1886368482e-004   9.9414695879e-001  -5.2812388024e-003   1.0002718275e+000  -4.6151423113e-004   1.5363737497e-003  -7.4950811547e-004
  1.4717500000e+008  -1.6454740247e-003  -4.3878731816e-004   9.9275613205e-001  -6.0114914510e-003   1.0000989936e+000  -9.5509997636e-004   5.5941676491e-004   1.1279939490e-005
  1.5576250000e+008  -1.1647232220e-003   2.7771934497e-004   9.9402067641e-001  -5.9450479510e-003   1.0001631039e+000  -6.6221683161e-004   1.1761780700e-003  -1.0721201481e-003
  1.6435000000e+008  -8.8406806402e-004   5.3144946616e-004   9.9435167371e-001  -5.9265880662e-003   1.0008690102e+000  -1.4316847708e-003   1.0335484839e-003  -1.6737314794e-004
  1.7293750000e+008  -7.1221124837e-004   1.3873634689e-003   9.9370145718e-001  -5.5867680535e-003   1.0006872991e+000  -9.1249613895e-004   4.2568081792e-004  -6.8642772486e-004
  1.8152500000e+008  -1.5309321711e-004   3.7203277475e-004   9.9217550107e-001  -6.2786773585e-003   1.0004150627e+000  -1.4257412479e-003   6.0949604034e-004  -4.6800916982e-004
  1.9011250000e+008  -6.8388914224e-004   4.8158757407e-004   9.9430723710e-001  -7.4720007268e-003   1.0004328727e+000  -1.2500363879e-003   8.0828577257e-006  -1.1792904694e-003
  1.9870000000e+008  -1.9754873101e-004   8.4251794602e-004   9.9386356890e-001  -5.1594602192e-003   1.0004492676e+000  -1.0619462679e-003   3.8792546932e-004  -6.6082932582e-004
  2.0728750000e+008   3.3264188333e-004   4.7343940452e-004   9.9368858760e-001  -6.1881711436e-003   1.0004494966e+000  -1.3655777216e-003  -6.5826158043e-005  -2.6594022149e-004
  2.1587500000e+008   3.4925010537e-004  -7.2719798687e-004   9.9394069309e-001  -6.1064115957e-003   1.0000621631e+000  -1.0104977801e-003  -5.8836482884e-004   3.1220253871e-004
  2.2446250000e+008   2.8681932949e-004  -3.5080307607e-004   9.9352439699e-001  -5.4734830772e-003   1.0006891932e+000  -1.5325199240e-003  -3.1754309979e-004   2.8834196232e-004
  2.3305000000e+008  -2.2613989814e-004  -8.2317549268e-005   9.9250147918e-001  -6.2572241798e-003   1.0003207793e+000  -1.5601209639e-003  -3.3252641281e-004   9.4864541698e-005
  2.4163750000e+008  -4.0334022848e-004  -3.4422285162e-004   9.9409078305e-001  -6.6827594154e-003   1.0000884077e+000  -1.9684532457e-003  -5.8014985790e-004   3.2081602255e-004
  2.5022500000e+008  -1.8309353179e-004  -5.6273581085e-004   9.9303113535e-001  -6.3626336056e-003   1.0002413261e+000  -1.4678142028e-003  -9.6336998481e-004   3.9797917499e-004
  2.5881250000e+008  -3.0782925244e-004  -6.0312573422e-004   9.9182911247e-001  -6.5999008514e-003   1.0004799167e+000  -1.8059337806e-003  -4.5941736263e-004   6.7129554178e-004
  2.6740000000e+008  -9.2727182348e-004  -5.6952868648e-004   9.9151719979e-001  -6.4766401382e-003   1.0003220376e+000  -2.2092666041e-003  -4.6212182218e-004   2.9748416319e-004
  2.7598750000e+008  -1.9890964593e-004  -1.5588745116e-004   9.9191697429e-001  -6.9015732130e-003   1.0006443108e+000  -1.2023684837e-003  -3.8353510709e-004   7.1264062422e-004
  2.8457500000e+008  -7.8883896202e-004  -1.7042551899e-004   9.9220644609e-001  -7.0583041679e-003   1.0007224321e+000  -1.3380384602e-003  -1.5458823138e-004   6.7050546409e-004
  2.9316250000e+008  -6.3108632524e-004  -2.8234302207e-004   9.9375933894e-001  -5.6500245715e-003   1.0009079128e+000  -2.7138503532e-003  -1.7334245935e-004   5.0820168253e-004
  3.0175000000e+008  -8.0680987263e-004   2.8586757596e-004   9.9247326383e-001  -8.4010879156e-003   1.0000356827e+000  -1.4825032855e-003  -4.8421066589e-004   3.7411965251e-004
  3.1033750000e+008  -8.7901755991e-004   2.5673770811e-004   9.9363307568e-001  -6.2789510950e-003   1.0012029591e+000  -2.3985898298e-003  -6.4596332062e-004   4.4150573763e-004
  3.1892500000e+008  -6.9116836991e-004   1.0760551024e-004   9.9332464718e-001  -6.4918297292e-003   1.0001836930e+000  -1.8405528618e-003  -4.6062447572e-004   4.9745502015e-004
  3.2751250000e+008  -9.0700627752e-004  -1.7101088160e-004   9.9326053431e-001  -8.4080000842e-003   1.0002749176e+000  -1.5583318821e-003  -7.3660747113e-004   4.1051721316e-004
  3.3610000000e+008  -6.2069026841e-004   7.5106833967e-005   9.9402587947e-001  -6.1678389055e-003   1.0013564268e+000  -2.1974817116e-003  -6.3953403497e-004   1.1485564916e-004
  3.4468750000e+008  -7.7449230602e-004   7.1862952352e-005   9.9433623554e-001  -6.5972271520e-003   1.0006110104e+000  -1.8332060670e-003  -3.4982326407e-004   2.0703669488e-004
  3.5327500000e+008  -4.6042485464e-004   2.6331739833e-004   9.9388056185e-001  -8.6095783223e-003   9.9976567009e-001  -2.8800351635e-003  -6.9135231078e-004  -3.0260890147e-005
  3.6186250000e+008  -5.8513625698e-004   3.6186198294e-004   9.9313186886e-001  -7.4797552921e-003   1.0008697700e+000  -1.7762632787e-003  -4.0911734987e-004   3.0658864367e-004
  3.7045000000e+008  -5.6936920417e-004   4.6177170517e-004   9.9388852322e-001  -5.9740232183e-003   1.0006413336e+000  -2.2563315709e-003  -6.2557812087e-004   8.5235458520e-005
  3.7903750000e+008  -4.3335360972e-004   7.1564639352e-004   9.9285596314e-001  -6.0144111470e-003   1.0003483842e+000  -2.1789148581e-003  -4.3411949115e-004   1.0348202245e-005
  3.8762500000e+008  -4.5828596211e-004   5.4401189883e-004   9.9610268830e-001  -6.4162900653e-003   1.0001430248e+000  -2.0523215841e-003  -4.7863282545e-004   4.3952979385e-004
  3.9621250000e+008  -1.1666931506e-005   1.0795253992e-004   9.9401820624e-001  -6.5790215883e-003   1.0003911853e+000  -2.1344994992e-003  -6.3441087850e-004   3.1266094717e-004
  4.0480000000e+008   1.7892158686e-004   7.7317739943e-005   9.9446890305e-001  -7.0566698292e-003   1.0003849060e+000  -2.3459620225e-003  -3.3018095234e-005   3.4949082396e-004
  4.1338750000e+008   2.2406186710e-004   1.5967263202e-004   9.9431737208e-001  -6.2846702738e-003   1.0008413857e+000  -2.1197913289e-003   2.4233340173e-004   4.4852006081e-004
  4.2197500000e+008   3.8565852306e-005  -1.8051424430e-004   9.9445126545e-001  -7.7513767975e-003   1.0008539640e+000  -2.2070039313e-003   4.7835467719e-005   4.7185268861e-004
  4.3056250000e+008   4.8629625232e-005   1.4105072056e-005   9.9338136391e-001  -5.9599688092e-003   1.0005869682e+000  -2.2511092974e-003   4.5529551323e-004   3.1537638107e-004
  4.3915000000e+008   7.0831608439e-005  -8.0858908017e-005   9.9703892903e-001  -5.6738843423e-003   1.0002382348e+000  -2.7114975087e-003   3.9547270855e-004   3.1676653980e-004
  4.4773750000e+008   1.2052327152e-004  -2.5297401266e-004   9.9655341982e-001  -6.7763473761e-003   1.0002254778e+000  -2.8409643705e-003   5.8679420205e-004   2.5410308214e-004
  4.5632500000e+008  -2.0505202631e-004  -2.2687458824e-004   9.9305174907e-001  -6.2231497476e-003   1.0004820535e+000  -2.8413565119e-003   6.7467714955e-004   5.2626312468e-006
  4.6491250000e+008  -5.1290659726e-004  -2.1635621727e-004   9.9450649562e-001  -6.8373434612e-003   1.0000735276e+000  -2.7448090774e-003   3.6694885448e-004   2.3314354064e-006
  4.7350000000e+008  -3.1166206278e-004  -2.8835736996e-004   9.9372156301e-001  -6.5625200594e-003   1.0001766425e+000  -2.2118942253e-003   4.8097290516e-004  -8.9804033276e-005
  4.8208750000e+008  -2.7469089397e-004  -6.1993886623e-005   9.9143807473e-001  -7.6640183095e-003   9.9980195987e-001  -2.0136156834e-003   5.5002332273e-004  -6.8523845135e-005
  4.9067500000e+008  -3.9740294503e-005  -4.6952581648e-004   9.9164749834e-001  -7.6449740306e-003   9.9986163375e-001  -2.3848022028e-003   4.4740539653e-004  -1.0696309489e-004
  4.9926250000e+008  -9.7293369805e-005  -2.9730494223e-004   9.9079431043e-001  -7.7236126196e-003   9.9979446315e-001  -2.3378429821e-003   7.4563655425e-004  -1.6614182105e-006
  5.0785000000e+008  -5.9211274561e-004  -3.4324696767e-004   9.9105335868e-001  -7.5610884508e-003   9.9976512796e-001  -1.8013620275e-003   5.5500342809e-004   3.7460654182e-004
  5.1643750000e+008  -3.9226382162e-004   2.1868615151e-004   9.9099724906e-001  -6.5117226297e-003   1.0003102842e+000  -2.1972574093e-003   8.2441856372e-004   4.1624444789e-005
  5.2502500000e+008  -3.4177307652e-004   5.1912442994e-004   9.9219840655e-001  -5.8950237968e-003   1.0005765041e+000  -1.2665347153e-003   3.9592664369e-004  -2.6045389337e-004
  5.3361250000e+008   3.9064434776e-004   3.6067504725e-004   9.9355974049e-001  -6.7372295203e-003   1.0003377716e+000  -2.1845467486e-003   7.2600984948e-005  -4.4095144424e-004
  5.4220000000e+008   7.2046169843e-004   2.3349170915e-005   9.9390611279e-001  -8.0115010970e-003   1.0005304072e+000  -2.4244625886e-003  -8.3532247222e-004  -4.4506656051e-004
  5.5078750000e+008   5.6907130736e-004  -4.5761727551e-004   9.9254944288e-001  -8.5843556910e-003   1.0008697087e+000  -2.5544180024e-003  -1.0552073545e-003  -3.8327281041e-004
  5.5937500000e+008   3.8896627430e-004  -6.4719938115e-004   9.9240925306e-001  -7.1493495431e-003   1.0007756753e+000  -2.8815018056e-003  -1.0027793428e-003   2.1656428982e-004
  5.6796250000e+008   3.8193299588e-004  -8.6058264100e-004   9.9276614310e-001  -7.7422021889e-003   9.9996679877e-001  -2.5104320100e-003  -1.1406914950e-003   3.8877649370e-004
  5.7655000000e+008  -4.7784816911e-004  -1.0800610234e-003   9.9277127125e-001  -8.6773572101e-003   1.0004022275e+000  -3.8754722292e-003  -9.1047649476e-004   6.5126318220e-004
  5.8513750000e+008  -3.9322918934e-004  -8.3952277373e-004   9.9294391620e-001  -8.1137316138e-003   9.9983820878e-001  -3.0263227606e-003  -8.1606982933e-004   9.1228691943e-004
  5.9372500000e+008  -7.0601364153e-004  -8.0760630833e-004   9.9170458948e-001  -7.2774914480e-003   9.9981674222e-001  -3.2853149814e-003  -7.1364560955e-004   1.0898895736e-003
  6.0231250000e+008  -1.0699237611e-003  -4.7709026125e-004   9.9297500323e-001  -7.2996400622e-003   9.9962750496e-001  -2.8072655484e-003  -4.6453113115e-004   9.4752151390e-004
  6.1090000000e+008  -9.6583475296e-004  -2.8760659274e-004   9.9230047108e-001  -8.4136568875e-003   9.9972325774e-001  -2.8068826178e-003  -3.4229184655e-004   1.0649226520e-003
  6.1948750000e+008  -8.9677766388e-004   1.9968638600e-005   9.9219994102e-001  -6.8268449579e-003   1.0000729301e+000  -2.8558870400e-003  -1.9374605584e-004   7.8151372939e-004
  6.2807500000e+008  -8.7569336590e-004   1.2844628979e-004   9.9108433682e-001  -9.9125143477e-003   1.0004074218e+000  -2.6210183428e-003   1.7679493683e-004   4.6762410141e-004
  6.3666250000e+008  -4.4153886055e-004   5.7142172899e-004   9.9376391815e-001  -7.3279591757e-003   1.0001306024e+000  -3.3771634546e-003   1.0452309430e-004   2.3453128273e-004
  6.4525000000e+008   1.3965022764e-005   4.8697093240e-004   9.9236307249e-001  -7.1836705389e-003   1.0001788103e+000  -2.6813302617e-003   3.6950894907e-004  -2.1818140190e-005
  6.5383750000e+008   2.1181974177e-004   3.1286308314e-004   9.9226336924e-001  -7.8418162505e-003   9.9904808874e-001  -2.6160072590e-003   3.7772187043e-004  -1.0692928197e-004
  6.6242500000e+008   3.2628559643e-004   1.9026664991e-004   9.8968898154e-001  -7.7068431800e-003   9.9969210311e-001  -3.6847805006e-003   3.6730214534e-004  -4.1347797209e-004
  6.7101250000e+008   4.1715019726e-004  -1.3196302936e-004   9.9210082053e-001  -5.7000523371e-003   9.9995505246e-001  -2.4930773003e-003   3.1586245400e-004  -6.9528605500e-004
  6.7960000000e+008   5.9292993404e-004  -4.9159035560e-004   9.9079632554e-001  -7.1268514963e-003   1.0004216479e+000  -3.4807479483e-003   4.1813833392e-004  -1.0482686694e-003
  6.8818750000e+008   2.7687171467e-004  -7.9511665672e-004   9.9094958123e-001  -7.7557816005e-003   1.0002883296e+000  -3.5323101224e-003   1.6427756551e-004  -1.2494850382e-003
  6.9677500000e+008   1.0292901169e-004  -9.7929015824e-004   9.9148249171e-001  -7.8115819267e-003   1.0003988024e+000  -2.9797884763e-003  -2.7860851674e-004  -1.1615771150e-003
  7.0536250000e+008  -3.4607610756e-004  -1.0047606066e-003   9.9229824984e-001  -6.0618045143e-003   9.9969216078e-001  -3.0640283310e-003  -3.0114937829e-004  -1.3707620689e-003
  7.1395000000e+008  -5.9078007529e-004  -9.7067538229e-004   9.9104545873e-001  -8.5159231819e-003   1.0003390272e+000  -3.0926307172e-003  -6.3164728123e-004  -1.2688338183e-003
  7.2253750000e+008  -1.0729618431e-003  -7.8130796745e-004   9.8958674431e-001  -8.2972731884e-003   1.0000271733e+000  -3.1676556696e-003  -8.0189262069e-004  -1.2884078124e-003
  7.3112500000e+008  -1.1077364471e-003  -3.1429557024e-004   9.9163885879e-001  -8.2439386673e-003   1.0005854931e+000  -2.9664190775e-003  -9.5144042876e-004  -1.0469154639e-003
  7.3971250000e+008  -1.0438466619e-003   1.7212540119e-005   9.9105427775e-001  -9.0386903865e-003   9.9932455666e-001  -4.0078687274e-003  -1.1929684949e-003  -6.8804041111e-004
  7.4830000000e+008  -7.4513240914e-004   5.9475688612e-004   9.9146371367e-001  -7.2857417632e-003   1.0002119117e+000  -2.7744071297e-003  -1.0365251761e-003  -7.1959158745e-004
  7.5688750000e+008  -7.0744398081e-004   7.0918239181e-004   9.9071566233e-001  -7.9504253635e-003   9.9905269669e-001  -3.2307749501e-003  -1.1191689980e-003  -2.3132986431e-004
  7.6547500000e+008  -2.1456540317e-004   8.1306648711e-004   9.9145695332e-001  -8.4877151797e-003   9.9933361208e-001  -3.4626020929e-003  -1.1379375307e-003  -1.7850369573e-005
  7.7406250000e+008   1.5576205504e-004   6.9188227917e-004   9.9107005211e-001  -8.6595240818e-003   9.9929455955e-001  -2.8227547115e-003  -8.2180278358e-004   3.2038373078e-004
  7.8265000000e+008   3.2756284939e-004   4.4448645419e-004   9.9110093209e-001  -7.8847022436e-003   9.9991016328e-001  -2.9815150286e-003  -7.1634455254e-004   7.1319235099e-004
  7.9123750000e+008   8.0444031898e-004   2.6014059188e-004   9.9097445027e-001  -6.9232738420e-003   9.9979516484e-001  -2.7926046286e-003  -7.6510784978e-004   5.9536062689e-004
  7.9982500000e+008   6.6186986495e-004   1.1018050729e-004   9.9179297470e-001  -6.4957772484e-003   1.0002834017e+000  -1.7384116766e-003  -3.5670880357e-004   7.2807008893e-004
  8.0841250000e+008   8.5154395733e-004   9.8941970427e-005   9.9101096077e-001  -8.4295088690e-003   9.9924718399e-001  -2.9130265543e-003  -2.6125075352e-004   8.7584184039e-004
  8.1700000000e+008   1.0804692501e-003  -6.0773655996e-005   9.9219175279e-001  -6.9467075067e-003   1.0001535326e+000  -3.2759760307e-003  -2.2197670678e-004   8.1992099893e-004
  8.2558750000e+008   1.0544789759e-003  -3.1747614466e-004   9.9387015661e-001  -6.2741937016e-003   1.0005430133e+000  -3.4781867033e-003  -5.5917364040e-004   9.4382288479e-004
  8.3417500000e+008   1.0504648052e-003  -9.3413839586e-004   9.9330228206e-001  -7.8641872847e-003   1.0015106383e+000  -3.5217858645e-003  -3.2896687198e-004   1.2052780491e-003
  8.4276250000e+008   7.0026287706e-004  -1.2852222315e-003   9.8980277674e-001  -8.5773215582e-003   1.0007045745e+000  -3.9067117123e-003   6.6377704721e-005   1.1354042709e-003
  8.5135000000e+008   1.4162731425e-004  -1.2964360399e-003   9.9025657450e-001  -7.7352804314e-003   1.0011919157e+000  -3.7047808923e-003   2.3953652349e-004   1.3373835115e-003
  8.5993750000e+008  -1.1510174759e-004  -1.2134804496e-003   9.9178696796e-001  -8.0740502815e-003   9.9997658628e-001  -3.8636975282e-003   3.5358406376e-004   1.1901712979e-003
  8.6852500000e+008  -4.9243979580e-004  -9.1829723677e-004   9.8855663108e-001  -8.6050416390e-003   9.9912188042e-001  -3.3942008413e-003   5.9072008373e-004   7.6937191861e-004
  8.7711250000e+008  -5.2613962757e-004  -7.4344957800e-004   9.9019492590e-001  -8.6044660059e-003   9.9997698997e-001  -4.1090845394e-003   5.6205536289e-004   3.6154359551e-004
  8.8570000000e+008  -4.7974850079e-004  -3.8121593451e-004   9.9123265767e-001  -8.5302789089e-003   1.0002828198e+000  -3.1583295077e-003   5.8441729646e-004   1.8678408246e-004
  8.9428750000e+008  -2.9044783599e-004  -7.1695104375e-005   9.9101149840e-001  -9.7182414335e-003   1.0000863850e+000  -4.2528067414e-003   1.9668586454e-004  -2.7190841009e-004
  9.0287500000e+008   6.4245005977e-005  -1.7420971551e-004   9.9315993776e-001  -8.6283729425e-003   9.9835839463e-001  -4.6539411524e-003   6.1426961114e-005  -4.5159547312e-004
  9.1146250000e+008   1.6027605570e-004  -1.2457889683e-004   9.9292181914e-001  -8.7180821201e-003   9.9932359732e-001  -4.5097930845e-003  -2.8963921358e-004  -5.2466009406e-004
  9.2005000000e+008   2.6835300893e-004  -3.6054411055e-004   9.9296908968e-001  -6.3572664676e-003   9.9855931264e-001  -3.2902993971e-003  -6.0754617209e-004  -6.6360725568e-004
  9.2863750000e+008   4.4501293582e-004  -4.8521084104e-004   9.9280549507e-001  -6.8149358494e-003   9.9901874871e-001  -3.9439047391e-003  -7.9536491262e-004  -6.8217002425e-004
  9.3722500000e+008   4.2267321797e-004  -8.6992726282e-004   9.9342565588e-001  -7.8780709857e-003   9.9841087826e-001  -4.5100377962e-003  -1.1898306894e-003  -8.4252817876e-004
  9.4581250000e+008   3.1236197777e-004  -1.0460801172e-003   9.9191008756e-001  -7.7162173158e-003   9.9875277403e-001  -3.8420030748e-003  -1.4443582874e-003  -5.0343399616e-004
  9.5440000000e+008  -5.0793319020e-005  -1.3054188053e-003   9.9071958372e-001  -8.0024250716e-003   1.0003447655e+000  -3.0561792638e-003  -1.3075432021e-003  -3.5029598977e-004
  9.6298750000e+008  -4.1632151225e-004  -1.3298557504e-003   9.9224468460e-001  -5.6611054577e-003   9.9940965960e-001  -4.7323431046e-003  -1.5355555205e-003  -1.1142745158e-004
  9.7157500000e+008  -5.5212917771e-004  -1.2596226872e-003   9.9098630952e-001  -1.0109807521e-002   1.0002952268e+000  -3.9032069397e-003  -1.5032170353e-003   3.6845378300e-005
  9.8016250000e+008  -9.9847851220e-004  -9.5121428880e-004   9.9348889460e-001  -9.5230328553e-003   9.9983560367e-001  -5.5848807772e-003  -1.5168426059e-003   1.8025729680e-004
  9.8875000000e+008  -1.1233797814e-003  -5.7448999532e-004   9.8925947737e-001  -8.1730005455e-003   9.9983840633e-001  -3.6478861851e-003  -1.3082416896e-003   3.4150005732e-004
  9.9733750000e+008  -1.1621089295e-003  -2.9076510179e-004   9.8986462497e-001  -7.8554434713e-003   9.9930450121e-001  -3.7162226442e-003  -1.1031802833e-003   2.5537333487e-004
  1.0059250000e+009  -1.0680863729e-003   1.4965497807e-004   9.9106347639e-001  -7.8527732353e-003   1.0000832149e+000  -4.3475395785e-003  -7.8649635603e-004   3.0988464586e-004
  1.0145125000e+009  -9.1988897884e-004   4.9254988727e-004   9.8981172191e-001  -1.0953365739e-002   1.0004677656e+000  -3.7583362693e-003  -3.7389930420e-004   3.0938060778e-004
  1.0231000000e+009  -6.3630025761e-004   5.4497424804e-004   9.8937452287e-001  -8.0257565588e-003   9.9963346569e-001  -4.1744135852e-003  -2.1136690311e-004   3.6214458717e-004
  1.0316875000e+009  -2.0323969761e-004   7.8892120623e-004   9.8987711188e-001  -9.1041152447e-003   9.9907469062e-001  -3.3308990518e-003   2.9023056104e-005   2.1304623202e-004
  1.0402750000e+009   2.3382216274e-004   6.9182049204e-004   9.9087147490e-001  -8.1926852022e-003   9.9967000350e-001  -2.9611072159e-003   3.8139566674e-004  -6.4432840757e-005
  1.0488625000e+009   4.5721611736e-004   6.1804919263e-004   9.9158754335e-001  -8.0520229847e-003   9.9947627463e-001  -3.9496912101e-003   6.0568714876e-004  -2.4540246585e-004
  1.0574500000e+009   8.0535817375e-004   2.4077001047e-004   9.9128414482e-001  -8.5667005523e-003   9.9984884672e-001  -4.0408657491e-003   8.7655264742e-004  -3.9593883240e-004
