# Hz S RI R 50.000000
! Metas.Vna.Tools, 2.8.8664.20301
! Metas.Vna.Data, 2.8.8664.20285
! Created: UTC 2024.02.11 10:08:37
! FREQ                re:S1,1             im:S1,1             re:S2,1             im:S2,1             re:S1,2             im:S1,2             re:S2,2             im:S2,2          
  1.3000000000e+008   2.1911894077e-004  -7.1428636091e-004   9.9016556385e-001  -6.4949577384e-003   1.0004015149e+000  -8.7902332717e-004   1.3028964150e-003   6.5223565578e-004
  1.3858750000e+008  -9.7595606593e-004  -1.3084799103e-003   9.9128081505e-001  -7.1907051466e-003   1.0007649082e+000   6.3052418610e-004   1.1733761565e-003  -1.4325165078e-004
  1.4717500000e+008  -1.1761049001e-003  -1.4275847668e-003   9.9239822625e-001  -6.8190300206e-003   9.9997392319e-001   1.9736968652e-004   4.5940961822e-004   1.8651213210e-004
  1.5576250000e+008  -1.6797675658e-003  -9.3706213467e-006   9.9222838891e-001  -7.0411241360e-003   1.0001738330e+000   5.2314272209e-004   1.1643757041e-003  -8.8698535344e-004
  1.6435000000e+008  -9.6810559803e-004   5.1881377581e-004   9.9106029155e-001  -6.4536206419e-003   1.0003676763e+000   8.8202506170e-005   6.4519749497e-004  -6.4300001880e-004
  1.7293750000e+008  -8.5648067608e-004   1.0351030169e-003   9.9026050607e-001  -5.7290054205e-003   1.0004259430e+000   2.0315064434e-004   6.5527198799e-004  -7.5304218023e-004
  1.8152500000e+008  -2.8802082107e-004   2.1060301965e-004   9.9004509336e-001  -7.8467218321e-003   9.9998571970e-001  -7.0353764245e-005   3.2804264800e-004  -8.6530108316e-004
  1.9011250000e+008  -1.4407910837e-004   6.6605661375e-004   9.9155198788e-001  -8.7060420760e-003   1.0005832522e+000  -6.2270268241e-004   2.4456018783e-004  -9.5827678518e-004
  1.9870000000e+008  -6.7221226942e-005   9.1582718428e-004   9.9098253106e-001  -7.3002692050e-003   1.0002112322e+000  -6.1813434340e-004   5.3557738761e-004  -2.7369877137e-004
  2.0728750000e+008   2.4659273883e-004   1.1039467816e-004   9.8944354523e-001  -6.3896269216e-003   1.0009010205e+000  -1.0696270193e-003   1.0667557045e-004  -4.4379679203e-004
  2.1587500000e+008   6.7800008655e-004  -2.0802736764e-005   9.9172298368e-001  -7.1635535712e-003   1.0005343228e+000  -1.4473081567e-004  -3.4052975780e-004   1.8738220917e-004
  2.2446250000e+008   9.4683697995e-005  -5.2080043405e-004   9.9057563082e-001  -6.8838533996e-003   1.0003289905e+000  -5.0149188524e-004  -3.7432979710e-004   1.0975687858e-004
  2.3305000000e+008   1.5693641206e-004  -1.4446737721e-004   9.8841799582e-001  -7.9191192885e-003   1.0003922228e+000  -2.7341006782e-004   5.2079075809e-005   1.0964535946e-004
  2.4163750000e+008  -1.8523738143e-004  -2.8855542816e-004   9.8872623711e-001  -8.5215804123e-003   1.0001543582e+000  -9.2442733922e-004  -6.2172498009e-004   1.8906290055e-004
  2.5022500000e+008  -3.7846062052e-004  -5.5491064480e-004   9.8860630022e-001  -7.7805257684e-003   1.0000297537e+000  -5.8565245886e-004  -8.4239018732e-004   7.0117391529e-004
  2.5881250000e+008  -6.7771297260e-004  -5.4235540828e-004   9.8713416469e-001  -7.6174234665e-003   1.0002033675e+000  -6.4708524256e-004  -6.5025942011e-004   5.8639517649e-004
  2.6740000000e+008  -5.8484822209e-004  -5.3917697448e-004   9.8698874131e-001  -9.5400405925e-003   1.0003059111e+000  -8.3268213609e-004  -4.8106314144e-004  -9.8222541593e-005
  2.7598750000e+008  -4.9880369083e-004  -1.7040178608e-004   9.8770439785e-001  -9.0201247622e-003   1.0009616932e+000  -7.8156717801e-004  -4.6693663399e-004   7.4242087785e-004
  2.8457500000e+008  -8.4350870995e-004  -2.9870305894e-004   9.8860201932e-001  -7.8183945678e-003   1.0005852982e+000  -9.1122869893e-004  -7.4180119188e-004   6.3109335921e-004
  2.9316250000e+008  -8.0333836298e-004  -3.4457870579e-004   9.8714196251e-001  -8.1773624776e-003   1.0006061210e+000  -1.1686153934e-003  -2.1472281563e-004   4.5980969185e-004
  3.0175000000e+008  -8.2959889061e-004   1.1496754340e-004   9.8814998014e-001  -8.8552315978e-003   1.0006057458e+000  -5.7643967420e-004  -5.7722034958e-004   1.4154646887e-004
  3.1033750000e+008  -6.8796216439e-004  -7.8980098683e-006   9.8882753917e-001  -8.0849806661e-003   1.0008629041e+000  -7.8287206985e-004  -7.8034625400e-004   4.3959326809e-004
  3.1892500000e+008  -7.7508285180e-004   5.9972911505e-005   9.8834508365e-001  -9.3257831721e-003   1.0001532188e+000  -5.5963876666e-004  -6.9973814347e-004   1.6858686143e-004
  3.2751250000e+008  -5.7292498812e-004   4.1889229968e-004   9.9077927450e-001  -8.8146927210e-003   1.0004257845e+000  -1.5049559617e-003  -6.2800983177e-004   9.1244811985e-005
  3.3610000000e+008  -8.9977230736e-004   1.1047097639e-004   9.9179284999e-001  -6.1109284889e-003   1.0011808835e+000  -1.6965567135e-003  -6.8139450681e-004   1.9001613015e-004
  3.4468750000e+008  -7.8723238501e-004  -1.7873566420e-005   9.9129977176e-001  -7.1562139177e-003   1.0008738937e+000  -5.9770046197e-004  -7.8923813044e-004   1.0469673743e-004
  3.5327500000e+008  -7.1764694587e-004   2.3240809344e-004   9.9045035395e-001  -8.3521566720e-003   9.9909851921e-001  -1.5115602118e-003  -8.0309568480e-004   1.3605044231e-005
  3.6186250000e+008  -7.5233072227e-004   3.9201068834e-004   9.9110325187e-001  -9.6791016422e-003   1.0005498985e+000  -7.9271846451e-004  -5.9859415051e-004   3.5413433143e-004
  3.7045000000e+008  -8.5179212798e-004   5.4096280071e-004   9.8833165402e-001  -9.2692863434e-003   1.0005657556e+000  -1.8169571932e-003  -6.8883533825e-004   4.6280443734e-004
  3.7903750000e+008  -4.8758614262e-004   6.1335646745e-004   9.8782128531e-001  -7.4658763537e-003   1.0011389011e+000  -1.3269864526e-003  -6.4320207148e-004   2.2926464629e-004
  3.8762500000e+008  -3.7112731870e-004   5.6578522742e-004   9.9142845118e-001  -7.5667732721e-003   9.9957613705e-001  -1.5485901526e-003  -4.4394663551e-004   7.4717221052e-004
  3.9621250000e+008   8.6841037535e-005   3.4316098356e-004   9.8904364398e-001  -9.3100950039e-003   1.0006645340e+000  -1.7745366781e-003  -4.1081262188e-004   5.8745835687e-004
  4.0480000000e+008   3.3849016148e-004   3.2370297445e-004   9.9014233979e-001  -8.8415900182e-003   1.0001412447e+000  -9.0605189523e-004  -4.4482587551e-004   2.0353926096e-004
  4.1338750000e+008   2.9584424125e-004   1.1051654620e-004   9.9055834371e-001  -7.3751818291e-003   1.0009857582e+000  -9.8657252224e-004   6.2466622693e-005   1.8534611329e-004
  4.2197500000e+008   9.1542177060e-005  -5.1739565163e-005   9.9128821664e-001  -7.6908380361e-003   1.0003965940e+000  -1.5029727954e-003   4.4085412350e-006   5.9071560648e-004
  4.3056250000e+008   1.8273313007e-004  -1.7923540524e-004   9.9022608952e-001  -8.3575577710e-003   1.0007634752e+000  -1.4188568770e-003   4.4451147711e-004   4.2868016726e-004
  4.3915000000e+008   9.3406484186e-005  -3.8902903506e-004   9.9248692493e-001  -7.6967031605e-003   1.0002944623e+000  -1.8691599502e-003   4.4322297979e-004   1.1290954955e-004
  4.4773750000e+008   2.0202015334e-004  -4.8520274815e-004   9.9168466241e-001  -8.5861754897e-003   1.0005891707e+000  -1.7004217656e-003   5.0027710099e-004   2.0538578351e-004
  4.5632500000e+008  -8.8012334411e-005  -3.7195474188e-004   9.8876213634e-001  -7.9696097340e-003   1.0003333874e+000  -1.6747319231e-003   5.8998407911e-004   1.0751248107e-004
  4.6491250000e+008  -4.4293710514e-004  -2.6648404775e-004   9.8916758081e-001  -9.6323196487e-003   1.0001256747e+000  -1.6047292177e-003   6.6140730132e-004  -8.4311708424e-005
  4.7350000000e+008  -5.3662936953e-004  -3.5518064529e-004   9.8847282609e-001  -8.5362276817e-003   1.0002645972e+000  -1.6841059753e-003   3.2378981226e-004  -5.7073377210e-005
  4.8208750000e+008  -3.0020938985e-004  -2.5279641068e-006   9.8662472457e-001  -8.7074123470e-003   9.9979355536e-001  -1.2754183159e-003   5.4370102668e-004  -2.2707539901e-005
  4.9067500000e+008  -6.0490190440e-005  -2.4991178534e-004   9.8687834662e-001  -8.3918321402e-003   1.0000156787e+000  -1.8087718790e-003   3.5553669903e-004  -5.1188498565e-005
  4.9926250000e+008  -1.1757968422e-004  -3.2400593155e-004   9.8648190620e-001  -9.3597730737e-003   9.9979882806e-001  -1.5158718983e-003   3.3928433298e-004   1.3441081094e-004
  5.0785000000e+008  -4.8666067396e-004  -2.6345759658e-004   9.8780746689e-001  -8.4469283253e-003   9.9953928879e-001  -1.1364238951e-003   3.0008365410e-004   2.8462439466e-004
  5.1643750000e+008  -4.4734546931e-004   5.4882608886e-005   9.8642593600e-001  -8.5071652882e-003   1.0007032897e+000  -1.6367498298e-003   4.7068178071e-004  -1.9288534002e-005
  5.2502500000e+008  -2.1382357377e-004   6.2999595686e-004   9.8946529605e-001  -7.2841960387e-003   1.0007227902e+000  -1.0297328067e-003   2.7621677179e-004  -2.2014787413e-004
  5.3361250000e+008   3.0524417773e-004   4.0566992186e-004   9.8866099195e-001  -9.7169454544e-003   1.0007598029e+000  -1.6627832590e-003  -1.5853970022e-004  -4.0231356044e-004
  5.4220000000e+008   6.8832618307e-004  -6.8297624751e-006   9.8698298820e-001  -9.9622796578e-003   1.0009566453e+000  -1.5101502222e-003  -8.7867635969e-004  -3.1398075100e-004
  5.5078750000e+008   5.8224253215e-004  -7.2860269439e-004   9.8839817594e-001  -1.0347798973e-002   1.0002618987e+000  -2.1301603403e-003  -5.5406005552e-004  -1.6631559476e-004
  5.5937500000e+008   3.2191244714e-004  -8.1480642131e-004   9.8694780339e-001  -9.4188188795e-003   1.0002787517e+000  -2.2109240893e-003  -7.4284219353e-004   1.2666388551e-004
  5.6796250000e+008   3.5691203090e-004  -9.7957703444e-004   9.8788663492e-001  -9.2844255529e-003   9.9960661397e-001  -1.4454404664e-003  -9.2620081523e-004   4.6185154472e-004
  5.7655000000e+008  -2.9193725851e-004  -1.2073356878e-003   9.8844777355e-001  -1.0574558963e-002   9.9997698363e-001  -2.5602248865e-003  -6.4669478999e-004   8.0106919375e-004
  5.8513750000e+008  -4.4684464309e-004  -9.5556109283e-004   9.8639297296e-001  -1.0103118741e-002   1.0001636784e+000  -2.4881363594e-003  -8.3224160154e-004   8.3306147256e-004
  5.9372500000e+008  -5.5864386689e-004  -8.2450912894e-004   9.8560099488e-001  -9.4772811582e-003   9.9996557620e-001  -2.6503606186e-003  -7.3865134316e-004   9.7356862261e-004
  6.0231250000e+008  -1.0347018032e-003  -6.3477328527e-004   9.8797095841e-001  -8.4946754603e-003   1.0003926248e+000  -2.3134611801e-003  -4.9989197820e-004   9.9082747059e-004
  6.1090000000e+008  -8.6850457392e-004  -3.6925968884e-004   9.8906318499e-001  -1.0345864344e-002   1.0004434202e+000  -1.3471160520e-003  -3.5038840010e-004   8.3612854630e-004
  6.1948750000e+008  -9.7740385468e-004  -1.4896324956e-005   9.8734890790e-001  -9.5653465250e-003   9.9957756420e-001  -1.5763628332e-003  -3.8102860311e-004   6.2139653656e-004
  6.2807500000e+008  -8.8179905991e-004   6.7634001289e-005   9.8789845836e-001  -1.0195967148e-002   1.0000174138e+000  -1.6432854452e-003   5.6805751741e-005   3.2110134557e-004
  6.3666250000e+008  -4.2154512435e-004   6.9360140017e-004   9.8960044229e-001  -9.2195742528e-003   1.0004679511e+000  -2.4094000942e-003   1.8856660459e-004   2.0209042429e-004
  6.4525000000e+008  -1.6413004215e-004   4.0432404531e-004   9.8844806670e-001  -9.0945495001e-003   1.0002033965e+000  -2.1734943712e-003   3.0692333323e-004  -8.8628426569e-005
  6.5383750000e+008   1.2550444045e-004   2.8538995075e-004   9.8903060736e-001  -8.8231149629e-003   9.9977441356e-001  -2.2337861119e-003   4.2386639164e-004  -9.0072472273e-005
  6.6242500000e+008   2.4761082761e-004   1.1178623991e-004   9.8703565431e-001  -1.0783442653e-002   1.0000347897e+000  -2.6546357967e-003   2.7092036513e-004  -3.3478185086e-004
  6.7101250000e+008   4.9187977721e-004  -3.2896532254e-005   9.9037697102e-001  -7.5305982697e-003   9.9992517842e-001  -1.7156553070e-003   2.6237755823e-004  -7.4315732386e-004
  6.7960000000e+008   7.4417919911e-004  -4.5239794829e-004   9.9012427534e-001  -8.2926504914e-003   1.0002300877e+000  -2.1708295550e-003   2.1219067091e-004  -9.1630428241e-004
  6.8818750000e+008   3.6322447449e-004  -9.4221984247e-004   9.8969178025e-001  -8.8663731694e-003   1.0003150402e+000  -2.5640289153e-003   1.9907254423e-004  -1.2069150529e-003
  6.9677500000e+008   3.7870916077e-004  -1.1367863523e-003   9.8850875797e-001  -7.2400360739e-003   1.0003316689e+000  -2.7514574622e-003  -2.9144366588e-004  -1.0395321930e-003
  7.0536250000e+008  -1.4118438329e-004  -1.0712242821e-003   9.8844809288e-001  -1.0144627340e-002   9.9996656804e-001  -2.4523671026e-003  -4.2872040547e-004  -1.2005394181e-003
  7.1395000000e+008  -6.2617559629e-004  -1.1962068789e-003   9.8873086421e-001  -9.1639203665e-003   1.0001457444e+000  -2.4303618546e-003  -6.0981029154e-004  -1.2676561219e-003
  7.2253750000e+008  -9.6867826777e-004  -9.2787973131e-004   9.8564848254e-001  -1.0185065000e-002   1.0002616790e+000  -2.6540657489e-003  -7.8957699764e-004  -1.1603118562e-003
  7.3112500000e+008  -1.1190811335e-003  -4.7681556761e-004   9.8851467636e-001  -9.6358909783e-003   1.0005552203e+000  -2.4310014875e-003  -9.7554892095e-004  -1.0700225703e-003
  7.3971250000e+008  -1.1469726040e-003  -2.2334249791e-004   9.8859220095e-001  -1.0411882204e-002   1.0000301325e+000  -2.9085856089e-003  -1.1224243486e-003  -7.0269435875e-004
  7.4830000000e+008  -1.1023705467e-003   3.6466864420e-004   9.8869943494e-001  -8.3711864394e-003   9.9965759347e-001  -2.3933667258e-003  -8.5522094271e-004  -6.2948020791e-004
  7.5688750000e+008  -8.6550610205e-004   6.5420500537e-004   9.8569258058e-001  -9.3454306464e-003   9.9913737787e-001  -2.6870237658e-003  -1.0602722744e-003  -3.0339018069e-004
  7.6547500000e+008  -2.1985934925e-004   9.1135070086e-004   9.8981468713e-001  -1.0417740337e-002   1.0000103981e+000  -2.6509113954e-003  -1.0468624273e-003  -1.4652941721e-004
  7.7406250000e+008   6.5597462794e-005   9.4101065416e-004   9.8866929456e-001  -9.4004801321e-003   1.0001462890e+000  -2.7329397635e-003  -8.2618334441e-004   2.7539103327e-004
  7.8265000000e+008   5.2776892369e-004   6.3068256964e-004   9.9000600944e-001  -8.8846027365e-003   9.9981987580e-001  -2.1450195477e-003  -7.2687459498e-004   7.0281266260e-004
  7.9123750000e+008   6.6589249975e-004   3.8477177959e-004   9.8921574535e-001  -8.2948867540e-003   9.9989809671e-001  -1.6841513750e-003  -6.7189835380e-004   6.0164002569e-004
  7.9982500000e+008   8.6630025834e-004   2.8845384715e-004   9.8976151074e-001  -8.0550550345e-003   1.0003912610e+000  -1.3138993939e-003  -4.0332296848e-004   8.5747990595e-004
  8.0841250000e+008   1.0554412497e-003   2.8588705903e-005   9.8921707827e-001  -8.9903997127e-003   9.9912170109e-001  -2.1399176634e-003  -1.4945791480e-004   1.0083298727e-003
  8.1700000000e+008   1.0899273290e-003  -3.5261891828e-004   9.9068814526e-001  -8.3859561152e-003   1.0002168855e+000  -1.9513537393e-003  -1.3403440983e-004   9.2433466803e-004
  8.2558750000e+008   1.1950963221e-003  -5.1248735720e-004   9.9113498459e-001  -8.0030964635e-003   1.0003011040e+000  -2.7929646236e-003  -2.3578519654e-004   1.0148899058e-003
  8.3417500000e+008   8.5526113966e-004  -1.2111872338e-003   9.9052531944e-001  -9.3530368882e-003   1.0009669549e+000  -2.8323206956e-003  -4.1620106776e-005   1.0952535853e-003
  8.4276250000e+008   6.8114925505e-004  -1.2784047430e-003   9.8922613272e-001  -9.5693855332e-003   9.9967296807e-001  -2.8579002495e-003   1.9431162960e-004   1.1371260261e-003
  8.5135000000e+008   1.0454227731e-005  -1.2934706057e-003   9.8844180419e-001  -9.4762409462e-003   1.0009293621e+000  -2.7035913330e-003   4.2941684596e-004   1.0839198507e-003
  8.5993750000e+008  -2.5626223082e-004  -1.3122906671e-003   9.8864075236e-001  -9.5976495845e-003   1.0002322900e+000  -3.0901231310e-003   5.1021679555e-004   8.2491014527e-004
  8.6852500000e+008  -5.6313846033e-004  -8.6351698609e-004   9.8706175434e-001  -9.6539105959e-003   9.9900656954e-001  -2.2865904694e-003   5.0852451943e-004   6.8219250671e-004
  8.7711250000e+008  -5.4245510554e-004  -5.3599301017e-004   9.8794051676e-001  -9.3837917271e-003   1.0003259812e+000  -2.1120547060e-003   4.1340681209e-004   2.7630567424e-004
  8.8570000000e+008  -3.0024038469e-004  -4.5653927408e-004   9.8981830358e-001  -7.5251719152e-003   1.0001011938e+000  -3.3795726992e-003   3.8554441367e-004   1.1248298396e-004
  8.9428750000e+008  -2.8885588963e-004  -2.6325566128e-004   9.8602614030e-001  -9.9678523954e-003   1.0002553572e+000  -3.2733713868e-003  -1.2448891825e-005  -2.3610251264e-004
  9.0287500000e+008   2.3245804304e-005  -1.8944655771e-004   9.9053437174e-001  -1.0394298998e-002   9.9927613372e-001  -4.5018291722e-003  -2.5078635219e-004  -4.4597840316e-004
  9.1146250000e+008   3.4470597233e-004  -1.6052367831e-004   9.8993467178e-001  -8.9744525281e-003   9.9871414232e-001  -2.7650703794e-003  -5.5784746503e-004  -3.2171589151e-004
  9.2005000000e+008   3.3329246181e-004  -4.5163161491e-004   9.9011709341e-001  -7.6216420402e-003   9.9960178390e-001  -2.1145982813e-003  -8.0228755134e-004  -5.9176665354e-004
  9.2863750000e+008   4.9950177922e-004  -5.7031745228e-004   9.9138911759e-001  -8.9162297540e-003   9.9952459578e-001  -3.1475868172e-003  -8.7742077295e-004  -5.2110356717e-004
  9.3722500000e+008   3.8625783094e-004  -9.5006591607e-004   9.8994242674e-001  -8.8443688855e-003   9.9854944181e-001  -1.6526612171e-003  -1.1190733604e-003  -5.0314478478e-004
  9.4581250000e+008   3.7540176642e-004  -1.1723788605e-003   9.9072489545e-001  -9.0734230030e-003   9.9978619885e-001  -2.4157746255e-003  -1.4037032546e-003  -4.6503688647e-004
  9.5440000000e+008  -5.2470817136e-005  -1.3440005666e-003   9.9013321102e-001  -9.6426673455e-003   1.0004078040e+000  -3.0394339837e-003  -1.5100907707e-003  -2.6523743803e-004
  9.6298750000e+008  -2.3254683795e-004  -1.3586623359e-003   9.9043780724e-001  -7.4890604825e-003   9.9991520650e-001  -3.6712921204e-003  -1.6179540549e-003  -9.6500288111e-005
  9.7157500000e+008  -7.4943446640e-004  -1.3557381309e-003   9.9086352334e-001  -9.3191598205e-003   1.0001953410e+000  -3.2945107528e-003  -1.5100300933e-003  -1.0955897420e-004
  9.8016250000e+008  -9.0504569418e-004  -1.0955445692e-003   9.9061269362e-001  -9.9876513226e-003   9.9920397121e-001  -3.3164630292e-003  -1.4692512610e-003   1.8897508804e-004
  9.8875000000e+008  -1.2150370798e-003  -7.3152606011e-004   9.9066562511e-001  -9.8866760362e-003   9.9921015548e-001  -2.8767076849e-003  -1.2912711358e-003   2.9749800560e-004
  9.9733750000e+008  -1.1133787860e-003  -3.3966262519e-004   9.8957644296e-001  -8.3851975790e-003   1.0000394132e+000  -2.5150540822e-003  -1.1293175764e-003  -1.3336722142e-005
  1.0059250000e+009  -9.6491895468e-004   2.3637171157e-005   9.9128506076e-001  -7.3747161225e-003   1.0005315892e+000  -2.9907336999e-003  -8.0476221683e-004   2.6986271018e-004
  1.0145125000e+009  -8.0881805687e-004   4.2600880854e-004   9.9068621834e-001  -1.0276552756e-002   9.9951263054e-001  -3.1167861750e-003  -3.1482640027e-004   3.2224988062e-004
  1.0231000000e+009  -5.3705205033e-004   4.1735804944e-004   9.8913124356e-001  -8.2468385042e-003   9.9941826211e-001  -3.6699420048e-003  -2.0791895416e-004   2.1493210535e-004
  1.0316875000e+009  -2.0169081505e-004   7.0934669409e-004   9.8798983207e-001  -1.0349551067e-002   9.9919944916e-001  -3.4915515863e-003   8.3821293796e-005   9.2904514440e-005
  1.0402750000e+009   2.0153307213e-004   7.7829785364e-004   9.8943405205e-001  -9.7008970041e-003   9.9941133298e-001  -2.2369439020e-003   3.8980888540e-004  -2.0574645637e-004
  1.0488625000e+009   4.3372762944e-004   5.6978997433e-004   9.9077355614e-001  -9.0163084055e-003   9.9926468120e-001  -3.0207033911e-003   7.0507901798e-004  -2.5911648110e-004
  1.0574500000e+009   6.8387231504e-004   2.1894904817e-004   9.8933773511e-001  -1.0166934089e-002   9.9933285074e-001  -3.5912639887e-003   8.5049535463e-004  -5.7079893710e-004
