# Hz S RI R 50.000000
! Metas.Vna.Tools, 2.8.8664.20301
! Metas.Vna.Data, 2.8.8664.20285
! Created: UTC 2024.02.11 10:08:24
! FREQ                re:S1,1             im:S1,1             re:S2,1             im:S2,1             re:S1,2             im:S1,2             re:S2,2             im:S2,2          
  1.3000000000e+008   5.0315382230e-004  -8.9392071161e-004   9.9403400720e-001  -6.1771461377e-003   1.0001360800e+000  -6.2339163617e-004   1.0508481290e-003   1.8075338702e-003
  1.3858750000e+008  -6.2637311257e-004  -1.4662757516e-003   9.9589477651e-001  -5.7017287645e-003   9.9983447012e-001   3.0222318219e-004   1.1475576436e-003  -4.5616513140e-004
  1.4717500000e+008  -1.7246949234e-003  -1.3647744422e-003   9.9465742175e-001  -7.3105914194e-003   1.0007483676e+000  -1.5399605726e-004   1.7001907794e-004   2.1022966843e-006
  1.5576250000e+008  -7.6818020376e-004  -2.7045937396e-004   9.9430512674e-001  -5.7855666075e-003   1.0009995496e+000  -1.5726474260e-004   1.2401931652e-003  -1.0518444104e-003
  1.6435000000e+008  -5.9232321988e-004   8.9068891835e-004   9.9437778642e-001  -5.1624647964e-003   1.0007233926e+000  -7.7609461295e-004   4.6827331301e-004  -6.3685203205e-004
  1.7293750000e+008  -1.0103185821e-003   7.6609707886e-004   9.9327434683e-001  -5.0074641036e-003   1.0009417660e+000  -4.7236358756e-004   8.5792271914e-004  -8.0538289590e-004
  1.8152500000e+008  -6.6249912383e-004   9.1964095869e-004   9.9299648291e-001  -6.1941575459e-003   1.0001300830e+000  -9.4568189844e-004   5.6679058071e-004  -5.0092947583e-004
  1.9011250000e+008  -7.4963185028e-004   5.8916918478e-004   9.9548538183e-001  -6.3127413396e-003   1.0007527034e+000  -8.2355435178e-004   4.1650765176e-004  -1.1227552015e-003
  1.9870000000e+008  -3.8200178139e-004   9.5963802706e-004   9.9490427760e-001  -5.4021480152e-003   1.0005288853e+000  -8.0024055596e-004   5.9690552823e-004  -3.7464040991e-004
  2.0728750000e+008   3.2769681258e-004   5.1521615280e-004   9.9453756408e-001  -5.3585051039e-003   1.0007886338e+000  -7.9542341678e-004  -9.4012874593e-006  -5.8125865079e-004
  2.1587500000e+008   2.7147801334e-004  -2.8639040116e-004   9.9538100358e-001  -6.8697997595e-003   1.0000454326e+000  -5.2383520649e-004  -4.7580718323e-004   4.2780584545e-004
  2.2446250000e+008   4.0542504228e-004  -2.1593559523e-004   9.9484615992e-001  -6.1614017672e-003   1.0007079337e+000  -6.8137844788e-004  -2.1786282072e-004  -1.5130543343e-004
  2.3305000000e+008   1.0377928721e-004  -1.6380249353e-004   9.9388327560e-001  -6.5104102044e-003   1.0003195985e+000  -2.7256556140e-004  -3.5382612849e-004   1.7138763356e-004
  2.4163750000e+008  -1.2198322021e-004  -5.2999116201e-004   9.9507114146e-001  -7.2392785217e-003   1.0003066870e+000  -1.4845831624e-003  -5.8902246122e-004  -1.0057984737e-006
  2.5022500000e+008  -4.9455593138e-004  -6.8667278796e-004   9.9467602270e-001  -5.9263974502e-003   1.0004422462e+000  -9.5141232865e-004  -6.2144613218e-004   3.9760390833e-004
  2.5881250000e+008  -6.9371161606e-004  -5.5924667049e-004   9.9272908543e-001  -5.7364672131e-003   1.0010091816e+000  -1.5246077191e-003  -7.9461209002e-004   2.2563772825e-004
  2.6740000000e+008  -8.3535546922e-004  -3.3723875543e-004   9.9267166021e-001  -7.6455474862e-003   1.0010180436e+000  -2.4849659122e-003  -5.9139725201e-004   2.6490792745e-004
  2.7598750000e+008  -9.8297600883e-005  -2.9736705520e-004   9.9017188678e-001  -8.4647542168e-003   1.0010918425e+000  -1.1417832575e-003  -4.4289012645e-004   7.0200182147e-004
  2.8457500000e+008  -1.0053954516e-003  -3.3375614493e-004   9.8794783823e-001  -8.0632801922e-003   1.0002747312e+000  -8.9178010862e-004  -1.9932029195e-004   6.1992223798e-004
  2.9316250000e+008  -4.2382248940e-004  -2.0750138390e-004   9.8558596804e-001  -9.4927854548e-003   1.0003279426e+000  -1.6915614330e-003  -2.1948396566e-004   4.7859134072e-004
  3.0175000000e+008  -8.9465772123e-004   7.8762510131e-005   9.8487829700e-001  -1.2309838272e-002   1.0005517511e+000  -1.0797833298e-003  -7.9140391058e-004   1.8371764586e-004
  3.1033750000e+008  -9.3121969132e-004  -1.1041921242e-004   9.8676814167e-001  -8.5999506584e-003   1.0009473573e+000  -8.6491079910e-004  -5.2231814820e-004   5.2212217522e-004
  3.1892500000e+008  -8.4463008589e-004   3.6607302029e-005   9.8760294878e-001  -8.2483323603e-003   9.9969629372e-001  -1.2743375009e-003  -6.7468569973e-004   2.5274109977e-004
  3.2751250000e+008  -4.7188103965e-004  -8.7185112737e-005   9.8708581571e-001  -9.5276610853e-003   1.0003545384e+000  -1.8489140527e-003  -6.2407499654e-004   9.4774651686e-005
  3.3610000000e+008  -9.4798621603e-004   6.4213293340e-005   9.8705040699e-001  -8.4500565738e-003   1.0012271719e+000  -1.8409495563e-003  -6.9815972920e-004   1.9083258472e-004
  3.4468750000e+008  -6.5401470488e-004  -1.2369824051e-004   9.8821327143e-001  -7.9786845992e-003   1.0008043691e+000  -1.3520388027e-003  -6.1684355765e-004   1.2885269100e-004
  3.5327500000e+008  -5.6297799955e-004   2.1152391224e-004   9.8679998019e-001  -8.8848038781e-003   9.9962925168e-001  -2.6168151345e-003  -4.6559769251e-004   1.4626378125e-004
  3.6186250000e+008  -6.0865421447e-004   2.2557061192e-004   9.8658914067e-001  -9.0746469811e-003   1.0006045978e+000  -1.0667442562e-003  -5.9045391998e-004   6.8021251036e-005
  3.7045000000e+008  -7.4839580862e-004   3.6640248519e-004   9.8754912237e-001  -9.3272909082e-003   1.0007853412e+000  -2.0976722023e-003  -5.5102839995e-004   2.0226640671e-004
  3.7903750000e+008  -3.6710941241e-004   7.7371906311e-004   9.8691792950e-001  -8.6702234648e-003   1.0011735046e+000  -1.8591757987e-003  -5.6310346336e-004   4.1447507639e-005
  3.8762500000e+008  -4.7153643759e-004   6.8346786171e-004   9.8791963316e-001  -9.1275905865e-003   1.0002402544e+000  -1.3414353504e-003  -3.7172863530e-004   5.0104372088e-004
  3.9621250000e+008  -1.8270745508e-004   2.4884345031e-004   9.8907375909e-001  -8.6358619419e-003   1.0008842099e+000  -2.0204715702e-003  -3.5599654346e-004   4.6913830160e-004
  4.0480000000e+008   2.5441426035e-004   4.5940067836e-004   9.8987965947e-001  -8.4777857878e-003   1.0006166970e+000  -1.7282578029e-003  -3.0977384022e-004   3.5851305849e-004
  4.1338750000e+008   2.9309466656e-004   5.0949242080e-005   9.9030816528e-001  -7.9193577238e-003   1.0008762822e+000  -1.7801632866e-003   3.5618113957e-005   3.0780048235e-004
  4.2197500000e+008  -2.1789184100e-004  -5.4670688558e-005   9.9081314783e-001  -8.7352067580e-003   1.0003921201e+000  -1.6953106540e-003  -1.0542116387e-005   3.9515548986e-004
  4.3056250000e+008   4.0813747194e-004  -2.1388329021e-004   9.8963691203e-001  -8.7634040683e-003   1.0007049288e+000  -1.6468987926e-003   5.0915014733e-004   1.8297513066e-004
  4.3915000000e+008   2.6364547681e-005  -2.7847044050e-004   9.9321573009e-001  -7.3161954303e-003   1.0005443511e+000  -2.4058469423e-003   4.3994333731e-004   2.9913582206e-004
  4.4773750000e+008   3.3545412603e-004  -4.0917787229e-004   9.9159486302e-001  -7.9405176652e-003   1.0005355640e+000  -2.2289996371e-003   5.2242900228e-004   5.3688534079e-005
  4.5632500000e+008  -9.6893008738e-005  -5.5030272323e-004   9.8835906328e-001  -7.4512944417e-003   1.0003802737e+000  -2.1425814009e-003   5.2731245696e-004   5.9090531743e-005
  4.6491250000e+008  -3.2808268929e-004  -2.2546282003e-004   9.8957131358e-001  -9.4192683188e-003   1.0001498646e+000  -1.9937651230e-003   5.2577086916e-004   9.0701279043e-005
  4.7350000000e+008  -4.9702054563e-004  -3.9477080407e-004   9.8862063390e-001  -9.0596622025e-003   1.0002570453e+000  -1.9736415360e-003   4.7198809898e-004  -1.0423785953e-005
  4.8208750000e+008  -5.8015754693e-004   4.8050338336e-005   9.8764233746e-001  -9.1351176243e-003   9.9988399151e-001  -1.6511178381e-003   5.0309991335e-004   6.2084747553e-005
  4.9067500000e+008   3.5774139662e-005  -3.8888501831e-004   9.8712353152e-001  -8.6835499690e-003   1.0000610403e+000  -2.0900114803e-003   2.3130053335e-004   1.3022643747e-004
  4.9926250000e+008  -2.3314737390e-004  -5.5509861687e-004   9.8742389683e-001  -9.0174561314e-003   9.9964385705e-001  -2.0012528211e-003   5.1656384167e-004   1.9293276049e-004
  5.0785000000e+008  -4.2692207554e-004  -5.6143587203e-004   9.8776319179e-001  -8.2295297159e-003   9.9992463371e-001  -1.4142564872e-003   4.6758755381e-004   2.4586533657e-004
  5.1643750000e+008  -6.0498166525e-004   3.6522529687e-005   9.8700416239e-001  -7.8352023649e-003   1.0001623544e+000  -1.5875002310e-003   8.3016261878e-004   8.2253348890e-005
  5.2502500000e+008  -2.0323765495e-004   6.0908331076e-004   9.8761433964e-001  -8.5261116295e-003   1.0009051611e+000  -1.3564651491e-003   1.1696142980e-004  -1.9673286709e-004
  5.3361250000e+008   2.5614630629e-004   5.6226875994e-004   9.8874387925e-001  -9.8277288363e-003   1.0005459948e+000  -1.8724291242e-003  -1.4124057306e-005  -5.9929481001e-004
  5.4220000000e+008   6.5909076998e-004   1.9791739313e-004   9.8856987219e-001  -9.5325262904e-003   1.0009118152e+000  -1.8711231259e-003  -6.4762865274e-004  -3.4428958660e-004
  5.5078750000e+008   6.2862057421e-004  -4.1213950934e-004   9.8762639438e-001  -1.0098709481e-002   1.0002150328e+000  -2.3508329438e-003  -7.1503770066e-004  -1.2768138238e-004
  5.5937500000e+008   5.2105227491e-004  -6.7381737079e-004   9.8645951558e-001  -9.2728763044e-003   1.0006022931e+000  -2.2480746824e-003  -8.1984502211e-004   1.4085824915e-004
  5.6796250000e+008   2.4407168680e-004  -8.6859832842e-004   9.8717083823e-001  -9.2185618542e-003   1.0007614648e+000  -1.9534912172e-003  -8.1982646639e-004   4.8381346959e-004
  5.7655000000e+008  -2.0842583499e-005  -1.0353593916e-003   9.8721750806e-001  -1.1623262080e-002   1.0001366084e+000  -2.4208423197e-003  -6.7951816652e-004   7.7790809225e-004
  5.8513750000e+008  -3.3202801108e-004  -9.1511244395e-004   9.8547702405e-001  -1.1116499194e-002   1.0001711408e+000  -1.9961868189e-003  -6.8171158148e-004   8.2559965208e-004
  5.9372500000e+008  -5.5479962714e-004  -9.5231316429e-004   9.8684432000e-001  -1.0099437184e-002   1.0002574859e+000  -3.2378396569e-003  -5.4954526754e-004   9.0159141824e-004
  6.0231250000e+008  -1.0137989763e-003  -5.5433718638e-004   9.8622295107e-001  -9.4365090362e-003   1.0002296260e+000  -2.5195624541e-003  -4.4396349176e-004   7.4146088415e-004
  6.1090000000e+008  -8.5536878154e-004  -6.1623532029e-004   9.8745449043e-001  -1.0490056458e-002   9.9977762229e-001  -1.8599933834e-003  -4.7425233218e-004   9.1390788657e-004
  6.1948750000e+008  -8.7916242811e-004  -7.3661899294e-005   9.8768256652e-001  -8.6858607977e-003   9.9969620232e-001  -1.0351109455e-003  -3.7888172397e-004   5.6172336277e-004
  6.2807500000e+008  -8.6651166163e-004  -3.1886419577e-005   9.8713422382e-001  -1.0400866146e-002   1.0004940538e+000  -2.2578437312e-003   2.0858747465e-005   2.8478611141e-004
  6.3666250000e+008  -4.5253418221e-004   5.1823262829e-004   9.8836211579e-001  -8.6135955952e-003   9.9975354160e-001  -3.2774330671e-003   1.2315605679e-004   2.9896238534e-004
  6.4525000000e+008  -3.0658918813e-004   4.7714095873e-004   9.8286148806e-001  -1.1323859443e-002   1.0005077897e+000  -2.2573432312e-003   6.4663993104e-005   1.4604630084e-004
  6.5383750000e+008   6.2038865003e-006   2.2859280822e-004   9.8988536762e-001  -7.6398577625e-003   1.0000023611e+000  -1.9945580811e-003   1.9503880431e-004  -2.8273271598e-004
  6.6242500000e+008   2.8828218092e-004   1.5528182414e-004   9.9025967390e-001  -8.2819576256e-003   1.0006281750e+000  -2.9729616084e-003   2.4786364032e-004  -4.6783578102e-004
  6.7101250000e+008   3.0074444722e-004  -1.1308687080e-004   9.9173352619e-001  -6.4858924813e-003   1.0003305213e+000  -1.8147838384e-003   2.5947933163e-004  -6.3523846925e-004
  6.7960000000e+008   6.8171287498e-004  -3.5864173184e-004   9.9193230120e-001  -7.8973428086e-003   1.0009250843e+000  -2.5417030243e-003   2.2247105587e-004  -9.4542016786e-004
  6.8818750000e+008   3.0737048013e-004  -8.6869609988e-004   9.9105062437e-001  -8.3692006616e-003   1.0000784755e+000  -2.9974215719e-003   4.5410816420e-005  -9.9526678389e-004
  6.9677500000e+008   2.2620663657e-004  -9.8534579658e-004   9.9124855727e-001  -8.8797148772e-003   1.0002320932e+000  -2.1943037716e-003  -1.4957612916e-004  -1.1011762346e-003
  7.0536250000e+008  -2.1073010661e-004  -1.0802541279e-003   9.9061534139e-001  -8.8008498254e-003   1.0006152423e+000  -2.7519741113e-003  -2.0722192841e-004  -1.2315171092e-003
  7.1395000000e+008  -5.3960942160e-004  -1.1128730896e-003   9.9059496453e-001  -7.7343526131e-003   9.9986680732e-001  -2.9252474170e-003  -5.7825376150e-004  -1.2671556801e-003
  7.2253750000e+008  -1.0371185269e-003  -8.8341085317e-004   9.9104787532e-001  -8.6901810273e-003   9.9979408735e-001  -2.6717824424e-003  -7.7739938235e-004  -1.2206745833e-003
  7.3112500000e+008  -1.0611187746e-003  -4.1389823732e-004   9.9067931038e-001  -9.0003893206e-003   1.0004863499e+000  -2.4001923263e-003  -8.3811067462e-004  -9.8729881882e-004
  7.3971250000e+008  -1.0330869961e-003  -8.3407921496e-005   9.9062068482e-001  -9.7245609596e-003   9.9985608412e-001  -2.6840967019e-003  -1.1259512454e-003  -7.5742038461e-004
  7.4830000000e+008  -9.4810115689e-004   3.4812766431e-004   9.8665456133e-001  -8.2581793108e-003   9.9988439245e-001  -2.4496188897e-003  -8.6823442220e-004  -6.8124931293e-004
  7.5688750000e+008  -8.3863520831e-004   6.7877716952e-004   9.7627392919e-001  -1.3457935761e-002   9.9913527104e-001  -2.6885186465e-003  -8.7690011986e-004  -1.6872477489e-004
  7.6547500000e+008  -3.0838841111e-004   8.9823231840e-004   9.8673907887e-001  -1.1819775805e-002   9.9944318578e-001  -3.0041108763e-003  -1.0415808733e-003   6.3854449863e-005
  7.7406250000e+008   4.5182951820e-006   8.5511837795e-004   9.8367660771e-001  -1.1697843210e-002   9.9999529387e-001  -2.9651073192e-003  -6.9642602598e-004   3.5709061662e-004
  7.8265000000e+008   4.6747441377e-004   6.4091442802e-004   9.8303935147e-001  -1.0251213812e-002   1.0001644311e+000  -2.4157297099e-003  -5.6898436054e-004   5.0944667645e-004
  7.9123750000e+008   7.3772268844e-004   3.7353895237e-004   9.8558369542e-001  -9.9910961156e-003   9.9919105757e-001  -2.0510391644e-003  -5.3114172945e-004   5.2480480642e-004
  7.9982500000e+008   6.3638138168e-004   2.8731014768e-004   9.9068676284e-001  -8.5941560481e-003   9.9997013301e-001  -1.7551514402e-003  -4.1448608425e-004   6.6142416355e-004
  8.0841250000e+008   9.8118296820e-004   1.8060675154e-004   9.9064125530e-001  -8.5725631737e-003   9.9969443559e-001  -2.8297489282e-003  -3.5428166371e-004   8.5853416938e-004
  8.1700000000e+008   1.0882888143e-003  -1.2699983699e-004   9.9194735546e-001  -8.1549949847e-003   1.0000670505e+000  -2.7319726208e-003  -3.0992694271e-004   8.7653924218e-004
  8.2558750000e+008   1.2958239606e-003  -4.2389077610e-004   9.9265232823e-001  -8.2369849492e-003   1.0005458596e+000  -2.8662000114e-003  -4.7686263700e-004   9.3543891317e-004
  8.3417500000e+008   1.1291899028e-003  -1.0062550411e-003   9.9100252500e-001  -8.7570928317e-003   1.0009459577e+000  -3.0069871370e-003  -2.0410024400e-004   1.1961122113e-003
  8.4276250000e+008   7.0674751429e-004  -1.3497108878e-003   9.8896578808e-001  -8.6326323814e-003   1.0003082575e+000  -3.0006166435e-003  -1.0805632978e-004   1.1367329909e-003
  8.5135000000e+008   1.4086224778e-004  -1.3628383949e-003   9.9205314356e-001  -7.9134008833e-003   1.0005603129e+000  -2.1996245374e-003   1.9810492921e-004   1.3892775261e-003
  8.5993750000e+008  -1.1515212211e-004  -1.3090274064e-003   9.9218571323e-001  -8.5463798950e-003   1.0010166997e+000  -3.2920440160e-003   3.5264282175e-004   1.3587854293e-003
  8.6852500000e+008  -5.6507620779e-004  -1.0983709003e-003   9.9047668569e-001  -8.5548737759e-003   9.9963989759e-001  -3.6060229758e-003   5.9265558809e-004   8.9907108060e-004
  8.7711250000e+008  -5.9154238896e-004  -7.8044701894e-004   9.8168938054e-001  -1.2095781793e-002   1.0004763102e+000  -3.8379602456e-003   4.8288659827e-004   2.6062364040e-004
  8.8570000000e+008  -4.8901361239e-004  -6.0683671692e-004   9.9182545302e-001  -8.2211644215e-003   9.9933962035e-001  -3.6351379563e-003   4.9110976676e-004   2.2848132919e-004
  8.9428750000e+008  -5.1840033360e-004  -1.7946128623e-004   9.9022175207e-001  -9.0527357503e-003   9.9961077329e-001  -3.9173258086e-003   1.8126309772e-004  -1.2126856980e-004
  9.0287500000e+008  -2.2762001188e-004  -1.3199935992e-004   9.9005248713e-001  -8.9112642149e-003   9.9970599164e-001  -3.5381729530e-003   7.9500562649e-005  -3.2403466452e-004
  9.1146250000e+008   1.2769306226e-004  -1.7165465249e-004   9.9085849604e-001  -9.0077244173e-003   9.9883387721e-001  -3.4905437091e-003  -3.8590097948e-004  -3.2826384814e-004
  9.2005000000e+008   1.7372294982e-004  -2.5052452121e-004   9.8375044368e-001  -1.0127010513e-002   9.9841563563e-001  -2.7833286276e-003  -7.5907166027e-004  -4.1433561200e-004
  9.2863750000e+008   4.6314854051e-004  -5.0688548610e-004   9.8787857216e-001  -9.5984128709e-003   9.9929343293e-001  -3.8859486512e-003  -8.3012887359e-004  -5.0123585256e-004
  9.3722500000e+008   4.5085295527e-004  -6.5909182707e-004   9.8607253032e-001  -1.0294353576e-002   9.9883939661e-001  -3.3362674269e-003  -1.1223375088e-003  -5.0676110751e-004
  9.4581250000e+008   4.2589057733e-004  -9.7094220137e-004   9.8261660798e-001  -1.1779975478e-002   9.9891000005e-001  -2.9436442250e-003  -1.3518320486e-003  -3.4507968564e-004
  9.5440000000e+008   1.3244395054e-004  -1.1684694015e-003   9.9120591653e-001  -9.3555220333e-003   9.9943758425e-001  -2.3683892628e-003  -1.4241359065e-003  -4.6277280954e-004
  9.6298750000e+008  -1.9914697871e-004  -1.3223770381e-003   9.9114435940e-001  -8.3646527311e-003   9.9936016744e-001  -3.0083429479e-003  -1.5254597133e-003  -2.7279592909e-004
  9.7157500000e+008  -4.3472444572e-004  -1.2925439599e-003   9.9160166430e-001  -1.0022936080e-002   1.0014094335e+000  -3.6664975427e-003  -1.5374185100e-003  -2.5904543675e-004
  9.8016250000e+008  -8.2468836936e-004  -1.0686539793e-003   9.8809567777e-001  -1.0280879461e-002   9.9970477705e-001  -3.8758910370e-003  -1.3479265978e-003   1.5833079590e-004
  9.8875000000e+008  -9.9788267059e-004  -7.3269090597e-004   9.9300669555e-001  -6.3854424771e-003   9.9950381512e-001  -3.2330932066e-003  -1.4270076028e-003   1.9408862918e-004
  9.9733750000e+008  -1.1898541082e-003  -5.2933500330e-004   9.9210604177e-001  -8.6183446141e-003   9.9942701227e-001  -2.8891311998e-003  -1.2978351654e-003   9.8992227160e-005
  1.0059250000e+009  -1.0781280392e-003  -1.2044875492e-004   9.9452389233e-001  -7.4632212380e-003   1.0006271534e+000  -2.9956522104e-003  -1.0552539941e-003   2.3296711034e-004
  1.0145125000e+009  -9.6396562186e-004   3.2994071248e-004   9.9364166450e-001  -1.0300701631e-002   9.9944849863e-001  -3.1891171656e-003  -6.3877694699e-004   2.9943158396e-004
  1.0231000000e+009  -7.4465468563e-004   5.2249182450e-004   9.9290905603e-001  -7.2328530081e-003   9.9986611297e-001  -3.1659179869e-003  -3.9750532888e-004   3.1138066939e-004
  1.0316875000e+009  -4.0663034903e-004   7.3602177202e-004   9.9403349407e-001  -8.2252944052e-003   9.9952123954e-001  -3.4762388984e-003  -5.8595083999e-005   3.0091462366e-004
  1.0402750000e+009   8.0054515405e-005   7.4627065386e-004   9.9350065893e-001  -8.3570878639e-003   1.0001233774e+000  -3.0663011549e-003   2.6342069038e-004   3.2793593937e-005
  1.0488625000e+009   1.9464872870e-004   5.9772462802e-004   9.9365519798e-001  -7.9579705641e-003   9.9934999519e-001  -2.9912255119e-003   5.9624997914e-004  -1.3787437482e-004
  1.0574500000e+009   5.8267801530e-004   3.9779667917e-004   9.9324752585e-001  -8.5667405337e-003   9.9950855786e-001  -3.8600823769e-003   8.9687385839e-004  -2.5890956501e-004
