# Hz S RI R 50.000000
! Metas.Vna.Tools, 2.8.8664.20301
! Metas.Vna.Data, 2.8.8664.20285
! Created: UTC 2024.02.11 10:08:11
! FREQ                re:S1,1             im:S1,1             re:S2,1             im:S2,1             re:S1,2             im:S1,2             re:S2,2             im:S2,2          
  1.3000000000e+008  -5.3850067914e-004  -1.3809531406e-003   9.9928565611e-001  -4.3764326103e-003   1.0008389215e+000  -1.8969205936e-003   1.2491384325e-003   6.4973099108e-004
  1.3858750000e+008  -6.1963821691e-004  -1.5142955907e-003   1.0010514775e+000  -3.6704947026e-003   1.0008440472e+000  -1.9206934203e-003   1.2866208661e-003  -2.6346533464e-004
  1.4717500000e+008  -1.8903677649e-003  -1.7511597859e-003   1.0004393223e+000  -4.2609299505e-003   1.0003507405e+000  -1.4291801201e-003   8.0184362977e-004  -5.6386871815e-004
  1.5576250000e+008  -1.0822664431e-003  -3.7126883353e-004   1.0010565719e+000  -3.7778216259e-003   1.0001920195e+000  -1.4595617539e-003   1.4062265255e-003  -9.2411718070e-004
  1.6435000000e+008  -6.8465901321e-004   7.1177135084e-004   9.9976903019e-001  -3.2598614342e-003   1.0004458131e+000  -2.0961450756e-003   7.4290096977e-004  -5.5740815985e-004
  1.7293750000e+008  -1.3852738609e-003   4.3369080952e-004   1.0003407295e+000  -3.6045299028e-003   1.0002869390e+000  -2.0757999126e-003   8.4476035462e-004  -9.0878030087e-004
  1.8152500000e+008  -5.9953339335e-004   8.0169267057e-004   9.9958806362e-001  -5.1770631138e-003   1.0001174251e+000  -1.5901790623e-003   5.9297642898e-004  -4.2734823698e-004
  1.9011250000e+008  -6.1727722643e-004   5.2129134538e-004   1.0006442425e+000  -5.4384881630e-003   1.0011543543e+000  -1.7769262357e-003   3.8233876368e-004  -1.0314857863e-003
  1.9870000000e+008   2.1641104242e-005   1.3076228856e-003   1.0016282169e+000  -4.2049457041e-003   1.0008150208e+000  -2.1313130886e-003   6.0832677107e-004  -2.9914795901e-004
  2.0728750000e+008   9.7060998898e-005   3.0558843747e-004   1.0000553315e+000  -4.4962933095e-003   1.0006571624e+000  -1.8784197727e-003   3.4396972463e-004  -4.6822855295e-004
  2.1587500000e+008  -2.2613837141e-004  -3.4197319965e-004   1.0003767211e+000  -5.3799311783e-003   9.9964006945e-001  -1.5782759764e-003  -6.2181535766e-004   2.2939104756e-004
  2.2446250000e+008   5.0863298034e-004  -5.0745599975e-004   9.9983113403e-001  -4.1331642755e-003   1.0004373055e+000  -1.9185984109e-003  -2.3530256196e-004   4.7027815990e-005
  2.3305000000e+008   2.9504011219e-004  -3.0602214604e-004   9.9961857814e-001  -4.2888046207e-003   1.0002972254e+000  -1.9760861364e-003  -1.0438491013e-004   8.5134982176e-005
  2.4163750000e+008   2.4971107285e-004  -3.1552966283e-004   1.0001766836e+000  -5.1461029542e-003   1.0003806015e+000  -2.5837102816e-003  -2.4954191401e-004   2.4265376682e-004
  2.5022500000e+008  -1.3386180538e-004  -6.6963586794e-004   1.0006026115e+000  -3.5000692339e-003   9.9969431824e-001  -2.3611838326e-003  -9.6253638756e-004   5.7408095695e-004
  2.5881250000e+008  -6.5171506403e-004  -9.1370807307e-004   9.9915185227e-001  -4.4771886374e-003   1.0006691269e+000  -3.1876082930e-003  -6.9369709588e-004   5.1741564036e-004
  2.6740000000e+008  -8.1707412557e-004  -7.3285127020e-004   9.9987407424e-001  -4.7898418710e-003   1.0001216952e+000  -3.4850672232e-003  -3.2687833428e-004   3.4980598137e-004
  2.7598750000e+008  -6.1402500955e-004  -2.8018597307e-004   9.9900555436e-001  -6.0003602230e-003   1.0006327694e+000  -2.2477658472e-003  -4.5529971646e-004   5.0746051697e-004
  2.8457500000e+008  -1.0301455315e-003  -3.9392244651e-004   1.0005559718e+000  -4.4343485445e-003   1.0005803783e+000  -1.8561692450e-003  -3.0507927922e-004   7.3157741340e-004
  2.9316250000e+008  -8.0592455536e-004  -4.2492686368e-004   9.9961232947e-001  -3.7463465854e-003   1.0003259144e+000  -3.3024502391e-003  -2.3524560635e-004   4.4190500597e-004
  3.0175000000e+008  -1.0441496923e-003   3.4744328861e-004   1.0000873347e+000  -6.8749875398e-003   1.0005239538e+000  -1.9597276578e-003  -5.6838659945e-004   5.3434953178e-004
  3.1033750000e+008  -9.5722090045e-004   2.5617311866e-004   1.0009084496e+000  -4.8254316357e-003   1.0011312799e+000  -2.5682776383e-003  -6.5924233806e-004   5.6466960601e-004
  3.1892500000e+008  -8.5702456358e-004   2.6689201048e-004   1.0008794892e+000  -5.4213136724e-003   1.0004095768e+000  -1.7263757269e-003  -7.7560078150e-004   1.9946188085e-004
  3.2751250000e+008  -8.8316092989e-004   3.0246763289e-004   9.9988812049e-001  -6.4521471729e-003   1.0010533339e+000  -3.1223987161e-003  -9.2044130084e-004   2.2279961164e-004
  3.3610000000e+008  -8.4548389325e-004   1.7427509769e-004   1.0004217540e+000  -4.7158996522e-003   1.0014716796e+000  -2.3177775097e-003  -5.4930642468e-004   2.2584587947e-004
  3.4468750000e+008  -5.2767149201e-004   1.1465921691e-004   1.0005102200e+000  -4.4176986679e-003   1.0004316354e+000  -2.7177294587e-003  -3.5714738864e-004   4.2300373907e-004
  3.5327500000e+008  -5.5742611921e-004   1.2171584130e-004   1.0005202749e+000  -5.2992991665e-003   9.9917835618e-001  -3.6134914230e-003  -4.6575276246e-004  -6.6430554058e-006
  3.6186250000e+008  -4.6563157975e-004   3.8796002318e-004   1.0012995315e+000  -5.3962385717e-003   1.0008921417e+000  -2.9044536130e-003  -5.4044686469e-004   4.2674973029e-004
  3.7045000000e+008  -3.4123215729e-004   5.2100342198e-004   9.9960001325e-001  -5.5012289766e-003   1.0007192385e+000  -3.3477932325e-003  -6.0979551487e-004   1.6196803627e-004
  3.7903750000e+008  -3.1064670699e-004   3.7938450512e-004   1.0001487142e+000  -4.8752134611e-003   1.0004448804e+000  -3.1651845378e-003  -5.3891242093e-004   7.5622225534e-005
  3.8762500000e+008  -4.6121833596e-004   4.8419486763e-004   1.0026782116e+000  -3.2126237793e-003   1.0003295826e+000  -3.1049231436e-003  -3.3682174672e-004   4.8352985162e-004
  3.9621250000e+008  -2.7901996152e-004   2.3573755513e-004   1.0014387734e+000  -4.3880879247e-003   1.0005942049e+000  -2.8571477519e-003  -4.5782044650e-004   5.1070492521e-004
  4.0480000000e+008   2.5707498901e-004   3.1197304479e-004   1.0001927910e+000  -5.5013788970e-003   1.0005495972e+000  -3.5684571140e-003  -2.3353931247e-004   4.5245120029e-004
  4.1338750000e+008   9.6528967743e-005   2.4997693763e-004   9.9947401735e-001  -4.7904809749e-003   1.0007207609e+000  -3.6747205875e-003  -1.7039336755e-004   4.7545864409e-004
  4.2197500000e+008  -1.6166134553e-004  -2.3547403911e-004   9.9953875955e-001  -5.8369733045e-003   1.0004001281e+000  -3.0267167443e-003   8.7054216030e-005   5.2906446006e-004
  4.3056250000e+008   1.3135950081e-005  -1.0463543881e-005   9.9961413813e-001  -4.8661692052e-003   1.0005204882e+000  -2.9251771380e-003   4.9492500574e-004   2.3294602026e-004
  4.3915000000e+008   9.5981257835e-005  -1.2649785108e-004   1.0010471993e+000  -4.5742924281e-003   1.0001955741e+000  -3.5559700780e-003   4.2567936755e-004   2.5008813411e-004
  4.4773750000e+008   2.2897282786e-004  -1.2463686281e-004   9.9986013851e-001  -5.0126156652e-003   1.0002768022e+000  -3.4990690108e-003   6.5291544800e-004   1.1510702285e-004
  4.5632500000e+008  -2.5333409302e-004  -4.1979973586e-004   9.9878450348e-001  -4.8202629123e-003   1.0002418445e+000  -3.2996195312e-003   7.2106976767e-004   9.0975146915e-005
  4.6491250000e+008  -1.1274323845e-004  -1.5343010002e-004   1.0000623990e+000  -5.5958162571e-003   1.0001860066e+000  -3.4216570586e-003   6.3669827945e-004   8.9707713384e-005
  4.7350000000e+008  -3.7663742043e-004  -2.1209788710e-004   9.9782010484e-001  -5.9798791474e-003   1.0000390291e+000  -3.1444494423e-003   6.4926488543e-004   3.1173864211e-005
  4.8208750000e+008  -1.0383080125e-004  -6.5845921366e-005   9.9687022657e-001  -6.0872000757e-003   9.9988648535e-001  -3.0195870101e-003   5.6193382867e-004   1.3663947673e-004
  4.9067500000e+008   5.7296768525e-005  -4.4188235472e-004   9.9644081423e-001  -5.9397264037e-003   9.9990708553e-001  -3.3546684181e-003   4.4648933420e-004  -3.6159039616e-006
  4.9926250000e+008   2.7717739232e-005  -4.8553018777e-004   9.9667725063e-001  -6.4351496352e-003   9.9980100001e-001  -3.4146351895e-003   5.7944804819e-004   1.3920622434e-004
  5.0785000000e+008  -7.2242228741e-004  -4.5123452837e-004   9.9671626177e-001  -5.6078663585e-003   9.9977055673e-001  -2.7159434741e-003   5.6008388892e-004   3.2742083368e-004
  5.1643750000e+008  -7.7258131109e-004  -4.7378470317e-005   9.9606902233e-001  -4.4631369072e-003   1.0007962184e+000  -2.7616661544e-003   7.9279500668e-004  -7.1312428446e-005
  5.2502500000e+008  -3.8607649816e-004   6.0207117627e-004   9.9749762465e-001  -4.3488252714e-003   1.0008672946e+000  -2.2262116970e-003   6.2066494277e-004  -4.0121092628e-004
  5.3361250000e+008   2.5982493403e-004   5.7977690921e-004   9.9835427423e-001  -6.9494375560e-003   1.0005603508e+000  -3.1814960794e-003   3.0689594554e-006  -7.2743825474e-004
  5.4220000000e+008   7.3049199113e-004   3.3105184806e-004   9.9660875386e-001  -6.9154406275e-003   1.0010880827e+000  -3.7001501621e-003  -8.6839573193e-004  -5.4567467809e-004
  5.5078750000e+008   8.3388501724e-004  -4.8691654065e-004   9.9658681250e-001  -7.3185584486e-003   1.0007213852e+000  -3.6401939435e-003  -9.3878171218e-004  -3.5960990839e-004
  5.5937500000e+008   5.1166034522e-004  -6.8016423076e-004   9.9670978427e-001  -5.6796160853e-003   1.0005183816e+000  -4.3562338547e-003  -9.7573081054e-004   1.0517868358e-004
  5.6796250000e+008   4.4712545426e-004  -9.3343872192e-004   9.9834552879e-001  -6.1513165046e-003   1.0005307341e+000  -3.3040787619e-003  -1.0865896345e-003   4.5596522224e-004
  5.7655000000e+008  -3.4041699118e-004  -1.0791423217e-003   9.9768372321e-001  -8.2807686694e-003   1.0005382803e+000  -4.0405444193e-003  -8.0109908326e-004   7.9495636086e-004
  5.8513750000e+008  -5.3100393219e-004  -8.8112654344e-004   9.9743944904e-001  -6.3051785965e-003   1.0000511435e+000  -3.2961486871e-003  -9.6345596409e-004   1.0600866635e-003
  5.9372500000e+008  -6.7567132657e-004  -7.5230251323e-004   9.9742420899e-001  -6.5782867852e-003   9.9986952713e-001  -4.4889968218e-003  -6.5642178143e-004   1.1521611779e-003
  6.0231250000e+008  -1.0522509181e-003  -4.7181671929e-004   9.9696247328e-001  -5.9644972674e-003   1.0000568514e+000  -4.0236621604e-003  -3.0267158532e-004   1.0208954384e-003
  6.1090000000e+008  -9.9038120537e-004  -3.1570917518e-004   9.9760849304e-001  -7.1531803887e-003   1.0006170618e+000  -3.9467499540e-003  -3.5846573043e-004   1.1182092087e-003
  6.1948750000e+008  -8.9894253662e-004   3.2893950565e-005   9.9632835982e-001  -6.3094189003e-003   9.9928643127e-001  -3.6035299323e-003  -3.1488595584e-004   7.7243533848e-004
  6.2807500000e+008  -7.5990222067e-004   1.0300793336e-004   9.9725960926e-001  -8.1349824768e-003   9.9988291926e-001  -3.4878758451e-003   4.1872871742e-005   5.3651093051e-004
  6.3666250000e+008  -4.6178093352e-004   4.9196687204e-004   9.9814404273e-001  -6.5494500128e-003   1.0002168858e+000  -3.9874886911e-003   1.8056453684e-004   3.6758799587e-004
  6.4525000000e+008  -1.2072187998e-004   4.0858791043e-004   9.9869986941e-001  -4.9140441048e-003   1.0002127445e+000  -3.9887240636e-003   3.6639929662e-004   1.1685396827e-004
  6.5383750000e+008   1.1495913332e-004   3.3711874698e-004   9.9800228912e-001  -5.9739020034e-003   1.0001417791e+000  -3.1497064432e-003   4.3987030265e-004  -1.6305644266e-004
  6.6242500000e+008   3.3295732118e-004   2.1740026000e-004   9.9439622261e-001  -6.4785563497e-003   1.0006115728e+000  -4.4682259128e-003   4.6971192623e-004  -3.1403211577e-004
  6.7101250000e+008   2.9970724731e-004  -2.6816729054e-004   9.9703657578e-001  -5.7056156285e-003   1.0002433418e+000  -3.3612985261e-003   2.6023624089e-004  -7.1238551816e-004
  6.7960000000e+008   5.8665213387e-004  -4.8997191985e-004   9.9746004698e-001  -5.5262459040e-003   9.9982463531e-001  -4.0886835978e-003   3.0464204516e-004  -9.4107633597e-004
  6.8818750000e+008   3.1703612900e-004  -8.7207827655e-004   9.9615283681e-001  -7.4629774683e-003   9.9978057448e-001  -4.0978071404e-003   3.4519013141e-005  -1.1307582429e-003
  6.9677500000e+008   6.5251545734e-005  -1.0625488088e-003   9.9706316218e-001  -6.3572009807e-003   9.9978036888e-001  -3.7499228710e-003  -1.1683478077e-004  -1.2591518997e-003
  7.0536250000e+008  -2.5904674144e-004  -9.4538190768e-004   9.9674817833e-001  -6.8301181673e-003   9.9995102916e-001  -3.8498815922e-003  -4.3911496204e-004  -1.3343761753e-003
  7.1395000000e+008  -5.9155756447e-004  -8.6901942655e-004   9.9765982798e-001  -6.9864139270e-003   1.0001983321e+000  -3.8190257562e-003  -4.5805894684e-004  -1.2440442318e-003
  7.2253750000e+008  -1.0299142391e-003  -9.3852055990e-004   9.9588843317e-001  -6.3014387913e-003   9.9975415406e-001  -4.0711426303e-003  -9.5332388502e-004  -1.2509286185e-003
  7.3112500000e+008  -1.0679632649e-003  -4.6330115143e-004   9.9635182234e-001  -8.5094388095e-003   1.0002916207e+000  -3.9273419451e-003  -1.0779010680e-003  -1.0705941000e-003
  7.3971250000e+008  -1.0383318109e-003   3.7887611453e-005   9.9718214449e-001  -7.1464476932e-003   9.9984458318e-001  -4.9382578969e-003  -1.2184371286e-003  -7.9267295670e-004
  7.4830000000e+008  -8.9222130056e-004   3.9649324494e-004   9.9672234851e-001  -7.2792911718e-003   9.9974229270e-001  -4.0322443880e-003  -1.1244618331e-003  -6.3870253854e-004
  7.5688750000e+008  -7.5800955975e-004   5.9658371812e-004   9.9729970858e-001  -7.3158073695e-003   9.9878319249e-001  -4.4527861754e-003  -1.1842399137e-003  -1.7317359338e-004
  7.6547500000e+008  -1.6866074189e-004   8.2232589231e-004   9.9711984722e-001  -7.5941593115e-003   9.9925693123e-001  -4.5481306092e-003  -1.1293134182e-003   4.4978478130e-005
  7.7406250000e+008   8.2709088432e-006   7.6014992389e-004   9.9573134737e-001  -7.8986819090e-003   1.0000819930e+000  -3.7358006583e-003  -8.0154509032e-004   4.1977948446e-004
  7.8265000000e+008   1.9743426623e-004   4.2767960116e-004   9.9576077898e-001  -7.1882474351e-003   9.9934554012e-001  -3.4982286027e-003  -5.8275932753e-004   7.4661055767e-004
  7.9123750000e+008   5.1704835570e-004   3.2474876481e-004   9.9636302901e-001  -6.9067435177e-003   9.9969509345e-001  -3.0381104899e-003  -5.1599802115e-004   5.5968597625e-004
  7.9982500000e+008   3.3972187890e-004   2.6330123993e-004   9.9700917243e-001  -5.9881144811e-003   1.0002231072e+000  -3.5001454274e-003  -3.8530187784e-004   8.9901357334e-004
  8.0841250000e+008   7.9519138315e-004   2.6659321334e-004   9.9576808166e-001  -7.6361531420e-003   1.0001275142e+000  -3.3180616915e-003  -1.6785658359e-004   9.2296283625e-004
  8.1700000000e+008   9.3574899247e-004  -4.7494698539e-005   9.9681097498e-001  -6.0537905248e-003   1.0001886744e+000  -3.4325255550e-003  -2.4871338553e-004   8.4054305332e-004
  8.2558750000e+008   1.1517755334e-003  -1.5033094333e-004   9.9930461698e-001  -4.7861175830e-003   1.0004334185e+000  -3.9729798551e-003  -4.2056793483e-004   9.4117348603e-004
  8.3417500000e+008   1.2824726868e-003  -8.4559788561e-004   9.9716430251e-001  -6.4170853551e-003   1.0017255255e+000  -4.1727310723e-003  -3.6416176827e-004   1.2674782839e-003
  8.4276250000e+008   8.2556780082e-004  -1.1358066600e-003   9.9641012299e-001  -6.8667430046e-003   1.0003718766e+000  -4.2555158457e-003  -1.5177015062e-004   1.3777764077e-003
  8.5135000000e+008   3.8186577113e-004  -1.3790981481e-003   9.9852637531e-001  -6.5327610850e-003   1.0007260549e+000  -4.0456801305e-003   2.3103672350e-004   1.5826576743e-003
  8.5993750000e+008   2.6636288705e-005  -1.4162134893e-003   9.9720211982e-001  -7.1504129517e-003   1.0002280367e+000  -5.3276736647e-003   4.3119560383e-004   1.2852581076e-003
  8.6852500000e+008  -5.5673046064e-004  -1.1320461507e-003   9.9379948481e-001  -7.9246505544e-003   9.9988570691e-001  -4.0567459242e-003   7.8439860754e-004   1.0858731464e-003
  8.7711250000e+008  -5.8274230940e-004  -8.1936338195e-004   9.9502551830e-001  -8.4240827325e-003   1.0009647359e+000  -4.8054240619e-003   8.0730181933e-004   5.2317480449e-004
  8.8570000000e+008  -6.7058953138e-004  -4.0164517353e-004   9.9703967309e-001  -6.7645221423e-003   9.9939090571e-001  -5.0738505915e-003   7.8697481524e-004   2.3024834546e-004
  8.9428750000e+008  -5.3857859362e-004  -8.3012408967e-005   9.9642154775e-001  -7.4474796856e-003   9.9915607402e-001  -4.8598692165e-003   4.4133821265e-004  -2.3801489054e-004
  9.0287500000e+008  -2.1131851912e-004  -1.1522971760e-004   9.9728431165e-001  -6.5946481270e-003   9.9919441142e-001  -4.9787867174e-003   2.3600322475e-004  -4.8273753118e-004
  9.1146250000e+008   9.4010711935e-005  -3.7484448015e-005   9.9605940766e-001  -8.0779645408e-003   9.9862595327e-001  -5.1332802067e-003  -3.0719003916e-004  -5.6378376955e-004
  9.2005000000e+008   2.7677627731e-004  -1.4299681527e-004   9.9794428400e-001  -6.8480931651e-003   9.9838679578e-001  -3.6086809119e-003  -4.7486476013e-004  -7.8972172524e-004
  9.2863750000e+008   5.4510963099e-004  -2.8328266165e-004   9.9806461538e-001  -6.6458142374e-003   9.9931490601e-001  -5.1838024773e-003  -8.5165699372e-004  -7.8283942356e-004
  9.3722500000e+008   4.0325027870e-004  -7.2543478411e-004   9.9894954444e-001  -5.2641604350e-003   9.9788156795e-001  -4.6672625734e-003  -9.7163230629e-004  -9.1574129421e-004
  9.4581250000e+008   4.2118792624e-004  -9.3792896084e-004   9.9868188073e-001  -6.0821676454e-003   9.9860280876e-001  -4.7485753217e-003  -1.3891221684e-003  -6.5150351474e-004
  9.5440000000e+008   3.6152340291e-005  -1.2074600456e-003   9.9659287854e-001  -6.6090568905e-003   9.9960177407e-001  -3.4255733597e-003  -1.4812183390e-003  -4.3409210468e-004
  9.6298750000e+008  -1.6010226724e-004  -1.3088926881e-003   9.9901992469e-001  -5.1748829345e-003   9.9996554530e-001  -5.1929172701e-003  -1.6841423340e-003  -2.1304894462e-004
  9.7157500000e+008  -4.2328040914e-004  -1.3344251924e-003   9.9761084095e-001  -7.3814915120e-003   1.0008957273e+000  -4.5172202975e-003  -1.6324073998e-003  -2.3661222239e-004
  9.8016250000e+008  -8.1000017512e-004  -1.1012598163e-003   9.9845085979e-001  -6.5832089567e-003   9.9986206750e-001  -5.7891421592e-003  -1.7402865369e-003   1.2512959426e-004
  9.8875000000e+008  -1.1728651552e-003  -7.0735071434e-004   9.9691177490e-001  -7.9537497560e-003   9.9887334867e-001  -5.3219282109e-003  -1.5092806539e-003   3.5042186949e-004
  9.9733750000e+008  -1.2384971845e-003  -4.7177203195e-004   9.9739296661e-001  -7.3934223197e-003   9.9974775122e-001  -4.1965119260e-003  -1.2209015849e-003   2.3780318134e-004
  1.0059250000e+009  -1.1072669691e-003  -5.2037497080e-006   9.9730185304e-001  -7.2584963602e-003   1.0005057445e+000  -4.9693277983e-003  -8.8594986471e-004   5.2720990326e-004
  1.0145125000e+009  -9.7965587167e-004   4.7375461599e-004   9.9746464690e-001  -9.3785581420e-003   9.9978418331e-001  -4.7588255624e-003  -4.6412435717e-004   5.0512753522e-004
  1.0231000000e+009  -6.5002143672e-004   5.7050475564e-004   9.9654105913e-001  -5.9017184367e-003   9.9924110837e-001  -4.7670619471e-003  -2.4000065549e-004   5.1124182345e-004
  1.0316875000e+009  -4.7199339152e-004   8.3109558285e-004   9.9783647150e-001  -7.3241362103e-003   9.9880383314e-001  -5.4689085316e-003   1.0149663200e-005   3.7127015900e-004
  1.0402750000e+009  -3.0669010400e-005   8.5647392740e-004   9.9741551319e-001  -7.3855690250e-003   9.9919089631e-001  -4.2333490198e-003   5.2468649582e-004   2.2144798542e-004
  1.0488625000e+009   3.9822801859e-004   6.2340184191e-004   9.9776334262e-001  -6.7880494682e-003   9.9944985210e-001  -4.6378099076e-003   7.4101477527e-004  -1.9255800237e-006
  1.0574500000e+009   6.3965697285e-004   4.5733447104e-004   9.9665204296e-001  -6.7557981111e-003   9.9963781447e-001  -4.6445780059e-003   9.2193159330e-004  -1.5107032049e-004
