# Hz S RI R 50.000000
! Metas.Vna.Tools, 2.8.8664.20301
! Metas.Vna.Data, 2.8.8664.20285
! Created: UTC 2024.02.11 10:08:28
! FREQ                re:S1,1             im:S1,1             re:S2,1             im:S2,1             re:S1,2             im:S1,2             re:S2,2             im:S2,2          
  1.3000000000e+008   2.6463513441e-004  -1.2836753033e-003   9.9464761667e-001  -5.6581188019e-003   9.9996860223e-001  -4.5467498061e-004   1.2255126386e-003   8.4281459910e-004
  1.3858750000e+008  -3.8379809389e-004  -1.2714220887e-003   9.9520470681e-001  -5.1241124353e-003   1.0006720188e+000   2.3331498108e-004   1.9577660244e-003  -4.9177718038e-004
  1.4717500000e+008  -1.5605524882e-003  -8.0281057355e-004   9.9387610849e-001  -6.8718570304e-003   1.0006438693e+000  -6.0375224058e-004   8.4944925089e-004  -3.7441005529e-004
  1.5576250000e+008  -6.6564744923e-004   4.4355535333e-005   9.9458841516e-001  -5.6109650606e-003   1.0009004167e+000   1.5437468981e-004   1.7919027755e-003  -1.0373603753e-003
  1.6435000000e+008  -1.0843253761e-003   7.8484665202e-004   9.9398149926e-001  -5.6587429800e-003   1.0006195356e+000  -6.3098054446e-004   7.1852746167e-004  -5.1851907172e-004
  1.7293750000e+008  -8.0153354559e-004   9.2028835450e-004   9.9485177338e-001  -5.0665563854e-003   1.0002946866e+000  -1.8206077950e-004   1.1007702316e-003  -9.5727897293e-004
  1.8152500000e+008  -7.4316565167e-004   3.3136220682e-004   9.9328877303e-001  -5.9100885209e-003   1.0003808272e+000  -1.0813217097e-003   2.2223309151e-004  -5.9738694817e-004
  1.9011250000e+008  -4.4840499620e-004   9.9542326234e-004   9.9554860420e-001  -6.9912487911e-003   1.0007122432e+000  -5.6469283636e-004   4.8646867615e-004  -1.0218908536e-003
  1.9870000000e+008   1.5367937558e-004   6.6234415948e-004   9.9387873472e-001  -6.4968877320e-003   1.0006206926e+000  -4.7731799310e-004   2.9988984818e-004  -7.3268489628e-004
  2.0728750000e+008   3.6825445754e-004  -1.3411817816e-004   9.9331030123e-001  -5.8411050778e-003   1.0004553845e+000  -7.1823424238e-004   1.4983804916e-004  -6.4261257510e-004
  2.1587500000e+008   6.0168884332e-005  -2.2880171180e-004   9.9467959159e-001  -6.2138949806e-003   9.9978580775e-001  -6.6557364081e-004  -3.9452605445e-004  -1.1954204323e-005
  2.2446250000e+008   5.0924789422e-004  -7.4884247423e-004   9.9414375932e-001  -6.4531494941e-003   1.0001613941e+000  -5.6585017629e-004  -6.9377508843e-004   1.7290185140e-004
  2.3305000000e+008   3.9659926384e-004  -3.5108311023e-004   9.9483900296e-001  -6.1756618314e-003   1.0002476249e+000  -4.1886541500e-004  -5.8430847320e-004   9.9174339417e-005
  2.4163750000e+008  -5.6552744501e-005  -6.5826290116e-004   9.9374079156e-001  -7.4399721323e-003   1.0005661180e+000  -1.2197163157e-003  -8.4547401418e-004  -7.8131231876e-005
  2.5022500000e+008  -4.6502559922e-004  -4.3075472555e-004   9.9454007744e-001  -5.8150687445e-003   1.0009051539e+000  -2.9832146363e-004  -1.1421232539e-003   3.8373752634e-004
  2.5881250000e+008  -6.8812461053e-004  -6.7196521002e-004   9.9361975987e-001  -6.4042236238e-003   1.0006602588e+000  -9.2781904382e-004  -7.7911529950e-004   8.1562018927e-004
  2.6740000000e+008  -9.2004045174e-004  -5.5068685743e-004   9.9549208113e-001  -7.3023916615e-003   1.0007349423e+000  -1.4173859789e-003  -6.8038501436e-004   5.6556070166e-004
  2.7598750000e+008  -2.2054286728e-004  -2.9398578867e-004   9.9117939976e-001  -8.1252820090e-003   1.0004858793e+000  -6.3352110429e-004  -5.8965222028e-004   5.4295039899e-004
  2.8457500000e+008  -4.8455960472e-004  -3.4241299254e-004   9.9275806630e-001  -5.9828561504e-003   1.0007438590e+000  -5.6892320898e-004  -2.7911457247e-004   6.9837120545e-004
  2.9316250000e+008  -6.0085566714e-004  -4.9518104291e-004   9.9198321030e-001  -6.6822530726e-003   1.0002385286e+000  -1.7730820872e-003  -3.4801227977e-004   5.2876786644e-004
  3.0175000000e+008  -9.6839306023e-004   2.1578811005e-004   9.9355588004e-001  -7.5861664641e-003   1.0005177679e+000  -6.1836234884e-004  -5.6821173016e-004   3.7907838569e-004
  3.1033750000e+008  -9.6809813944e-004   2.5844309076e-004   9.9620784577e-001  -5.3995760173e-003   1.0012027520e+000  -1.0925076425e-003  -9.8698332486e-004   7.6266033095e-004
  3.1892500000e+008  -9.5160876791e-004   6.3544048706e-005   9.9622817106e-001  -5.0211201175e-003   1.0006125366e+000  -4.1541637525e-004  -9.7032930313e-004   4.7156079618e-004
  3.2751250000e+008  -6.8324846180e-004   3.1213410731e-004   9.9575960932e-001  -6.8649326965e-003   1.0004464133e+000  -9.4511923750e-004  -6.1432373312e-004   3.8925928537e-004
  3.3610000000e+008  -6.4579779432e-004   1.5201744291e-004   9.9548751312e-001  -6.6904042863e-003   1.0014248506e+000  -1.4503433170e-003  -4.8908797262e-004   1.5976817770e-004
  3.4468750000e+008  -8.0928229377e-004   4.1926287961e-004   9.9618514981e-001  -5.0573103182e-003   1.0005685248e+000  -1.2004327608e-003  -5.8709285386e-004   4.1237910493e-004
  3.5327500000e+008  -4.3852864302e-004   3.5428390839e-004   9.9636009195e-001  -6.7953343507e-003   9.9956465303e-001  -1.6682871389e-003  -5.4809643091e-004   4.9313636821e-005
  3.6186250000e+008  -4.3939956274e-004   3.8393138168e-004   9.9625353608e-001  -5.3638673714e-003   1.0007104507e+000  -1.0321672221e-003  -5.9274091976e-004   2.7539711321e-004
  3.7045000000e+008  -7.1690911108e-004   4.1867835233e-004   9.9445972792e-001  -5.9122709767e-003   1.0010049539e+000  -1.8755928428e-003  -5.6312120230e-004   1.8858350299e-004
  3.7903750000e+008  -3.5948344146e-004   7.2118879273e-004   9.9646450741e-001  -5.4355765440e-003   1.0005221871e+000  -1.0818856064e-003  -1.9568249272e-004   1.2960003693e-005
  3.8762500000e+008  -4.3526780149e-004   4.6928019203e-004   9.9770186743e-001  -5.0613916219e-003   1.0001136063e+000  -1.5386370331e-003  -3.5893693623e-004   6.0681953047e-004
  3.9621250000e+008   1.3841817820e-004   2.1739423309e-004   9.9594550403e-001  -5.9095934679e-003   1.0005808256e+000  -1.5499734437e-003  -3.9516227102e-004   4.2171442351e-004
  4.0480000000e+008   1.9535992925e-004   4.8377980202e-004   9.9841070388e-001  -6.7815449197e-003   1.0004164211e+000  -9.3203964749e-004  -6.6059619923e-005   2.3505544936e-004
  4.1338750000e+008   2.4645914002e-004   2.6147936513e-004   9.9649562601e-001  -5.7838587665e-003   1.0013184856e+000  -1.5821905770e-003   2.2135379539e-004   4.4655418521e-004
  4.2197500000e+008  -1.1336914639e-005  -2.5315893116e-005   9.9737328091e-001  -5.9298697025e-003   1.0007740984e+000  -1.7124636279e-003   1.7497593725e-004   5.8697564264e-004
  4.3056250000e+008   1.5380096800e-004   4.7552387110e-005   9.9825407404e-001  -5.7182820652e-003   1.0006588878e+000  -1.5768457769e-003   4.1114836418e-004   3.2615049157e-004
  4.3915000000e+008   1.2358230143e-004  -2.6512646255e-004   9.9917051787e-001  -5.1377644491e-003   1.0002643616e+000  -1.6779713481e-003   4.6668182039e-004   3.3083914879e-004
  4.4773750000e+008   3.0876629430e-004  -1.5030917771e-004   9.9862312539e-001  -5.7706394552e-003   1.0002851480e+000  -2.3159916831e-003   5.5937331071e-004   1.9816590088e-004
  4.5632500000e+008  -1.0819759460e-004  -3.7102858109e-004   9.9624545048e-001  -5.9222392540e-003   1.0006171783e+000  -1.9687557229e-003   6.6722904827e-004   2.3277036199e-004
  4.6491250000e+008  -4.0664855971e-004  -2.2513609261e-004   9.9692793476e-001  -6.9890855464e-003   1.0000866127e+000  -1.8866526726e-003   6.4622140969e-004   1.4097501341e-004
  4.7350000000e+008  -5.1756909134e-004  -1.7409181123e-004   9.9690896067e-001  -6.2708044490e-003   1.0004426531e+000  -1.7146164448e-003   5.6183475045e-004   7.9217834077e-005
  4.8208750000e+008  -4.1147575736e-004  -1.1001072867e-004   9.9401834283e-001  -6.4902089031e-003   9.9981149424e-001  -1.3294713792e-003   5.8312842953e-004   2.3764021247e-004
  4.9067500000e+008   1.0777730946e-004  -2.6272880622e-004   9.9462620649e-001  -7.1043381144e-003   1.0001662560e+000  -1.8797060712e-003   3.8668332702e-004   2.1341376447e-004
  4.9926250000e+008  -8.6477936187e-005  -4.6428330401e-004   9.9526123459e-001  -6.1465219438e-003   9.9990054052e-001  -1.6411563667e-003   9.0283633824e-004  -4.9894715230e-005
  5.0785000000e+008  -5.5689313522e-004  -3.1517245664e-004   9.9505303062e-001  -5.3916437471e-003   1.0000882424e+000  -1.3807546159e-003   7.1468065839e-004   3.2134878774e-004
  5.1643750000e+008  -5.3874662187e-004  -1.1244919125e-005   9.9453291253e-001  -5.5232759395e-003   1.0008044515e+000  -1.1100864319e-003   9.7385623103e-004  -1.7707659116e-004
  5.2502500000e+008  -4.4011795046e-004   6.1940252491e-004   9.9589292045e-001  -5.6586062730e-003   1.0006392706e+000  -5.6832075091e-004   3.0650122651e-004  -5.8620288532e-004
  5.3361250000e+008   3.8198745974e-004   5.1623152331e-004   9.9527948680e-001  -7.0156801598e-003   1.0004868815e+000  -1.5128642714e-003  -7.5060880051e-005  -8.3519139498e-004
  5.4220000000e+008   6.9665173024e-004   1.7879205843e-004   9.9532980972e-001  -6.5518578919e-003   1.0006748760e+000  -1.3798242425e-003  -7.2440210077e-004  -5.1410954535e-004
  5.5078750000e+008   6.0585300507e-004  -6.4218595848e-004   9.9405345721e-001  -7.1517832161e-003   1.0005202571e+000  -2.0282359309e-003  -9.9360662274e-004  -4.3867359594e-004
  5.5937500000e+008   5.3729251178e-004  -7.7787848633e-004   9.9195070951e-001  -7.9076654409e-003   1.0007508207e+000  -2.2815374095e-003  -1.0489325678e-003   1.6579254557e-004
  5.6796250000e+008   2.6779307978e-004  -8.7751058523e-004   9.9295995509e-001  -8.2450636873e-003   1.0010152112e+000  -2.1923854981e-003  -1.1064512009e-003   5.0246455389e-004
  5.7655000000e+008  -1.5777336891e-004  -1.1714152962e-003   9.9079488948e-001  -1.0782925139e-002   1.0004937705e+000  -2.3100427652e-003  -7.7204966391e-004   6.4011985613e-004
  5.8513750000e+008  -4.7500595531e-004  -8.9736382388e-004   9.8932934990e-001  -8.7153026232e-003   9.9988983354e-001  -1.6584942761e-003  -8.7173499116e-004   8.5674477777e-004
  5.9372500000e+008  -6.2238239251e-004  -8.8999110347e-004   9.8796279520e-001  -8.8886544015e-003   9.9971225988e-001  -2.9231664287e-003  -6.7526336627e-004   9.0897497194e-004
  6.0231250000e+008  -1.0555904787e-003  -5.9120642832e-004   9.8929490103e-001  -8.1564363516e-003   1.0009321149e+000  -2.1100394290e-003  -4.5343431849e-004   9.6956318132e-004
  6.1090000000e+008  -8.2322488284e-004  -3.4205568650e-004   9.8950110102e-001  -1.0514315018e-002   1.0000479969e+000  -1.8691570470e-003  -3.4693223468e-004   9.8968772514e-004
  6.1948750000e+008  -9.0424597250e-004   1.7155383012e-004   9.9035824288e-001  -8.1478030920e-003   9.9940358152e-001  -1.7613974452e-003  -3.8882997597e-004   6.0769074081e-004
  6.2807500000e+008  -9.1264116040e-004   4.4638528948e-005   9.8880589194e-001  -1.0146468030e-002   1.0000193521e+000  -2.0436957905e-003  -1.2195298145e-005   3.9196820680e-004
  6.3666250000e+008  -5.3580820927e-004   5.1991724654e-004   9.9134878671e-001  -8.3639286538e-003   1.0001085155e+000  -2.6167838464e-003   1.0449968881e-004   3.8901840916e-004
  6.4525000000e+008  -3.1293862560e-005   4.3882292663e-004   9.9033108066e-001  -7.6248681424e-003   1.0003117301e+000  -2.3643330219e-003   1.8781092067e-004   4.5415473819e-005
  6.5383750000e+008   1.2263206854e-004   3.4957476629e-004   9.8940197632e-001  -7.8342934721e-003   1.0000612226e+000  -1.7931746354e-003   4.5413494019e-004  -1.0085658399e-004
  6.6242500000e+008   3.1056509665e-004   1.6346537170e-004   9.8738899322e-001  -9.2974783287e-003   1.0011065338e+000  -2.2141258763e-003   2.4526639389e-004  -2.0750003576e-004
  6.7101250000e+008   4.1266178727e-004  -4.7300582015e-005   9.9040683892e-001  -7.5994483970e-003   9.9975360278e-001  -1.5260491261e-003   2.8496256370e-004  -5.9143746258e-004
  6.7960000000e+008   7.0154699520e-004  -4.9111090339e-004   9.9013823955e-001  -8.7690851419e-003   1.0009784079e+000  -2.6082414861e-003   1.5065614664e-004  -1.0798914267e-003
  6.8818750000e+008   3.1603646755e-004  -9.5422809148e-004   9.8834551507e-001  -9.3219591081e-003   1.0004266834e+000  -2.6939852278e-003  -1.1131472700e-005  -1.2027543803e-003
  6.9677500000e+008   2.0295187613e-004  -1.0464250252e-003   9.8881697245e-001  -8.1522738336e-003   1.0006839152e+000  -2.6801820937e-003  -2.1785636644e-004  -1.1807675875e-003
  7.0536250000e+008  -2.2499646810e-004  -1.1852528363e-003   9.8956860053e-001  -9.2065301824e-003   9.9971889755e-001  -2.3080399239e-003  -4.0771993127e-004  -1.3198247801e-003
  7.1395000000e+008  -4.8171906993e-004  -1.1185237813e-003   9.8888144697e-001  -9.1550370596e-003   1.0001378662e+000  -2.3758527081e-003  -5.3388378164e-004  -1.3021274399e-003
  7.2253750000e+008  -1.0834850333e-003  -9.4592684827e-004   9.8743680581e-001  -9.3639460856e-003   1.0000593626e+000  -3.1875246839e-003  -8.4943164092e-004  -1.3075136358e-003
  7.3112500000e+008  -1.1925368317e-003  -5.4531740542e-004   9.9048061311e-001  -8.7995671868e-003   1.0004050045e+000  -2.6689237979e-003  -1.0439018603e-003  -1.0851279223e-003
  7.3971250000e+008  -1.1498456653e-003  -1.5114881374e-004   9.9027982998e-001  -1.0227300492e-002   9.9971700611e-001  -2.7182649551e-003  -1.1760654992e-003  -8.0134007003e-004
  7.4830000000e+008  -1.0669017799e-003   3.9722960071e-004   9.9033809429e-001  -7.8938091421e-003   9.9990634511e-001  -2.3695518743e-003  -1.0825697209e-003  -7.3920189677e-004
  7.5688750000e+008  -7.8057770546e-004   6.0916925183e-004   9.8836781757e-001  -9.2195520312e-003   9.9959995932e-001  -2.7600556971e-003  -1.1418486534e-003  -2.7589659418e-004
  7.6547500000e+008  -2.5872647607e-004   8.1075985764e-004   9.8955754484e-001  -1.0356121089e-002   9.9971234276e-001  -2.4775826136e-003  -1.1308350290e-003   1.9302218822e-005
  7.7406250000e+008   7.4639855435e-005   7.8389344293e-004   9.8781513792e-001  -9.3452509017e-003   9.9967497547e-001  -2.1198336906e-003  -8.7231860226e-004   1.1962474867e-004
  7.8265000000e+008   4.1587761259e-004   6.4969846707e-004   9.8884823293e-001  -8.6981437043e-003   9.9936141154e-001  -2.1176356061e-003  -8.0768996268e-004   5.1499336241e-004
  7.9123750000e+008   6.7190323220e-004   3.9095645216e-004   9.8970358673e-001  -7.4317758516e-003   9.9994179246e-001  -2.3033017089e-003  -7.9884909856e-004   4.4337121870e-004
  7.9982500000e+008   6.3629672977e-004   2.2873920586e-004   9.8966213380e-001  -8.2024919097e-003   1.0004393540e+000  -1.4675595101e-003  -5.8144821676e-004   7.3566945376e-004
  8.0841250000e+008   9.9259239862e-004   6.2381256592e-005   9.8986691087e-001  -9.2602108721e-003   9.9936908942e-001  -1.7374526733e-003  -5.5403283608e-004   8.6256369168e-004
  8.1700000000e+008   1.0776547790e-003  -2.5617781248e-004   9.9000254522e-001  -8.1296230651e-003   1.0001375451e+000  -1.9903666759e-003  -4.9619968889e-004   8.7608478200e-004
  8.2558750000e+008   1.1338680254e-003  -5.5611789260e-004   9.9104648647e-001  -8.3160418688e-003   1.0008657315e+000  -2.8165617594e-003  -5.5703877291e-004   1.0090132480e-003
  8.3417500000e+008   1.0665060970e-003  -1.0530406823e-003   9.8974332960e-001  -7.8910102940e-003   1.0005659949e+000  -2.9055372949e-003  -3.2417640725e-004   1.2345268842e-003
  8.4276250000e+008   4.8356430704e-004  -1.2903199600e-003   9.8952064340e-001  -8.6009521086e-003   1.0003877084e+000  -2.9895480748e-003  -1.2702582995e-004   1.3070082839e-003
  8.5135000000e+008   1.2544738630e-004  -1.2271518548e-003   9.8947774382e-001  -8.3569857987e-003   1.0010870861e+000  -2.5443082985e-003   1.3900573276e-004   1.3117835412e-003
  8.5993750000e+008  -9.6944056407e-005  -1.3010042130e-003   9.9006814501e-001  -8.7979685433e-003   1.0002651634e+000  -3.1083170544e-003   3.7372805126e-004   1.2028466919e-003
  8.6852500000e+008  -4.6370949322e-004  -9.5448189530e-004   9.8952579502e-001  -9.1051210050e-003   1.0000033972e+000  -1.9114040736e-003   5.9125036147e-004   8.8533551180e-004
  8.7711250000e+008  -4.3765886608e-004  -7.0222351447e-004   9.8973473193e-001  -1.0270539809e-002   9.9992820738e-001  -3.2435694659e-003   6.3898957139e-004   4.7269377524e-004
  8.8570000000e+008  -4.2631196602e-004  -4.3188242838e-004   9.9153079416e-001  -7.4906121342e-003   9.9931152058e-001  -3.0631715314e-003   4.7378951650e-004   2.2987018447e-004
  8.9428750000e+008  -3.0943176013e-004  -2.0950151187e-004   9.9017385423e-001  -8.6767146400e-003   1.0000984915e+000  -2.9058914630e-003   4.1280173254e-004  -2.0353648159e-004
  9.0287500000e+008  -9.5126227675e-007  -1.6130502433e-004   9.9019792559e-001  -9.3107486076e-003   9.9984440979e-001  -3.5825208872e-003   1.1748307970e-004  -3.0818455603e-004
  9.1146250000e+008   3.1742477759e-004  -3.9319804680e-005   9.8984143999e-001  -8.5561966043e-003   9.9916101019e-001  -3.9797571856e-003  -1.9840262496e-004  -4.9691860179e-004
  9.2005000000e+008   3.2298647115e-004  -4.3743922037e-004   9.9101060395e-001  -8.1169237438e-003   9.9937560832e-001  -2.2882708020e-003  -4.4852428296e-004  -6.9686703587e-004
  9.2863750000e+008   4.5557475986e-004  -4.7448756008e-004   9.9267524402e-001  -5.9596400836e-003   9.9914639939e-001  -4.2236590149e-003  -7.6418189078e-004  -8.8088137926e-004
  9.3722500000e+008   4.8713283815e-004  -9.2261467689e-004   9.9168642673e-001  -6.7052193428e-003   9.9916741620e-001  -3.2572714990e-003  -1.0271221481e-003  -8.0596857556e-004
  9.4581250000e+008   4.1654854452e-004  -1.0838102274e-003   9.9267193057e-001  -6.9878524518e-003   9.9914758901e-001  -2.7085677052e-003  -1.2667624545e-003  -7.1569133494e-004
  9.5440000000e+008  -2.0918709505e-005  -1.2303470933e-003   9.9403911427e-001  -6.9954815179e-003   9.9969043001e-001  -2.5833175348e-003  -1.4391276056e-003  -6.0411230267e-004
  9.6298750000e+008  -2.9488112946e-004  -1.3352980232e-003   9.9635660616e-001  -6.6054733411e-003   1.0000907416e+000  -3.3380803759e-003  -1.6944398808e-003  -4.2555684413e-004
  9.7157500000e+008  -6.0615489444e-004  -1.2767999686e-003   9.9469655893e-001  -9.0587083731e-003   9.9989663607e-001  -3.2728329215e-003  -1.6881166450e-003  -3.4530783633e-004
  9.8016250000e+008  -8.3800719313e-004  -1.0028881585e-003   9.9580885408e-001  -7.7507909195e-003   9.9985343046e-001  -4.0212267017e-003  -1.6417460243e-003  -1.4030199622e-004
  9.8875000000e+008  -1.0533518226e-003  -7.9568638912e-004   9.9529885436e-001  -5.8942455572e-003   9.9936692572e-001  -3.0070341406e-003  -1.5105113063e-003   1.7689702177e-005
  9.9733750000e+008  -1.1435584090e-003  -3.8530669248e-004   9.9359785430e-001  -6.4389494773e-003   9.9983359078e-001  -2.0188739499e-003  -1.3346000454e-003   1.4545928466e-005
  1.0059250000e+009  -9.8830757805e-004  -1.9993377664e-005   9.9569883729e-001  -7.0332346737e-003   1.0007414968e+000  -2.5905359208e-003  -1.1524188763e-003   2.7027362817e-004
  1.0145125000e+009  -9.5077915426e-004   3.2969146451e-004   9.9461035069e-001  -9.2037244075e-003   9.9938983887e-001  -2.6873890808e-003  -6.7308407330e-004   2.7770420312e-004
  1.0231000000e+009  -6.0902728755e-004   3.7719595358e-004   9.9464082763e-001  -6.7545059983e-003   9.9943834520e-001  -3.0267888236e-003  -4.9993731174e-004   3.6702199522e-004
  1.0316875000e+009  -3.6892546100e-004   8.3246540292e-004   9.9535245564e-001  -7.3518447251e-003   9.9905638499e-001  -3.4758887047e-003  -9.8855363177e-005   1.7987950935e-004
  1.0402750000e+009   2.6628833070e-004   6.4688907119e-004   9.9410341553e-001  -8.1984455051e-003   9.9971137282e-001  -1.9589906584e-003   9.7732910492e-005   3.5733993236e-005
  1.0488625000e+009   5.0671541601e-004   4.5887319692e-004   9.9543588417e-001  -7.2940972632e-003   9.9897314786e-001  -2.1226019733e-003   6.2948826015e-004  -3.8982595461e-006
  1.0574500000e+009   7.4575160675e-004   1.9255741240e-004   9.9350549808e-001  -7.9647165161e-003   9.9914006103e-001  -3.3915925861e-003   7.0369510647e-004  -2.2824621729e-004
