# Hz S RI R 50.000000
! Metas.Vna.Tools, 2.8.8664.20301
! Metas.Vna.Data, 2.8.8664.20285
! Created: UTC 2024.02.11 10:08:18
! FREQ                re:S1,1             im:S1,1             re:S2,1             im:S2,1             re:S1,2             im:S1,2             re:S2,2             im:S2,2          
  1.3000000000e+008   2.7578287657e-004  -1.2359071969e-003   9.9373273805e-001  -6.0317879433e-003   1.0005724231e+000  -7.3127247183e-004   1.0023507786e-003   9.2630132258e-005
  1.3858750000e+008  -8.8839731512e-004  -1.3667291533e-003   9.9450652266e-001  -5.3933254964e-003   1.0001577339e+000  -6.3382789194e-004   1.6970434148e-003  -1.4338140450e-004
  1.4717500000e+008  -1.6060075016e-003  -1.5929604176e-003   9.9457140809e-001  -5.8672396789e-003   1.0004864463e+000  -3.9557526456e-004   2.3985090609e-004  -1.7321537149e-004
  1.5576250000e+008  -1.6279295968e-003  -3.4526137259e-004   9.9522250957e-001  -4.5292525645e-003   9.9994897333e-001  -1.2241850931e-003   8.3734772595e-004  -1.0500921300e-003
  1.6435000000e+008  -6.6277566665e-004   3.9774139054e-004   9.9589387055e-001  -4.2975268919e-003   1.0007861791e+000  -7.6553763857e-004   6.8834311867e-004  -6.1943218340e-004
  1.7293750000e+008  -6.6018467699e-004   6.9361173685e-004   9.9444370519e-001  -4.4463727150e-003   1.0004230697e+000  -7.5532288332e-004   3.3816790246e-004  -7.7013758495e-004
  1.8152500000e+008  -6.2613778110e-004   8.5566381428e-004   9.9371257650e-001  -5.5535179933e-003   1.0002618762e+000  -1.5558240154e-003   2.6160868926e-004  -8.9076369716e-004
  1.9011250000e+008  -9.4145559818e-004   3.5963503607e-004   9.9606854556e-001  -6.3790375791e-003   1.0007862303e+000  -1.2253052235e-003   5.1661640750e-004  -1.1477553071e-003
  1.9870000000e+008  -3.0625585341e-004   5.9201483426e-004   9.9559285529e-001  -5.9337821032e-003   1.0006527643e+000  -1.3010858364e-003   4.9753700903e-004  -7.2393149080e-004
  2.0728750000e+008   3.6865662524e-004   1.7879464475e-004   9.9386581129e-001  -5.4846900677e-003   1.0007608921e+000  -1.2967191355e-003  -1.1175563299e-004  -2.1528698983e-004
  2.1587500000e+008   1.6502108525e-004  -3.7108026821e-004   9.9442611501e-001  -6.4612935251e-003   9.9963140665e-001  -9.2642335920e-004  -3.9018618074e-004   2.4334238583e-004
  2.2446250000e+008   2.7990392724e-004  -5.4115783964e-004   9.9544360251e-001  -5.1129715409e-003   1.0006283574e+000  -9.0094538900e-004  -4.3261984643e-004   1.9054353191e-004
  2.3305000000e+008   2.2915672075e-004   1.3185601056e-004   9.9551233665e-001  -5.5179094392e-003   1.0004955659e+000  -8.7093172865e-004  -3.7785709029e-004  -1.2194428929e-004
  2.4163750000e+008  -4.9756278551e-004  -4.1375915572e-004   9.9551269198e-001  -6.3852672857e-003   1.0001417130e+000  -2.0624358459e-003  -9.3198432312e-004  -5.5747170382e-005
  2.5022500000e+008  -3.5900111772e-004  -4.1742598675e-004   9.9554570084e-001  -5.6668331232e-003   1.0002124380e+000  -1.5168834562e-003  -7.7440514143e-004   4.8739130939e-004
  2.5881250000e+008  -6.8981386995e-004  -5.7430969080e-004   9.9531980302e-001  -4.7473040518e-003   1.0006879686e+000  -2.5056739844e-003  -9.8134468562e-004   6.7814527914e-004
  2.6740000000e+008  -7.4344855099e-004  -4.7155860622e-004   9.9665004787e-001  -5.7677322967e-003   1.0005900925e+000  -2.4173427764e-003  -6.7961615545e-004   5.3869829562e-004
  2.7598750000e+008  -3.5833369975e-004  -4.5610360998e-004   9.9468466807e-001  -6.5359233881e-003   1.0006613915e+000  -1.4934453989e-003  -4.8359820521e-004   8.2002297154e-004
  2.8457500000e+008  -7.1097225572e-004  -3.7321581877e-004   9.9464487353e-001  -5.3922136895e-003   1.0005451375e+000  -1.3478824178e-003  -4.7786837928e-004   6.2000924427e-004
  2.9316250000e+008  -5.9257894351e-004  -6.4205989410e-004   9.9498181030e-001  -5.3025616956e-003   1.0003262809e+000  -2.1711190219e-003  -1.6405220200e-004   8.0012464391e-004
  3.0175000000e+008  -9.9287123633e-004   5.3634848569e-005   9.9453768343e-001  -6.8986586620e-003   9.9953937740e-001  -1.3500662208e-003  -4.2554367619e-004   6.4260139766e-004
  3.1033750000e+008  -7.5191979779e-004   2.2102051867e-004   9.9630883189e-001  -5.8206398734e-003   1.0011698427e+000  -1.8274173007e-003  -8.8099914990e-004   7.0503436235e-004
  3.1892500000e+008  -7.5591669334e-004   5.0720113194e-005   9.9312885269e-001  -5.6212094035e-003   1.0004739727e+000  -1.0754058400e-003  -8.0677942530e-004   3.0245941043e-004
  3.2751250000e+008  -5.7112149127e-004  -9.1552635646e-005   9.9343760155e-001  -8.1884261441e-003   1.0005155563e+000  -2.5339846772e-003  -7.3931084819e-004   3.9909137769e-004
  3.3610000000e+008  -7.3998296992e-004   2.4920682242e-004   9.9479958682e-001  -5.7702278170e-003   1.0010160898e+000  -1.9072276555e-003  -5.4955068873e-004   1.4399328193e-004
  3.4468750000e+008  -4.4685774006e-004   2.3687259756e-004   9.9472805729e-001  -5.6398003900e-003   1.0007604672e+000  -2.1732723007e-003  -6.0325752102e-004   2.3779025863e-004
  3.5327500000e+008  -5.3507305753e-004   1.8245191484e-004   9.9542866601e-001  -6.7432293157e-003   9.9903060745e-001  -2.6542584078e-003  -4.1065413293e-004   2.3053456644e-004
  3.6186250000e+008  -5.4665915040e-004   4.1379938698e-004   9.9353756565e-001  -7.3525785876e-003   1.0010238878e+000  -1.7513271166e-003  -4.8604931019e-004   5.0681870256e-004
  3.7045000000e+008  -7.5274619385e-004   4.2616878641e-004   9.9227506217e-001  -7.1820891260e-003   1.0011988009e+000  -2.2936116527e-003  -7.9607678677e-004   6.2738540929e-005
  3.7903750000e+008  -3.7671383972e-004   6.2448889906e-004   9.9222354039e-001  -5.6205464590e-003   1.0007515389e+000  -2.4534454381e-003  -4.3034948617e-004   3.7907696580e-005
  3.8762500000e+008  -3.3664198402e-004   6.6264514263e-004   9.9520724990e-001  -5.6193433053e-003   1.0001355099e+000  -1.9125395870e-003  -4.0100356229e-004   4.7168030658e-004
  3.9621250000e+008  -1.3787743853e-004   1.4513487619e-004   9.9405789146e-001  -6.6963617962e-003   1.0005755582e+000  -2.1143144256e-003  -4.6194070323e-004   5.6573899926e-004
  4.0480000000e+008   3.0361612822e-004   1.0478569758e-004   9.9454701211e-001  -6.6244927985e-003   1.0003347865e+000  -1.5587913691e-003  -5.1397417913e-005   1.7272911601e-004
  4.1338750000e+008   1.9401366941e-004   6.1653169015e-005   9.9512987134e-001  -5.8683901891e-003   1.0006841448e+000  -1.8946248359e-003  -9.1866872462e-005   2.9612865317e-004
  4.2197500000e+008  -1.1109464737e-004  -1.4936352242e-004   9.9538731441e-001  -6.2326719476e-003   1.0005291361e+000  -2.0158414772e-003   5.1736128285e-005   5.1425225110e-004
  4.3056250000e+008   1.7774185999e-004  -7.7022388964e-005   9.9373978868e-001  -5.7858201070e-003   1.0007110408e+000  -2.0343042341e-003   4.7440631651e-004   3.9915414277e-004
  4.3915000000e+008   1.4028760923e-004  -3.0526313962e-004   9.9635475274e-001  -5.4729730101e-003   1.0004911201e+000  -2.3921494562e-003   5.1266308967e-004   2.2954924030e-004
  4.4773750000e+008   2.2820927080e-006  -2.6981069996e-004   9.9627356338e-001  -6.0851408466e-003   1.0003462557e+000  -2.7974808333e-003   5.2257758040e-004   2.7169644830e-004
  4.5632500000e+008  -1.7754704602e-004  -2.3818044226e-004   9.9355447041e-001  -5.6115789474e-003   1.0002588444e+000  -2.3119585479e-003   5.8777956118e-004   1.1029292184e-004
  4.6491250000e+008  -2.4287153141e-004  -1.1800740343e-004   9.9435432694e-001  -7.4917632055e-003   1.0000742669e+000  -2.5713548015e-003   6.2769300938e-004   8.2754810641e-005
  4.7350000000e+008  -2.4160522015e-004  -4.0924627433e-004   9.9310866443e-001  -6.9433177759e-003   1.0004541607e+000  -2.4561058327e-003   6.4006614595e-004   1.5652504858e-004
  4.8208750000e+008  -3.2586528443e-004   6.1524549398e-005   9.9021330983e-001  -6.6366988274e-003   9.9988687229e-001  -2.3426995104e-003   7.5578888137e-004   1.6946583697e-004
  4.9067500000e+008   1.3249601617e-006  -2.6777812138e-004   9.9013807289e-001  -8.1402117135e-003   9.9990603571e-001  -2.4867912653e-003   2.8171076379e-004   1.2507924387e-004
  4.9926250000e+008  -7.3095758817e-006  -3.7166870572e-004   9.8940934863e-001  -7.3404111382e-003   9.9969498047e-001  -2.5028349053e-003   5.8037151971e-004  -1.7068854988e-005
  5.0785000000e+008  -4.2971760298e-004  -3.5789649439e-004   9.8967344066e-001  -7.3422316509e-003   1.0001345822e+000  -1.9087582106e-003   5.1300162021e-004   2.7699041645e-004
  5.1643750000e+008  -5.0667269034e-004   7.6704912179e-005   9.9077850070e-001  -6.2588631553e-003   1.0002441577e+000  -1.9863170228e-003   8.1885285132e-004  -2.0468224521e-004
  5.2502500000e+008  -3.9035854704e-004   5.9160846630e-004   9.9120121622e-001  -6.0996536922e-003   1.0004159420e+000  -1.4697447492e-003   3.5371621527e-004  -5.3900374067e-004
  5.3361250000e+008   4.1139872147e-004   4.8107524246e-004   9.9061138226e-001  -8.1511677001e-003   1.0003108804e+000  -2.2348351912e-003  -5.9385198649e-005  -7.6039388023e-004
  5.4220000000e+008   7.2228496093e-004  -1.4417813023e-005   9.8930778220e-001  -8.6003333267e-003   1.0007566412e+000  -2.7778363541e-003  -8.7699700836e-004  -4.5528753462e-004
  5.5078750000e+008   6.6888069309e-004  -7.5176963809e-004   9.9023654682e-001  -7.5522742835e-003   1.0002711630e+000  -2.9076092366e-003  -1.0124922954e-003  -3.3318522240e-004
  5.5937500000e+008   4.1704198599e-004  -6.9534092771e-004   9.9028280329e-001  -7.0978374825e-003   1.0003064386e+000  -2.6997447767e-003  -9.3969632943e-004   6.3524233210e-006
  5.6796250000e+008   2.4956981905e-004  -9.5794939623e-004   9.9060795059e-001  -9.2085775743e-003   1.0001421091e+000  -2.6043043841e-003  -9.6188814250e-004   5.5570540195e-004
  5.7655000000e+008  -2.5388671086e-004  -1.0848866608e-003   9.9243672778e-001  -9.1351156395e-003   1.0002729095e+000  -3.0939819135e-003  -1.1059364755e-003   8.8341733871e-004
  5.8513750000e+008  -4.4185555653e-004  -8.2207547445e-004   9.9088866121e-001  -7.0353795573e-003   9.9995418583e-001  -2.6677197148e-003  -7.8885007243e-004   8.2815672263e-004
  5.9372500000e+008  -6.9276992467e-004  -8.6543683251e-004   9.8989371264e-001  -7.0227557229e-003   9.9987791329e-001  -3.6307135734e-003  -5.7943313881e-004   1.0588448944e-003
  6.0231250000e+008  -1.0918861832e-003  -5.3080067786e-004   9.9190382721e-001  -6.2461940166e-003   1.0000879009e+000  -3.1511012701e-003  -4.6457975683e-004   1.0076863360e-003
  6.1090000000e+008  -8.8015790510e-004  -3.1212095407e-004   9.9164947045e-001  -8.5163503124e-003   1.0004480798e+000  -1.9829380404e-003  -4.3306485958e-004   1.0749811588e-003
  6.1948750000e+008  -9.3313058888e-004  -2.8286042518e-007   9.9055072631e-001  -6.4808330558e-003   9.9968074028e-001  -3.1821170309e-003  -1.5055476087e-004   8.0538009853e-004
  6.2807500000e+008  -7.8670741050e-004   1.3258269289e-004   9.9162189427e-001  -9.6278150844e-003   1.0007178459e+000  -2.9847003685e-003   7.2566943924e-005   4.7896977437e-004
  6.3666250000e+008  -5.3762120509e-004   4.9214317068e-004   9.9324210634e-001  -8.7052565095e-003   9.9986106244e-001  -3.1639710526e-003   7.8357922847e-005   2.7353743850e-004
  6.4525000000e+008  -4.9086570540e-005   4.3370036784e-004   9.9188771574e-001  -5.4537086299e-003   1.0005245185e+000  -3.0766035701e-003   3.4109834824e-004  -2.9799437960e-005
  6.5383750000e+008   1.7191559626e-004   2.4994469626e-004   9.9187782674e-001  -7.4778754731e-003   9.9935900790e-001  -2.3502198662e-003   2.9791015594e-004  -1.4756134070e-004
  6.6242500000e+008   3.4416799515e-004   1.5895315372e-004   9.9113509791e-001  -7.4638420468e-003   1.0004951210e+000  -3.2825278998e-003   3.4496922730e-004  -3.6293004493e-004
  6.7101250000e+008   4.6012986473e-004  -2.7777165312e-004   9.9293924788e-001  -7.8429233756e-003   9.9977866151e-001  -1.8070978484e-003   3.2581667355e-004  -7.5088247513e-004
  6.7960000000e+008   6.8099794533e-004  -5.3353458378e-004   9.9198208449e-001  -7.2223568936e-003   1.0002451192e+000  -3.0967597330e-003   2.5907454631e-004  -1.1339961060e-003
  6.8818750000e+008   2.1286258628e-004  -8.9583113726e-004   9.9072049028e-001  -7.4041952536e-003   1.0003178552e+000  -3.4506979245e-003   7.1921153801e-005  -1.0923705849e-003
  6.9677500000e+008   1.0322301111e-004  -1.0929227602e-003   9.9270414571e-001  -7.8411570638e-003   1.0004626412e+000  -3.3264375246e-003  -2.4058379048e-004  -1.0883563396e-003
  7.0536250000e+008  -2.5801763665e-004  -1.0764546527e-003   9.9155640543e-001  -7.4616581010e-003   1.0000480760e+000  -3.1421078176e-003  -3.6348946836e-004  -1.3733132723e-003
  7.1395000000e+008  -6.5371220195e-004  -1.0015447265e-003   9.9252380542e-001  -7.8118269577e-003   1.0002408196e+000  -3.3154197940e-003  -5.0839284849e-004  -1.2690378402e-003
  7.2253750000e+008  -1.0684689896e-003  -7.8129255445e-004   9.9138895308e-001  -8.1337366238e-003   9.9985345449e-001  -3.3930620224e-003  -9.4584461610e-004  -1.2650855982e-003
  7.3112500000e+008  -1.1368203270e-003  -4.3849293200e-004   9.9159263505e-001  -8.0589133998e-003   9.9979433115e-001  -2.5754599036e-003  -1.0061876617e-003  -1.0371687384e-003
  7.3971250000e+008  -1.0444759121e-003   3.1935231418e-005   9.9304302898e-001  -8.7083474214e-003   9.9964656301e-001  -4.2854370945e-003  -1.2101243707e-003  -8.1098486540e-004
  7.4830000000e+008  -9.4620509624e-004   4.7712045817e-004   9.9197572701e-001  -6.5506158999e-003   9.9909070358e-001  -2.7391403846e-003  -1.0766964408e-003  -5.6613833840e-004
  7.5688750000e+008  -7.7263174754e-004   6.5395371867e-004   9.9195475849e-001  -8.1983724947e-003   9.9899547335e-001  -3.6163637698e-003  -1.2442550308e-003  -1.4054343836e-004
  7.6547500000e+008  -1.6019031526e-004   7.3491381571e-004   9.9090313900e-001  -8.8364625477e-003   9.9942913191e-001  -4.3232600825e-003  -1.1266598601e-003  -2.0030927511e-005
  7.7406250000e+008   1.2329916449e-004   7.7110927924e-004   9.9276704538e-001  -7.8333170920e-003   9.9961184257e-001  -3.2816160098e-003  -8.3515426250e-004   3.3394935681e-004
  7.8265000000e+008   4.1877709577e-004   4.3072908645e-004   9.9155508970e-001  -6.4717752378e-003   9.9996420520e-001  -2.7457691975e-003  -8.1793454025e-004   5.9877691407e-004
  7.9123750000e+008   6.6710092534e-004   2.9073539312e-004   9.9300302926e-001  -7.2988077380e-003   9.9926101983e-001  -2.4246048252e-003  -6.6928332507e-004   6.0046204190e-004
  7.9982500000e+008   6.3098729597e-004   2.7263950055e-004   9.9263404608e-001  -6.4620493285e-003   1.0007496138e+000  -2.5634713037e-003  -3.8808439667e-004   7.1533312697e-004
  8.0841250000e+008   9.0644265795e-004   2.0295977846e-004   9.9295429120e-001  -7.3726757799e-003   1.0001635254e+000  -3.2271390247e-003  -4.9761874522e-004   8.2184191351e-004
  8.1700000000e+008   1.0571568993e-003  -1.8606027699e-004   9.9227991089e-001  -6.7863657457e-003   1.0003320004e+000  -2.9406365376e-003  -3.4255626159e-004   9.0753928801e-004
  8.2558750000e+008   1.0291108447e-003  -4.2728835414e-004   9.9500799701e-001  -6.3811422053e-003   1.0008108756e+000  -3.4126413391e-003  -6.0608615283e-004   1.0223251236e-003
  8.3417500000e+008   9.7956202239e-004  -1.0341491824e-003   9.9120022135e-001  -8.8795665975e-003   1.0005787924e+000  -3.2618607513e-003  -2.2485277966e-004   1.1396112520e-003
  8.4276250000e+008   6.3377860443e-004  -1.1811885529e-003   9.9062942748e-001  -8.0168420827e-003   9.9965249789e-001  -3.4803026348e-003  -4.1273010138e-005   1.2573139248e-003
  8.5135000000e+008   8.7210392369e-005  -1.3154802463e-003   9.9015826659e-001  -7.2755507181e-003   1.0006321701e+000  -3.4371268892e-003   2.1124359056e-004   1.2932197192e-003
  8.5993750000e+008  -1.8706532377e-004  -1.2741102586e-003   9.9229786585e-001  -7.7293452023e-003   1.0002163284e+000  -4.0312042126e-003   3.9118758935e-004   1.2009958704e-003
  8.6852500000e+008  -4.9244894589e-004  -9.4644192756e-004   9.9109959360e-001  -8.4876767194e-003   9.9970355424e-001  -3.8705539857e-003   6.1838706467e-004   7.2856992900e-004
  8.7711250000e+008  -5.8696155542e-004  -5.0600346696e-004   9.8944115084e-001  -8.3595782942e-003   1.0004804170e+000  -3.7492369840e-003   6.0994005829e-004   3.3056732679e-004
  8.8570000000e+008  -5.3500829364e-004  -3.8781639565e-004   9.9111648827e-001  -7.8607937585e-003   9.9946154832e-001  -4.3181865911e-003   5.1038645340e-004   2.5664874731e-005
  8.9428750000e+008  -3.4314578766e-004  -1.6665207524e-004   9.9030257584e-001  -9.5119908337e-003   9.9995452942e-001  -4.2031073460e-003   2.0372963062e-004  -2.8996091148e-004
  9.0287500000e+008  -2.8360003113e-005  -2.7641126826e-004   9.9136809641e-001  -7.9689687177e-003   9.9977875555e-001  -4.5097659601e-003   1.0730181423e-004  -4.5315880524e-004
  9.1146250000e+008   2.1584569527e-004  -1.2029776885e-004   9.9124738634e-001  -9.1543184699e-003   9.9828415787e-001  -4.4303439385e-003  -4.4580224105e-004  -3.8801596177e-004
  9.2005000000e+008   2.8731451555e-004  -4.3065413234e-004   9.9171567794e-001  -7.3426737881e-003   9.9838831015e-001  -2.9935977902e-003  -5.7289783180e-004  -6.3195102461e-004
  9.2863750000e+008   4.8436593663e-004  -4.2788256627e-004   9.9181236593e-001  -8.2832380258e-003   9.9916514987e-001  -3.7447791947e-003  -7.8847917115e-004  -6.2512971645e-004
  9.3722500000e+008   3.5332808126e-004  -7.0051418309e-004   9.8982139437e-001  -6.7908835525e-003   9.9867369837e-001  -4.2247450588e-003  -1.1678029396e-003  -7.3991647554e-004
  9.4581250000e+008   3.2066821772e-004  -1.0850174342e-003   9.9041046773e-001  -7.7990945716e-003   9.9969772551e-001  -3.7858716148e-003  -1.3290487980e-003  -4.3951091894e-004
  9.5440000000e+008  -2.5154107446e-005  -1.2777218704e-003   9.9112657656e-001  -9.9265286226e-003   1.0001443291e+000  -3.7178520616e-003  -1.5038127495e-003  -3.8911809333e-004
  9.6298750000e+008  -2.8062988722e-004  -1.2996147594e-003   9.9262722586e-001  -6.7022677891e-003   9.9932882682e-001  -4.4816493632e-003  -1.5387466761e-003  -2.0749324289e-004
  9.7157500000e+008  -5.5286050345e-004  -1.2808792780e-003   9.9140956576e-001  -8.2054817452e-003   1.0008829690e+000  -3.5934958526e-003  -1.4260677784e-003  -1.8552538683e-004
  9.8016250000e+008  -9.1140592412e-004  -1.0431884044e-003   9.9313458779e-001  -8.2714169951e-003   9.9950558187e-001  -4.6420478598e-003  -1.5602954611e-003   1.8391290429e-004
  9.8875000000e+008  -1.1065106984e-003  -5.8385598130e-004   9.9348691591e-001  -7.2225518241e-003   9.9985758325e-001  -4.1749018461e-003  -1.5028661602e-003   2.2947676498e-004
  9.9733750000e+008  -1.1365211211e-003  -2.8387033473e-004   9.9222535676e-001  -8.4963756939e-003   9.9927884227e-001  -3.5729532784e-003  -1.2031629410e-003   2.5968511313e-004
  1.0059250000e+009  -9.6288336601e-004   1.4730272475e-004   9.9161630605e-001  -6.7649768538e-003   1.0001929221e+000  -3.2492966944e-003  -8.2744809844e-004   3.2734840575e-004
  1.0145125000e+009  -8.4211306486e-004   4.4784083207e-004   9.9123196165e-001  -9.7161648879e-003   9.9937387646e-001  -3.9679403761e-003  -4.3845818511e-004   3.6060307514e-004
  1.0231000000e+009  -5.7976103770e-004   4.7310561399e-004   9.9167455695e-001  -6.9491270336e-003   9.9983442825e-001  -4.1279288733e-003  -2.9568864897e-004   3.8136991672e-004
  1.0316875000e+009  -2.5425604324e-004   7.6211972515e-004   9.9213539830e-001  -8.3470271216e-003   9.9930404191e-001  -4.4880935053e-003   3.3677736602e-005   3.3703384102e-004
  1.0402750000e+009   2.3016838697e-004   6.9056027867e-004   9.9048349231e-001  -7.8946483958e-003   9.9994490669e-001  -3.2578635739e-003   3.7190694245e-004   4.2058376195e-005
  1.0488625000e+009   4.6447255135e-004   5.8385490057e-004   9.9149665290e-001  -8.9005274436e-003   9.9923952515e-001  -3.7054306499e-003   6.5927629304e-004  -9.6869178284e-005
  1.0574500000e+009   7.2823739517e-004   2.6251446978e-004   9.9041254254e-001  -8.7180923356e-003   9.9922584793e-001  -4.2942085989e-003   7.5730654215e-004  -3.4761885129e-004
