# Hz S RI R 50.000000
! Metas.Vna.Tools, 2.8.8664.20301
! Metas.Vna.Data, 2.8.8664.20285
! Created: UTC 2024.02.11 10:08:42
! FREQ                re:S1,1             im:S1,1             re:S2,1             im:S2,1             re:S1,2             im:S1,2             re:S2,2             im:S2,2          
  1.3000000000e+008   5.2920527412e-004  -1.1647227736e-003   9.9201658881e-001  -6.6470731526e-003   1.0003176518e+000  -3.8434347684e-004   9.0083794366e-004   2.7916713737e-004
  1.3858750000e+008  -4.6859073855e-004  -1.1955990967e-003   9.9162043864e-001  -6.2726443679e-003   1.0006117416e+000   7.8528163008e-004   1.0822897768e-003  -4.4840407620e-004
  1.4717500000e+008  -1.6019916636e-003  -1.6671296394e-003   9.9175685008e-001  -5.9915813895e-003   1.0001652872e+000   1.0402493182e-004   9.6014322813e-004   2.3295954125e-004
  1.5576250000e+008  -1.5774653116e-003   8.0791053775e-005   9.9271974230e-001  -6.0830079629e-003   1.0004693422e+000   7.8087463562e-004   1.7015731802e-003  -1.2537663144e-003
  1.6435000000e+008  -9.7066794968e-004   9.8152394943e-005   9.9149410837e-001  -6.0872101040e-003   1.0007626756e+000  -1.5947905119e-004   1.0678691042e-003  -3.3344164314e-004
  1.7293750000e+008  -6.3445008481e-004   6.9440650289e-004   9.9228282202e-001  -6.1821824093e-003   1.0006784406e+000   3.8377359719e-005   5.5223202227e-004  -8.4742839379e-004
  1.8152500000e+008  -2.3201475744e-004   6.0423887163e-004   9.9170542374e-001  -6.1780055792e-003   1.0000777944e+000  -1.1219882010e-004   5.3513566544e-004  -9.4012216129e-004
  1.9011250000e+008  -3.3576950408e-004   6.7067092920e-004   9.9330640420e-001  -7.7939124679e-003   1.0010969570e+000  -8.2222231171e-004   3.6618528970e-004  -9.9777271363e-004
  1.9870000000e+008  -9.2504007808e-005   9.4627686220e-004   9.9172662498e-001  -6.8682749027e-003   1.0002036243e+000  -2.0161654567e-004   6.4953834091e-004  -3.8918334490e-004
  2.0728750000e+008   2.7240332451e-004  -1.2862608168e-004   9.9134430564e-001  -6.2871990712e-003   1.0005977237e+000  -2.6025128001e-004   4.2104674862e-004  -1.5076221414e-004
  2.1587500000e+008   3.5368134109e-004  -4.4336466379e-004   9.9026203328e-001  -7.8164268889e-003   1.0002450962e+000   1.4472184916e-004  -3.2070905177e-004   2.5405274326e-004
  2.2446250000e+008   1.7412436507e-004  -4.1444488546e-004   9.8924215444e-001  -8.0895498462e-003   1.0000642231e+000  -3.0267720629e-004  -7.3217546832e-005   2.2218424842e-004
  2.3305000000e+008  -1.9075234766e-006   1.2813108098e-004   9.8512846629e-001  -9.4133727819e-003   1.0003952020e+000  -2.7763510115e-004   2.3327535372e-005   1.9449474028e-004
  2.4163750000e+008  -4.7184222728e-004  -1.9271774360e-004   9.8452350033e-001  -9.4847082154e-003   1.0005913031e+000  -8.7052442842e-004  -3.8904798258e-004   3.9105727190e-004
  2.5022500000e+008  -2.3784822009e-004  -3.1398843035e-004   9.8421643606e-001  -8.4118023526e-003   1.0001967830e+000  -8.6614836610e-004  -5.4925343772e-004   3.1324301553e-004
  2.5881250000e+008  -4.2628430898e-004  -1.9830280052e-004   9.8160243474e-001  -7.9515036496e-003   1.0005633817e+000  -1.7446308578e-003  -3.9709728672e-004   3.0335533891e-004
  2.6740000000e+008  -7.6708689811e-004  -2.3311401770e-004   9.8426092994e-001  -9.8965036687e-003   1.0004482211e+000  -8.4943104737e-004  -5.2038030331e-004   8.3363077901e-005
  2.7598750000e+008  -2.1269430359e-004  -2.7745991190e-004   9.8517567291e-001  -1.0514725978e-002   1.0007404899e+000  -5.6184789791e-004  -1.2090384281e-004   4.4961013902e-004
  2.8457500000e+008  -6.4701039602e-004  -3.2818387315e-004   9.8640991515e-001  -8.1392535165e-003   1.0011852368e+000  -1.2930247632e-003  -2.4121383257e-004   5.7177279939e-004
  2.9316250000e+008  -3.8763006881e-004  -6.0805464247e-004   9.8693780813e-001  -8.9458788190e-003   1.0003243019e+000  -1.0419147088e-003  -2.1664099866e-004   3.2890137187e-004
  3.0175000000e+008  -7.2932901296e-004   2.3494562713e-004   9.8809425789e-001  -9.5653994449e-003   1.0007745020e+000  -4.5194670541e-004  -5.3845944122e-004   1.6103784465e-004
  3.1033750000e+008  -8.4451237684e-004   1.0326602792e-004   9.8828046925e-001  -7.9712240128e-003   1.0015164081e+000  -8.2572820444e-004  -7.5998194422e-004   5.4353829358e-004
  3.1892500000e+008  -9.3869364355e-004  -8.5634838719e-005   9.8794757509e-001  -8.3848879126e-003   9.9980516014e-001  -3.7520467328e-004  -8.2970912132e-004  -6.5022468737e-006
  3.2751250000e+008  -5.3574029659e-004   1.1772873183e-004   9.8699567731e-001  -1.0072292757e-002   1.0003772513e+000  -1.2879961872e-003  -1.0154809640e-003   1.0161842456e-004
  3.3610000000e+008  -8.3196548564e-004   2.0173287493e-004   9.8757080166e-001  -8.1000062286e-003   1.0012036780e+000  -1.0546570460e-003  -1.1156117845e-003   1.2184431401e-004
  3.4468750000e+008  -8.4625231419e-004   3.2656598868e-005   9.8808386204e-001  -8.0121953948e-003   1.0012074593e+000  -4.4270057629e-004  -6.4852559413e-004   3.3791595904e-004
  3.5327500000e+008  -7.6060035448e-004   3.6577004224e-004   9.8821154497e-001  -8.3071040836e-003   9.9916102127e-001  -1.5512401366e-003  -7.8711515689e-004   2.0424594316e-004
  3.6186250000e+008  -6.4156526542e-004   4.0939716920e-004   9.8867684916e-001  -8.1575244566e-003   1.0009305541e+000  -6.6272806361e-004  -7.5754392232e-004   4.8626702615e-004
  3.7045000000e+008  -6.5772021578e-004   7.8373733883e-004   9.8745696872e-001  -8.6868100188e-003   1.0012261284e+000  -9.7600258672e-004  -7.6510393235e-004   3.6361984356e-004
  3.7903750000e+008  -5.6951283405e-004   7.0734527537e-004   9.8888101694e-001  -7.7690985773e-003   1.0004007686e+000  -1.0005307409e-003  -5.0617909482e-004   1.1678258549e-004
  3.8762500000e+008  -3.7491270690e-004   4.5237716284e-004   9.9017134677e-001  -8.1105713128e-003   1.0002622382e+000  -1.0100797464e-003  -3.9914476835e-004   3.3450040005e-004
  3.9621250000e+008   4.3891365364e-005   2.3295686837e-004   9.8817464344e-001  -8.9192192227e-003   1.0009212841e+000  -1.3127857891e-003  -4.7248919420e-004   5.3319179737e-004
  4.0480000000e+008   4.1295300937e-004   3.5447966025e-004   9.8891612325e-001  -8.6075477973e-003   1.0007892428e+000  -1.3135647018e-003  -7.5507494757e-005   3.6863963922e-004
  4.1338750000e+008   3.7480842670e-004   3.6692529400e-005   9.8789690196e-001  -6.8938636465e-003   1.0007618031e+000  -1.4486347294e-003  -1.9076223721e-005   4.7616729890e-004
  4.2197500000e+008   1.1194715723e-004  -1.9335922448e-004   9.8965065003e-001  -8.3184457909e-003   1.0009302775e+000  -1.3066499531e-003   2.4730871811e-004   5.4720578349e-004
  4.3056250000e+008   3.5921266053e-004  -8.3925075133e-005   9.8897746323e-001  -7.7253668348e-003   1.0009380456e+000  -1.0105203561e-003   8.5237152112e-004   4.2525004497e-004
  4.3915000000e+008   2.5770785078e-004  -4.3493307268e-004   9.9029615372e-001  -7.0142014550e-003   1.0004589971e+000  -1.6456111467e-003   6.9417508083e-004   2.1782798246e-004
  4.4773750000e+008   9.4825816418e-005  -2.8643760399e-004   9.8971412062e-001  -8.4292566409e-003   1.0005780188e+000  -1.4068137814e-003   7.3024321482e-004  -1.8967321972e-004
  4.5632500000e+008  -1.8698704825e-004  -4.9746708807e-004   9.8727698102e-001  -7.9616479488e-003   1.0005788098e+000  -1.5728593944e-003   8.2058842170e-004  -1.1662441028e-004
  4.6491250000e+008  -5.4047532798e-004  -4.2674310436e-004   9.8927999756e-001  -8.3819974034e-003   1.0003519167e+000  -1.5368103644e-003   7.1413527769e-004  -8.0610203735e-005
  4.7350000000e+008  -5.2277143276e-004  -3.2608198466e-004   9.8900070282e-001  -9.1545867227e-003   1.0004289678e+000  -1.2665896866e-003   5.0848118952e-004  -1.0868977085e-004
  4.8208750000e+008  -3.2439689493e-004  -7.7954562490e-006   9.8736502256e-001  -8.5475161281e-003   9.9982178381e-001  -9.2863136637e-004   6.3363011772e-004  -3.6761623923e-006
  4.9067500000e+008  -1.5628595704e-006  -2.1747686747e-004   9.8716456222e-001  -9.1876610005e-003   1.0002423867e+000  -1.2676206840e-003   2.6546575560e-004  -3.1400136040e-005
  4.9926250000e+008  -1.8405572618e-004  -2.6369546590e-004   9.8769739291e-001  -8.4080165997e-003   9.9983774592e-001  -1.1900484818e-003   3.4009157592e-004  -1.5017428263e-004
  5.0785000000e+008  -4.6615899320e-004  -1.5100418493e-004   9.8810312691e-001  -8.0469844916e-003   1.0000859370e+000  -8.9301205844e-004   4.1930402418e-004   1.0317198170e-004
  5.1643750000e+008  -2.8598825641e-004   6.2810808919e-005   9.8728235102e-001  -8.2220942189e-003   1.0003289710e+000  -1.0630473813e-003   5.0058282624e-004  -8.2921385168e-006
  5.2502500000e+008  -1.6493124326e-004   5.9876841884e-004   9.8774253501e-001  -7.3894050122e-003   1.0006583748e+000  -7.6920127409e-004   1.0878549751e-004  -5.2944566143e-004
  5.3361250000e+008   4.7834186001e-004   4.3530913984e-004   9.8869108348e-001  -8.9109464098e-003   1.0002725673e+000  -1.1326886621e-003  -7.3274001122e-005  -3.5753297801e-004
  5.4220000000e+008   7.3178680704e-004   6.8475794424e-005   9.8922779197e-001  -8.7758187441e-003   1.0004092353e+000  -1.3441159952e-003  -9.0890054866e-004  -8.6089313918e-005
  5.5078750000e+008   5.0133286265e-004  -6.6300683927e-004   9.8822342226e-001  -1.0284020619e-002   1.0004491343e+000  -1.9580584494e-003  -8.3144046125e-004  -4.9659266082e-005
  5.5937500000e+008   3.3943395420e-004  -7.5161758725e-004   9.8540875577e-001  -8.8347224082e-003   9.9982159791e-001  -1.5571627169e-003  -9.5786328794e-004   2.4918958643e-004
  5.6796250000e+008   4.8940197834e-004  -8.1692668358e-004   9.8558727902e-001  -9.0668393349e-003   1.0008642249e+000  -1.3467396162e-003  -1.0173283468e-003   6.2891661448e-004
  5.7655000000e+008  -2.1893982844e-004  -1.1221901472e-003   9.8808690765e-001  -1.0305128715e-002   1.0000417091e+000  -2.8991337909e-003  -6.9994935098e-004   9.0885593923e-004
  5.8513750000e+008  -4.1597356555e-004  -9.9413838525e-004   9.8635812227e-001  -9.2794440669e-003   9.9965114264e-001  -1.9309417663e-003  -7.3220383477e-004   1.0494795509e-003
  5.9372500000e+008  -6.4093870147e-004  -9.2322208118e-004   9.8731614864e-001  -8.1631502335e-003   1.0005669647e+000  -2.3099273769e-003  -5.6313629050e-004   9.6517947125e-004
  6.0231250000e+008  -1.0319552097e-003  -4.9600058160e-004   9.8914708350e-001  -7.6994345557e-003   1.0001868910e+000  -2.1356353008e-003  -1.8861146639e-004   8.5521549014e-004
  6.1090000000e+008  -8.6008044386e-004  -4.3326208850e-004   9.8861986414e-001  -8.6773202604e-003   9.9965243431e-001  -1.5774749427e-003  -4.5121492408e-004   1.0392833943e-003
  6.1948750000e+008  -9.0302154956e-004  -1.4987747366e-005   9.8754500610e-001  -7.8984863346e-003   1.0003391804e+000  -1.4102920409e-003  -2.0625927542e-004   7.4520983115e-004
  6.2807500000e+008  -8.0732174059e-004   1.0230720871e-004   9.8948459399e-001  -1.0320586645e-002   1.0005811668e+000  -2.2007243846e-003   2.0144569468e-004   3.4083486030e-004
  6.3666250000e+008  -3.8020672374e-004   6.0486677555e-004   9.8908784607e-001  -9.4750580700e-003   9.9999554011e-001  -2.5110915743e-003   2.1649739546e-004   1.5465751347e-004
  6.4525000000e+008   1.0786000996e-004   3.2636397592e-004   9.9039897491e-001  -7.6169317340e-003   9.9969887506e-001  -2.0101811419e-003   3.5249530017e-004  -1.8326444006e-004
  6.5383750000e+008   6.9563602000e-005   4.2536505782e-004   9.9016744958e-001  -8.8587595236e-003   1.0006372425e+000  -1.2738468865e-003   3.5402089970e-004  -4.5581631180e-004
  6.6242500000e+008   4.9686808747e-004   1.9872510842e-004   9.8679133661e-001  -8.6492372087e-003   1.0006856745e+000  -2.6089314523e-003   2.3356200620e-004  -5.1639743082e-004
  6.7101250000e+008   5.9900105832e-004  -1.9040245927e-004   9.8652482081e-001  -6.7462562500e-003   1.0003158781e+000  -1.3780156869e-003   1.2456098146e-004  -7.6512900745e-004
  6.7960000000e+008   7.6153291978e-004  -5.1664332546e-004   9.8825211579e-001  -7.9525134496e-003   1.0003804706e+000  -2.2190953566e-003   7.2821761118e-005  -1.1616195341e-003
  6.8818750000e+008   3.7224114157e-004  -8.8679547422e-004   9.8685017906e-001  -9.0276204519e-003   1.0004401130e+000  -2.5219626051e-003  -1.5346191918e-004  -1.2081832892e-003
  6.9677500000e+008   3.0409054373e-004  -1.0585860914e-003   9.8741642801e-001  -8.9779125302e-003   1.0002642193e+000  -2.2879912629e-003  -3.4458837750e-004  -1.1316606520e-003
  7.0536250000e+008  -2.6487618676e-004  -1.2334160454e-003   9.8832931887e-001  -9.4076535961e-003   9.9994838369e-001  -2.0794566515e-003  -5.6496978570e-004  -1.2187350730e-003
  7.1395000000e+008  -5.9510971788e-004  -1.1461716761e-003   9.8813110338e-001  -9.4145112477e-003   9.9974340363e-001  -2.0695761551e-003  -8.9210329300e-004  -1.0951445822e-003
  7.2253750000e+008  -1.0188005816e-003  -9.9316845067e-004   9.8650169000e-001  -9.5152260884e-003   9.9948672875e-001  -2.0406239498e-003  -1.0765728466e-003  -9.0407810909e-004
  7.3112500000e+008  -1.1667413125e-003  -4.7688875492e-004   9.8808373005e-001  -9.0448073330e-003   9.9986246064e-001  -1.8160837276e-003  -1.1408486479e-003  -8.7969374181e-004
  7.3971250000e+008  -1.1086821722e-003   5.3607865536e-005   9.8801561852e-001  -9.3517075920e-003   9.9978759316e-001  -2.2817566373e-003  -1.1541501919e-003  -6.2172511655e-004
  7.4830000000e+008  -1.0011529784e-003   5.4039420894e-004   9.8899393485e-001  -9.0717132370e-003   9.9937252568e-001  -1.5956589281e-003  -9.9429514285e-004  -4.9988057351e-004
  7.5688750000e+008  -8.5751888190e-004   7.6242747995e-004   9.8715321878e-001  -1.0013933549e-002   9.9937798458e-001  -2.1785083586e-003  -1.0625872945e-003  -1.3956328727e-005
  7.6547500000e+008  -2.6047130842e-004   8.8936222877e-004   9.8868961844e-001  -9.4219842700e-003   9.9953754537e-001  -2.7802400422e-003  -1.1662101957e-003   1.2012782340e-004
  7.7406250000e+008   8.4394609272e-005   9.8581581371e-004   9.8764420738e-001  -9.6621882317e-003   1.0002808682e+000  -1.8031736173e-003  -6.9317559824e-004   3.0430501035e-004
  7.8265000000e+008   5.0772141688e-004   6.3905011377e-004   9.8716854101e-001  -9.6648277669e-003   1.0000619228e+000  -1.4998134901e-003  -6.1016230855e-004   6.9891129878e-004
  7.9123750000e+008   9.6917129690e-004   3.5026353349e-004   9.8764606698e-001  -8.2859005342e-003   9.9909880018e-001  -1.5957121998e-003  -4.6165646730e-004   5.3508813204e-004
  7.9982500000e+008   9.6635182891e-004   1.4414942272e-004   9.8758917040e-001  -8.9040129706e-003   1.0003590991e+000  -1.4780716726e-003  -3.4823647540e-004   7.9944209974e-004
  8.0841250000e+008   1.0541921322e-003  -7.1785329031e-005   9.8735677341e-001  -9.1811570880e-003   9.9976225020e-001  -1.9057860605e-003  -2.3832531336e-004   9.2661496205e-004
  8.1700000000e+008   1.0624205019e-003  -3.7207043935e-004   9.8745648487e-001  -9.2103185732e-003   1.0008370949e+000  -2.0396433003e-003  -1.4923964358e-004   8.7474159025e-004
  8.2558750000e+008   9.5814585145e-004  -6.9051040300e-004   9.8879151260e-001  -8.1003533739e-003   1.0003250564e+000  -2.0619058357e-003  -1.8218450829e-004   8.2686776221e-004
  8.3417500000e+008   9.1745365642e-004  -1.2390745675e-003   9.8624528038e-001  -1.0078746756e-002   1.0005200552e+000  -2.3697594783e-003  -8.9624349076e-005   9.1154594252e-004
  8.4276250000e+008   4.4478750049e-004  -1.2736498697e-003   9.8426676865e-001  -9.6606593313e-003   9.9969211143e-001  -2.6625301660e-003   1.6648694938e-004   7.5597708709e-004
  8.5135000000e+008  -1.0035621715e-004  -1.2381206798e-003   9.8479460921e-001  -9.6953224784e-003   1.0009605145e+000  -2.2710161075e-003   3.7672035765e-004   8.4699582466e-004
  8.5993750000e+008  -3.4221842996e-004  -1.1896276748e-003   9.8001555726e-001  -1.0567333638e-002   9.9962555363e-001  -2.8464002213e-003   3.2772617294e-004   5.7355678812e-004
  8.6852500000e+008  -5.0654250742e-004  -8.3607046072e-004   9.7951364682e-001  -1.0996490166e-002   1.0001245892e+000  -2.7569086668e-003   2.2697302176e-004   2.6438348823e-004
  8.7711250000e+008  -5.4512461186e-004  -6.1018116219e-004   9.8223533907e-001  -1.1442912717e-002   9.9961398630e-001  -2.7988745605e-003   1.6543735678e-004   5.9149838736e-005
  8.8570000000e+008  -3.8131225852e-004  -3.7925532116e-004   9.8524331284e-001  -8.9919524667e-003   9.9937918225e-001  -2.4635885351e-003   1.1456773319e-004  -3.3455952507e-005
  8.9428750000e+008  -2.0744852226e-004  -1.3427507202e-004   9.8761269930e-001  -9.8593558619e-003   1.0002470030e+000  -3.4909533868e-003  -1.0923080247e-004  -3.6345834501e-004
  9.0287500000e+008   1.3931936824e-004  -2.8656723353e-004   9.8900969723e-001  -1.1112680243e-002   9.9929710287e-001  -3.4959213507e-003  -3.5017527645e-004  -4.2048224847e-004
  9.1146250000e+008   3.3748117118e-004  -3.4775508825e-004   9.8993449935e-001  -9.7995735342e-003   9.9904195707e-001  -3.1945492396e-003  -7.2525262471e-004  -3.1999851575e-004
  9.2005000000e+008   3.0098969923e-004  -4.5681254636e-004   9.8765188733e-001  -9.2343299918e-003   9.9894357258e-001  -1.8254895590e-003  -1.0140635940e-003  -3.2696548836e-004
  9.2863750000e+008   4.0797165529e-004  -6.8758193602e-004   9.8745856369e-001  -9.2819729221e-003   1.0003379995e+000  -3.1114202527e-003  -1.0397059387e-003  -3.5013117965e-004
  9.3722500000e+008   4.2619368276e-004  -1.0475246930e-003   9.8769393730e-001  -8.6063936691e-003   9.9851742922e-001  -2.5342308937e-003  -1.1894676467e-003  -2.6837502237e-004
  9.4581250000e+008   2.2459962700e-004  -1.1451871652e-003   9.8722408000e-001  -8.7052273394e-003   9.9999747067e-001  -2.4501198541e-003  -1.3502785660e-003  -2.3095656640e-004
  9.5440000000e+008  -3.3005806665e-005  -1.2480301919e-003   9.8687538712e-001  -1.0650579028e-002   9.9972216772e-001  -2.7103801119e-003  -1.4041170622e-003  -5.3755521272e-005
  9.6298750000e+008  -5.0641056057e-004  -1.3447430608e-003   9.8896801407e-001  -8.3939858890e-003   9.9947303810e-001  -3.1082750140e-003  -1.3500367846e-003   1.9616485315e-004
  9.7157500000e+008  -7.8428702215e-004  -1.2911484637e-003   9.8717893004e-001  -9.7249772431e-003   1.0003211275e+000  -3.2474288451e-003  -1.3024748066e-003   7.2390957983e-005
  9.8016250000e+008  -9.7106442504e-004  -1.0955738740e-003   9.8854534509e-001  -1.0370057535e-002   9.9937792734e-001  -2.7870201276e-003  -1.1494638689e-003   2.1080273741e-004
  9.8875000000e+008  -1.1183548056e-003  -6.8091737207e-004   9.8799338088e-001  -7.9178714041e-003   9.9915362421e-001  -2.2943090418e-003  -1.0504501575e-003   2.2221663129e-004
  9.9733750000e+008  -1.0731694001e-003  -3.4247750313e-004   9.8736065256e-001  -8.6144874528e-003   1.0000244019e+000  -1.9535174909e-003  -7.9578814728e-004   8.9279449712e-005
  1.0059250000e+009  -1.0218782319e-003   7.9167046753e-005   9.8796639114e-001  -9.9210480044e-003   1.0006142564e+000  -2.7867055898e-003  -4.7888747601e-004   1.1032866157e-004
  1.0145125000e+009  -8.0461327127e-004   5.2596404747e-004   9.8739557026e-001  -1.1627795547e-002   1.0001852337e+000  -2.5064477326e-003  -1.2754138288e-004  -2.5883764598e-005
  1.0231000000e+009  -5.0220753454e-004   5.9698577024e-004   9.8637287037e-001  -8.9927919557e-003   9.9897531171e-001  -2.9896974569e-003  -1.0247821723e-004  -1.7025126310e-004
  1.0316875000e+009  -1.4969222914e-004   7.4170773556e-004   9.8740761229e-001  -1.0410436920e-002   9.9921567640e-001  -3.1193100037e-003   3.1694549527e-005  -2.3961503022e-004
  1.0402750000e+009   2.3893328283e-004   7.2159081408e-004   9.8611191041e-001  -1.0169275043e-002   1.0000810531e+000  -2.6060812317e-003   3.5084576454e-004  -4.0534194215e-004
  1.0488625000e+009   6.8757240922e-004   4.6405379271e-004   9.8749590922e-001  -9.6846309465e-003   9.9976817766e-001  -2.8211010113e-003   5.7958507376e-004  -5.6237746718e-004
  1.0574500000e+009   7.7150120160e-004   1.3332018677e-004   9.8622363632e-001  -9.8032937414e-003   9.9940578171e-001  -2.8061758058e-003   7.2170973645e-004  -7.3048724322e-004
