# Hz S RI R 50.000000
! Metas.Vna.Tools, 2.8.8664.20301
! Metas.Vna.Data, 2.8.8664.20285
! Created: UTC 2024.02.11 10:08:14
! FREQ                re:S1,1             im:S1,1             re:S2,1             im:S2,1             re:S1,2             im:S1,2             re:S2,2             im:S2,2          
  1.3000000000e+008   2.2520097015e-004  -1.0527022031e-003   9.9231012343e-001  -5.4453315536e-003   1.0011173562e+000  -1.1352478210e-003   1.2767757418e-003   9.8207961105e-004
  1.3858750000e+008  -2.5146273407e-004  -1.5948535955e-003   9.9502465381e-001  -4.9921948406e-003   1.0007536506e+000  -9.8082232135e-004   1.2351335286e-003   4.6392411585e-004
  1.4717500000e+008  -1.7014245924e-003  -5.7219989272e-004   9.9257030335e-001  -5.8332332660e-003   1.0004980445e+000  -1.2582533975e-003   6.2033233919e-004  -3.4478581703e-004
  1.5576250000e+008  -1.4777223978e-003   1.3385239146e-004   9.9225924073e-001  -6.0353585943e-003   1.0005060125e+000  -1.4234517801e-003   1.5280930626e-003  -1.4152610613e-003
  1.6435000000e+008  -2.6154104469e-004   3.5268335360e-004   9.9284774377e-001  -5.8573072121e-003   1.0005891723e+000  -9.5624012332e-004   3.5531785888e-004  -4.1912524311e-004
  1.7293750000e+008  -5.8358720963e-004   5.9696074206e-004   9.9348622548e-001  -5.4250021065e-003   1.0003428201e+000  -1.0559664522e-003   7.9316308403e-004  -7.7696956530e-004
  1.8152500000e+008  -6.8863814713e-004   4.8631351194e-004   9.9222679184e-001  -5.5022094109e-003   9.9952591977e-001  -1.7766692295e-003   5.8019534208e-004  -1.0495312799e-004
  1.9011250000e+008  -5.5518603188e-004   5.0536754245e-004   9.9372383399e-001  -7.2250662184e-003   1.0007906450e+000  -1.4361232296e-003   3.4144621632e-004  -6.9140853682e-004
  1.9870000000e+008  -2.2702294195e-004   7.8845086713e-004   9.9401705759e-001  -5.7722993743e-003   1.0003988225e+000  -1.6357638215e-003   2.7222380349e-004  -1.1356709933e-005
  2.0728750000e+008   2.4772171778e-004   2.6630635994e-004   9.9249874576e-001  -5.2779560145e-003   1.0008766475e+000  -2.0158832189e-003   4.5607786511e-005  -4.5277112747e-004
  2.1587500000e+008   3.2601151987e-005  -3.3850027376e-004   9.9594242498e-001  -5.7707325975e-003   1.0003748303e+000  -1.2204755664e-003  -4.1574213731e-004   1.3944630245e-004
  2.2446250000e+008   4.6467939294e-004  -6.9456222504e-004   9.9599456719e-001  -5.0070300191e-003   1.0002383631e+000  -7.2613536594e-004  -6.1906334552e-004   2.6120044055e-004
  2.3305000000e+008  -2.9063556619e-005  -1.0659778030e-004   9.9632355429e-001  -5.9126210752e-003   1.0003105934e+000  -1.4913281991e-003   7.3592101845e-005   1.7649614058e-005
  2.4163750000e+008   2.0740333724e-004  -5.8031440170e-004   9.9692908799e-001  -6.2583419783e-003   1.0006637657e+000  -2.4622201922e-003  -4.2829668420e-004   1.7661581187e-004
  2.5022500000e+008  -4.4865090245e-004  -5.2324414022e-004   9.9710471600e-001  -4.9283546441e-003   1.0008591740e+000  -1.6202576928e-003  -9.6074243312e-004   8.1500799041e-004
  2.5881250000e+008  -6.5858848640e-004  -4.8243773969e-004   9.9567553727e-001  -5.5968101628e-003   1.0011362791e+000  -2.4638701601e-003  -7.9976975266e-004   8.8008855537e-004
  2.6740000000e+008  -1.0696382413e-003  -4.5345539061e-004   9.9721024628e-001  -6.1448956080e-003   1.0004037908e+000  -2.8998991570e-003  -4.5475606278e-004   3.5296328790e-004
  2.7598750000e+008  -3.4638734735e-005  -3.0700901456e-004   9.9584515717e-001  -6.3981346224e-003   1.0004439630e+000  -2.0366721041e-003  -1.5006893495e-005   8.1393464756e-004
  2.8457500000e+008  -6.3421285938e-004  -3.5439506151e-004   9.9356758813e-001  -6.8289389223e-003   1.0007537953e+000  -1.4336165157e-003  -4.7398003522e-004   4.9755095402e-004
  2.9316250000e+008  -3.7758240206e-004  -3.7158251375e-004   9.9573931181e-001  -4.4462124827e-003   1.0005350991e+000  -2.5808202200e-003  -3.8595775188e-004   5.6033855709e-004
  3.0175000000e+008  -7.0696613484e-004   1.7965101828e-005   9.9820754232e-001  -7.3277159825e-003   1.0003218947e+000  -2.0338681988e-003  -5.1720618328e-004   3.9186324717e-004
  3.1033750000e+008  -6.7183564398e-004   2.0325438531e-004   9.9635791197e-001  -4.4295176777e-003   1.0019139619e+000  -1.9414553188e-003  -6.0690959247e-004   5.5755015376e-004
  3.1892500000e+008  -8.6500826424e-004   3.9755587344e-004   9.9703688840e-001  -5.4170018109e-003   9.9992142118e-001  -1.7148277265e-003  -5.1450247357e-004   7.0891112530e-005
  3.2751250000e+008  -7.0804735624e-004   2.1953350929e-004   9.9656789155e-001  -6.9928837025e-003   1.0008129693e+000  -2.4544892536e-003  -5.3500938869e-004   2.6077153744e-004
  3.3610000000e+008  -6.5183486943e-004  -1.3210998447e-004   9.9828076199e-001  -4.3751221114e-003   1.0015027383e+000  -2.8739017470e-003  -6.7110788269e-004   2.1746699350e-004
  3.4468750000e+008  -4.8992804022e-004   1.3293034068e-004   9.9643035602e-001  -5.4440946941e-003   1.0007655086e+000  -2.0075788425e-003  -5.4723991852e-004   4.2858608613e-004
  3.5327500000e+008  -2.4504937615e-004   1.8429739562e-004   9.9708650046e-001  -6.0742700277e-003   9.9927483987e-001  -2.6463595499e-003  -5.0560085319e-004   2.6069431027e-004
  3.6186250000e+008  -5.8323858872e-004   2.1544358008e-004   9.9661762616e-001  -6.7202051306e-003   1.0007572889e+000  -1.8038693358e-003  -5.0947835655e-004   4.9776304110e-004
  3.7045000000e+008  -6.8267572078e-004   3.5917671025e-004   9.9536211117e-001  -5.5912487427e-003   1.0008058245e+000  -2.5639473121e-003  -5.9812796348e-004   4.1025329862e-004
  3.7903750000e+008  -2.6527925293e-004   6.2010200214e-004   9.9591700391e-001  -4.0629913207e-003   1.0006633219e+000  -2.1581132194e-003  -5.5458036261e-004   1.6796035670e-004
  3.8762500000e+008  -3.4394601227e-004   4.4057299755e-004   9.9813349631e-001  -5.2187386503e-003   9.9994683843e-001  -2.2317006146e-003  -4.5073202459e-004   5.9696925255e-004
  3.9621250000e+008   4.3808054014e-006   1.3141239073e-004   9.9507829651e-001  -5.9888875377e-003   1.0007189494e+000  -2.1376816288e-003  -4.6143719768e-004   4.9022907705e-004
  4.0480000000e+008   4.4754630336e-005   2.0648744137e-004   9.9474535176e-001  -7.0672228106e-003   1.0001418986e+000  -2.4977844988e-003  -5.6861814151e-005   3.4929816239e-004
  4.1338750000e+008   2.2449409242e-004   1.7894116110e-004   9.9402958632e-001  -5.9538366843e-003   1.0007060891e+000  -2.6879429283e-003   1.1684836388e-004   5.3802783035e-004
  4.2197500000e+008  -1.7150861437e-004  -1.4060834152e-005   9.9502493813e-001  -6.0252739097e-003   1.0005619699e+000  -2.4252435655e-003   1.9620211630e-004   5.5905101146e-004
  4.3056250000e+008   2.6941085810e-004   1.1164482033e-004   9.9369502014e-001  -6.6209033232e-003   1.0007060393e+000  -2.9185177916e-003   4.6270779281e-004   3.7429051288e-004
  4.3915000000e+008  -1.0426567655e-004  -1.6081773756e-004   9.9655188271e-001  -4.7938854286e-003   1.0001858075e+000  -2.6993475901e-003   4.8736348476e-004   1.8894154750e-004
  4.4773750000e+008   6.3194332034e-005  -3.1047551403e-004   9.9522484662e-001  -5.7525615914e-003   1.0005465472e+000  -2.6415385832e-003   6.0491785085e-004   1.8269044964e-004
  4.5632500000e+008  -6.2506704983e-005  -3.0908934434e-004   9.9215760597e-001  -5.9158030417e-003   1.0004267261e+000  -2.5497014107e-003   5.2320105706e-004   3.3968934039e-005
  4.6491250000e+008  -2.4002745386e-004  -2.8338293064e-004   9.9461659542e-001  -7.3222157116e-003   1.0000304368e+000  -2.8035010691e-003   5.4213572370e-004   7.1060735712e-005
  4.7350000000e+008  -4.5433917995e-004  -6.9674658453e-005   9.9209065455e-001  -7.0415574465e-003   1.0002698290e+000  -2.4794718316e-003   4.4600543723e-004  -1.4901414333e-004
  4.8208750000e+008  -1.0305115168e-004  -5.8818523446e-005   9.9423397848e-001  -6.1359390401e-003   9.9968934327e-001  -1.9877049579e-003   6.5805582477e-004   1.4082302554e-004
  4.9067500000e+008   2.0058788672e-004  -3.9086089174e-004   9.9498961841e-001  -6.7619994448e-003   9.9997730183e-001  -2.6875003928e-003   2.3801299736e-004  -1.2700285091e-004
  4.9926250000e+008  -6.3751419748e-005  -4.1631701028e-004   9.9486569424e-001  -5.5387977690e-003   9.9962287457e-001  -2.6026494203e-003   5.3510716165e-004   1.8987802744e-004
  5.0785000000e+008  -4.6484366029e-004  -3.1709059304e-004   9.9480548433e-001  -5.1015592045e-003   9.9963461784e-001  -2.1265475863e-003   5.4983709996e-004   5.4320585846e-004
  5.1643750000e+008  -6.7662776778e-004  -4.1442691923e-005   9.9289438870e-001  -5.7261521883e-003   1.0004153063e+000  -2.1875287931e-003   7.6594485676e-004   1.3589957508e-004
  5.2502500000e+008  -4.0355471602e-004   6.5666186806e-004   9.9516657913e-001  -4.9990566634e-003   1.0006115033e+000  -1.6482540163e-003   2.6410876892e-004  -4.7433631463e-004
  5.3361250000e+008   2.6225435555e-004   5.1988955204e-004   9.9544688939e-001  -5.8450724551e-003   1.0008094388e+000  -2.3969762897e-003  -1.0122200722e-004  -7.4125242293e-004
  5.4220000000e+008   6.7390312063e-004   2.1379770012e-004   9.9510907892e-001  -6.3442870681e-003   1.0007792101e+000  -2.3090246573e-003  -8.5891865587e-004  -4.8690759796e-004
  5.5078750000e+008   6.6671823802e-004  -5.7176306488e-004   9.9603342942e-001  -8.0767321486e-003   1.0002040199e+000  -3.1604183868e-003  -1.0028939076e-003  -7.7234864759e-005
  5.5937500000e+008   3.7235866718e-004  -6.7651216204e-004   9.9546476726e-001  -6.9648079059e-003   1.0007745400e+000  -3.0597127159e-003  -1.0559399455e-003   6.4577871150e-005
  5.6796250000e+008   2.8413823998e-004  -8.8814903756e-004   9.9521306292e-001  -7.0008120065e-003   9.9976449163e-001  -2.8977698694e-003  -1.0108228187e-003   4.3620639967e-004
  5.7655000000e+008  -1.8319273751e-004  -1.0219058797e-003   9.9563292796e-001  -8.5832672903e-003   1.0001599430e+000  -3.4640043646e-003  -8.4270919977e-004   7.2106265740e-004
  5.8513750000e+008  -5.5761159443e-004  -8.1700647741e-004   9.9541555212e-001  -6.4954735458e-003   9.9962931408e-001  -2.9104680068e-003  -8.1954397519e-004   9.3357360459e-004
  5.9372500000e+008  -4.8954676858e-004  -9.2532567349e-004   9.9440751774e-001  -6.0522799697e-003   9.9985914579e-001  -3.2896620571e-003  -4.9182101044e-004   1.1250489762e-003
  6.0231250000e+008  -9.8171838710e-004  -4.8242126961e-004   9.9480944283e-001  -5.8076460668e-003   9.9963283597e-001  -3.0804344978e-003  -2.7033630931e-004   1.0218236290e-003
  6.1090000000e+008  -7.3724108731e-004  -2.3921877291e-004   9.9536653476e-001  -8.1066923731e-003   9.9990917857e-001  -2.7748081501e-003  -4.6907502819e-004   9.4476587381e-004
  6.1948750000e+008  -8.2034756979e-004   1.5934669728e-006   9.9466843675e-001  -6.7319885920e-003   9.9955665446e-001  -3.5485317755e-003  -2.5340484598e-004   7.5259842008e-004
  6.2807500000e+008  -5.9886174752e-004   7.0464913853e-005   9.9514840466e-001  -8.0008714507e-003   9.9980411218e-001  -2.4279079565e-003   1.7328746323e-004   4.0455119839e-004
  6.3666250000e+008  -4.3891086275e-004   4.3145783363e-004   9.9607664603e-001  -5.8446869613e-003   9.9953211626e-001  -3.5069793460e-003   2.5361991816e-004   2.8343620027e-004
  6.4525000000e+008   1.0530913971e-005   3.9368074089e-004   9.9620351119e-001  -5.8017182519e-003   9.9979302803e-001  -3.0705075662e-003   3.5431267902e-004  -1.2485843611e-004
  6.5383750000e+008   1.3637396585e-004   3.0729036856e-004   9.9672129702e-001  -5.9715204632e-003   1.0002775266e+000  -2.6779833434e-003   4.2570357758e-004  -1.6214019011e-004
  6.6242500000e+008   2.6680702574e-004   7.5824705744e-005   9.9308521410e-001  -7.5875024979e-003   1.0007097579e+000  -3.9851752790e-003   1.7087153955e-004  -4.5071315198e-004
  6.7101250000e+008   4.5088058250e-004  -2.2095757522e-004   9.9500243843e-001  -5.7110042193e-003   9.9961158112e-001  -2.6574967134e-003   2.5955967405e-004  -7.5168758741e-004
  6.7960000000e+008   4.9797748041e-004  -4.9338186103e-004   9.9531059467e-001  -7.5598739061e-003   1.0001982240e+000  -3.3949311345e-003   1.9976876807e-004  -9.6197498529e-004
  6.8818750000e+008   1.5206553361e-004  -8.6676376895e-004   9.9686038663e-001  -6.5427267698e-003   9.9953319584e-001  -3.8165370389e-003   3.9218752373e-005  -1.1824831200e-003
  6.9677500000e+008   2.4098673423e-005  -9.2008817951e-004   9.9680066657e-001  -5.2267034115e-003   9.9988941401e-001  -3.6892286815e-003  -2.0412118708e-004  -1.0595326008e-003
  7.0536250000e+008  -3.8939193742e-004  -9.5263479141e-004   9.9628243732e-001  -6.0748375410e-003   9.9988426394e-001  -3.5355433475e-003  -4.5243542059e-004  -1.2676099089e-003
  7.1395000000e+008  -5.8946266545e-004  -9.5665205501e-004   9.9595229496e-001  -7.0203080991e-003   1.0000017097e+000  -3.1564575623e-003  -5.8250058629e-004  -1.1808214103e-003
  7.2253750000e+008  -1.0327950299e-003  -7.1514739850e-004   9.9595579320e-001  -6.6024368043e-003   1.0000314689e+000  -3.0710807010e-003  -8.4973507172e-004  -1.0870637783e-003
  7.3112500000e+008  -1.0119445844e-003  -2.7160067583e-004   9.9489326722e-001  -7.0212166232e-003   1.0002612696e+000  -3.2112005763e-003  -1.0329185779e-003  -8.0978066960e-004
  7.3971250000e+008  -9.8773844259e-004   1.2172055106e-004   9.9513381253e-001  -7.7468529880e-003   9.9998123501e-001  -3.5651444878e-003  -1.0608270612e-003  -6.5651806254e-004
  7.4830000000e+008  -9.0815105632e-004   6.2570114511e-004   9.9512325373e-001  -5.7525214079e-003   1.0001580604e+000  -2.3580324167e-003  -9.8739480439e-004  -5.0088909892e-004
  7.5688750000e+008  -7.0565890374e-004   6.1931436814e-004   9.9422259484e-001  -7.3888504937e-003   9.9941811134e-001  -3.9215180070e-003  -1.1110212790e-003  -1.3619842861e-004
  7.6547500000e+008  -1.5239437734e-004   8.4798998611e-004   9.9461392002e-001  -8.2510501501e-003   9.9916275123e-001  -3.6118345653e-003  -1.0130198443e-003   1.9608945539e-004
  7.7406250000e+008   2.3204900328e-005   8.2897344627e-004   9.9299982351e-001  -7.6026664806e-003   1.0001566306e+000  -3.7345517674e-003  -6.5776023688e-004   4.6811309901e-004
  7.8265000000e+008   3.6670652358e-004   3.2061602810e-004   9.9495604354e-001  -6.1050889156e-003   1.0000594204e+000  -2.9561629605e-003  -5.1772592744e-004   6.7686151208e-004
  7.9123750000e+008   4.3671036530e-004   3.1356687253e-004   9.9495127681e-001  -7.2220372722e-003   9.9951691231e-001  -2.9157555825e-003  -4.6310073151e-004   5.9247249222e-004
  7.9982500000e+008   3.8804600186e-004   1.4213778058e-004   9.9377119667e-001  -6.6420734119e-003   1.0003337297e+000  -1.8810285040e-003  -1.4482230684e-004   7.3969430632e-004
  8.0841250000e+008   6.9470963745e-004   1.8356522876e-004   9.9385688454e-001  -7.5742607700e-003   9.9967268083e-001  -3.1628939392e-003  -4.7204391101e-005   8.5651861995e-004
  8.1700000000e+008   9.5148673760e-004  -9.1467232225e-005   9.9570906792e-001  -6.3777821117e-003   1.0004597947e+000  -3.5590234990e-003  -9.0999022063e-005   7.1426820936e-004
  8.2558750000e+008   1.1748590334e-003  -1.4777315718e-004   9.9771930265e-001  -5.8069505974e-003   1.0007350856e+000  -3.2873841140e-003  -3.4135373653e-004   9.2156857174e-004
  8.3417500000e+008   1.0184473730e-003  -7.3429091267e-004   9.9680631065e-001  -5.8317190461e-003   1.0007249703e+000  -3.8347782617e-003  -2.8158511214e-004   9.9570491889e-004
  8.4276250000e+008   7.3088038937e-004  -1.1392857257e-003   9.9406252278e-001  -6.9465358877e-003   9.9977033685e-001  -4.0422722220e-003   5.4705328698e-005   1.0971623900e-003
  8.5135000000e+008   2.1434958273e-004  -1.1671735065e-003   9.9506960807e-001  -6.3881173088e-003   1.0011752020e+000  -4.0621528764e-003   2.7143017671e-004   1.1226877419e-003
  8.5993750000e+008  -1.3525784536e-004  -1.3758313488e-003   9.9534434046e-001  -6.8625585764e-003   1.0000263179e+000  -3.8131315906e-003   3.7710580659e-004   1.0289465181e-003
  8.6852500000e+008  -4.9786181977e-004  -9.4633235809e-004   9.9235032048e-001  -8.1484717334e-003   1.0000444447e+000  -3.4113639619e-003   6.0511533565e-004   7.3200869712e-004
  8.7711250000e+008  -6.2494734706e-004  -7.8534779870e-004   9.9452367439e-001  -7.0481557874e-003   1.0002584469e+000  -4.3268124484e-003   5.3759229888e-004   2.9348039625e-004
  8.8570000000e+008  -4.4012035303e-004  -4.3494018797e-004   9.9453113052e-001  -7.4088136603e-003   9.9912105334e-001  -4.0686101819e-003   3.8740466478e-004   1.6350543322e-004
  8.9428750000e+008  -3.1857453681e-004  -2.1034211470e-004   9.9457157005e-001  -6.4962650856e-003   9.9999313341e-001  -5.4252639278e-003   2.3725759442e-004  -2.5500522151e-004
  9.0287500000e+008  -9.5151197951e-005  -2.0222412687e-004   9.9454520153e-001  -7.6505711562e-003   9.9974623551e-001  -4.1369379548e-003  -3.6569610399e-005  -3.7625969263e-004
  9.1146250000e+008   2.6323109954e-004  -1.2863798758e-004   9.9447701228e-001  -8.1131259269e-003   9.9873181667e-001  -4.3173053491e-003  -4.5857554955e-004  -3.6406263433e-004
  9.2005000000e+008   2.3892403597e-004  -3.3870110843e-004   9.9415028302e-001  -6.2650860364e-003   9.9870053939e-001  -3.2378589865e-003  -6.4918484144e-004  -4.7322755295e-004
  9.2863750000e+008   4.7243246852e-004  -4.0292755371e-004   9.9507439555e-001  -7.6683363211e-003   9.9932867895e-001  -4.7040357443e-003  -8.4048416757e-004  -5.0295861121e-004
  9.3722500000e+008   3.4027157142e-004  -7.5022918141e-004   9.9561860084e-001  -7.0023929346e-003   9.9827377871e-001  -4.4421958930e-003  -1.1953632070e-003  -6.3121631571e-004
  9.4581250000e+008   3.8417151808e-004  -9.6489464963e-004   9.9534577374e-001  -5.9514305295e-003   9.9906504939e-001  -3.5952451519e-003  -1.2829231761e-003  -2.8634536819e-004
  9.5440000000e+008  -5.1056403085e-005  -1.1840932632e-003   9.9471142216e-001  -7.6409776889e-003   9.9995576667e-001  -3.1387613472e-003  -1.4469855962e-003  -1.5142555081e-004
  9.6298750000e+008  -3.1816676235e-004  -1.3095825291e-003   9.9462274118e-001  -6.1729419264e-003   9.9957383163e-001  -5.0343682336e-003  -1.4204050932e-003   3.6876982157e-005
  9.7157500000e+008  -5.9736043520e-004  -1.3300706444e-003   9.9511044993e-001  -8.8427680187e-003   1.0004301036e+000  -3.7053267336e-003  -1.4295210819e-003  -7.6747484916e-006
  9.8016250000e+008  -8.1124785820e-004  -1.0307231466e-003   9.9539886441e-001  -7.5878032227e-003   1.0000627501e+000  -4.8783412111e-003  -1.3918212517e-003   1.0465036370e-004
  9.8875000000e+008  -1.1658226920e-003  -6.9152568515e-004   9.9440319456e-001  -6.6470684594e-003   9.9889716951e-001  -3.9960444649e-003  -1.1739851182e-003   3.3050180809e-004
  9.9733750000e+008  -1.1132927581e-003  -3.4748334812e-004   9.9374075349e-001  -7.1859131938e-003   9.9897403992e-001  -4.0391964894e-003  -9.2127281187e-004   2.5435334864e-004
  1.0059250000e+009  -1.1283761318e-003   1.0036637925e-004   9.9703174379e-001  -6.6412769460e-003   1.0004026167e+000  -3.6280985754e-003  -7.2200405895e-004   3.5737494012e-004
  1.0145125000e+009  -8.7289286284e-004   4.6751933097e-004   9.9508692482e-001  -7.9284894072e-003   9.9991464842e-001  -4.4803129715e-003  -3.8837222272e-004   2.3117209296e-004
  1.0231000000e+009  -5.8834626993e-004   4.9911461862e-004   9.9384123669e-001  -6.2206808044e-003   9.9982612352e-001  -4.2440000233e-003  -6.6364026068e-005   2.6021086467e-004
  1.0316875000e+009  -1.3347423493e-004   7.0423498110e-004   9.9453070710e-001  -8.1621910219e-003   9.9889302215e-001  -4.7539810369e-003   9.0750189655e-005   8.1001403764e-005
  1.0402750000e+009   1.9890097612e-004   7.7483684717e-004   9.9355242070e-001  -8.1942153853e-003   9.9911895401e-001  -3.8269378558e-003   5.0544791701e-004  -9.3529780581e-005
  1.0488625000e+009   4.2925991398e-004   5.8013586060e-004   9.9444078558e-001  -7.4278303952e-003   9.9907440371e-001  -3.9105217345e-003   6.7995562584e-004  -3.3973987129e-004
  1.0574500000e+009   6.1101451280e-004   2.4167118797e-004   9.9308283260e-001  -6.2062751880e-003   9.9972512046e-001  -4.1980440209e-003   8.1149815114e-004  -5.6469498093e-004
