# Hz S RI R 50.000000
! Metas.Vna.Tools, 2.8.8664.20301
! Metas.Vna.Data, 2.8.8664.20285
! Created: UTC 2024.02.11 10:08:14
! FREQ                re:S1,1             im:S1,1             re:S2,1             im:S2,1             re:S1,2             im:S1,2             re:S2,2             im:S2,2          
  1.3000000000e+008  -6.3496287385e-005  -1.4219436033e-003   1.0003845806e+000  -3.7296155241e-003   9.9986684834e-001  -1.1060806204e-003   1.1241396010e-003   7.2564131938e-004
  1.3858750000e+008  -9.9755997147e-004  -1.4335286638e-003   1.0011739018e+000  -3.2358273909e-003   1.0001465062e+000  -7.5724077833e-004   8.5626983010e-004   6.5784761904e-005
  1.4717500000e+008  -1.2293997092e-003  -8.0920602226e-004   9.9986510150e-001  -4.3539084350e-003   1.0006295335e+000  -1.1889482559e-003   7.1121457615e-004  -2.7132663474e-004
  1.5576250000e+008  -8.8013894722e-004   3.8484965395e-004   1.0004585218e+000  -3.8413959247e-003   1.0001925677e+000  -1.2192380015e-003   1.3779600345e-003  -9.5081891500e-004
  1.6435000000e+008  -6.8673912041e-004   9.0102632023e-004   9.9995725988e-001  -4.0178184765e-003   1.0005827067e+000  -1.3986237906e-003   5.1631767029e-004  -6.6132214760e-004
  1.7293750000e+008  -7.7108197043e-004   7.1408297375e-004   1.0000497603e+000  -2.8511576563e-003   1.0008272874e+000  -1.2265015805e-003   1.0705071425e-003  -1.1670465052e-003
  1.8152500000e+008  -6.6563650493e-004   6.8034089056e-004   9.9941564853e-001  -3.3958753702e-003   1.0005505871e+000  -1.8128939863e-003   3.8138588247e-004  -7.0092261490e-004
  1.9011250000e+008  -1.9883401333e-004   5.7299415015e-004   1.0009777234e+000  -5.8757112746e-003   1.0005802712e+000  -1.6074327669e-003   2.2514431755e-004  -1.0568991731e-003
  1.9870000000e+008  -2.7255876701e-004   1.0445557034e-003   1.0007312456e+000  -4.3496510898e-003   1.0005091122e+000  -1.4445749797e-003   1.4694022017e-004  -2.6622067870e-004
  2.0728750000e+008   2.3596954882e-004   3.3219243814e-004   9.9919389403e-001  -4.9453714125e-003   1.0007372344e+000  -1.4606961997e-003   1.7352016877e-004  -1.8242454449e-004
  2.1587500000e+008  -9.9906427169e-005  -1.3830755027e-004   1.0011057447e+000  -4.4074641946e-003   1.0002256212e+000  -1.4846778613e-003  -5.3736372380e-004   4.2026085672e-004
  2.2446250000e+008   1.1803269397e-004  -4.5403832853e-004   9.9988737803e-001  -4.7852764191e-003   1.0001986693e+000  -2.2166013669e-003  -6.6031588586e-004   2.6443908697e-004
  2.3305000000e+008  -2.0829256155e-004  -6.8087922609e-005   9.9937086558e-001  -3.9222594919e-003   1.0006716344e+000  -1.7269375500e-003  -6.2877772494e-004   1.6847706779e-004
  2.4163750000e+008  -2.0074967263e-004  -5.3004401578e-004   9.9944351344e-001  -5.5738792923e-003   1.0000464793e+000  -2.1906537531e-003  -6.6960660075e-004   3.9744758979e-004
  2.5022500000e+008  -4.0477528662e-004  -7.6815818654e-004   9.9995289214e-001  -4.5529853431e-003   1.0007816710e+000  -1.7421330140e-003  -9.0256221601e-004   7.3929722240e-004
  2.5881250000e+008  -5.6169987167e-004  -8.1025945955e-004   9.9800756249e-001  -5.6215672060e-003   1.0001440796e+000  -2.3967038904e-003  -7.3697524550e-004   9.7423382541e-004
  2.6740000000e+008  -1.0082553716e-003  -4.9129666152e-004   1.0002579412e+000  -5.7910367939e-003   1.0005169498e+000  -2.4893721391e-003  -6.6045344396e-004   3.5261933568e-004
  2.7598750000e+008  -3.3623701529e-004  -3.8368152001e-004   9.9826684576e-001  -5.3148107690e-003   1.0014483086e+000  -1.7235521452e-003  -4.9047746991e-004   7.3248255620e-004
  2.8457500000e+008  -7.5244201523e-004  -5.0135625406e-004   9.9843409813e-001  -5.0161635467e-003   1.0007656955e+000  -1.8399628413e-003  -1.1787770223e-004   6.3899222095e-004
  2.9316250000e+008  -6.7392668883e-004  -3.5449005380e-004   9.9896670312e-001  -5.6047351239e-003   1.0006205378e+000  -2.5970892506e-003  -2.6214958434e-004   3.7328154574e-004
  3.0175000000e+008  -7.5154288521e-004  -1.7154592856e-005   9.9838264375e-001  -6.7080374870e-003   1.0001240936e+000  -1.5688209018e-003  -1.2655699755e-004   4.3556514651e-004
  3.1033750000e+008  -6.3716890019e-004   3.8128152389e-004   9.9909928773e-001  -3.9723544039e-003   1.0015023286e+000  -1.9649550611e-003  -4.6340828183e-004   7.1457750396e-004
  3.1892500000e+008  -7.5376727069e-004   9.1857765289e-005   9.9899312833e-001  -4.8777607577e-003   1.0004744157e+000  -1.0729847944e-003  -6.9379902069e-004   2.1605202611e-004
  3.2751250000e+008  -6.9655832032e-004   2.3795904126e-004   9.9926800917e-001  -6.8932166777e-003   1.0003419296e+000  -2.8091118441e-003  -6.3714071566e-004   1.7758022425e-004
  3.3610000000e+008  -7.6871646690e-004   4.1149830634e-004   1.0005399063e+000  -4.2991691765e-003   1.0011835387e+000  -2.4083250183e-003  -4.7302798139e-004   1.9677782197e-004
  3.4468750000e+008  -6.1107065613e-004   1.3703654786e-004   9.9981332142e-001  -4.4783086188e-003   1.0004795335e+000  -1.8912140584e-003  -2.8645902983e-004   1.8029299052e-004
  3.5327500000e+008  -4.3552876181e-004   3.4178465420e-004   9.9939504335e-001  -4.7188618285e-003   9.9988428008e-001  -3.4732187561e-003  -5.7299975527e-004   3.6922864896e-005
  3.6186250000e+008  -3.3662873184e-004  -1.1117116716e-005   1.0008117583e+000  -5.9042234743e-003   1.0006731156e+000  -1.8729959037e-003  -5.1174972457e-004   2.3157579320e-004
  3.7045000000e+008  -5.3891915631e-004   6.5128921466e-004   9.9886251933e-001  -4.3606011836e-003   1.0007090646e+000  -2.7286229230e-003  -6.9887263438e-004   1.5239010335e-004
  3.7903750000e+008  -2.7432877352e-004   7.7562059223e-004   9.9937668219e-001  -5.0637186559e-003   1.0002257515e+000  -2.3451249953e-003  -3.2360724259e-004  -2.5314022376e-005
  3.8762500000e+008  -4.4328096475e-004   5.1526406537e-004   1.0018385649e+000  -4.1471154829e-003   9.9957297167e-001  -1.9914641545e-003  -5.7794727320e-004   4.5318896001e-004
  3.9621250000e+008  -1.8618471072e-004   3.6661249870e-004   1.0009710269e+000  -4.1533238587e-003   1.0002755051e+000  -2.2945458736e-003  -5.3172993329e-004   4.5396533289e-004
  4.0480000000e+008   1.7846152603e-004   3.2955841759e-004   1.0019556478e+000  -5.2632536821e-003   1.0004987079e+000  -2.7850451456e-003  -2.2264200209e-004   3.9247508970e-004
  4.1338750000e+008   3.8850051821e-006   2.8138471651e-005   1.0009860411e+000  -3.8213161373e-003   1.0007665615e+000  -2.2867238944e-003   3.7224292576e-005   2.8619683258e-004
  4.2197500000e+008  -3.2588921690e-004  -2.3667409057e-004   1.0005528365e+000  -3.7612998798e-003   1.0004485760e+000  -2.7218857859e-003   7.0359299284e-005   7.3927314897e-004
  4.3056250000e+008  -8.5880918893e-005   7.6596574759e-005   1.0008898668e+000  -3.7009125193e-003   1.0005560445e+000  -2.5564201453e-003   5.7908756797e-004   4.2558508128e-004
  4.3915000000e+008  -3.9809031427e-005  -1.0276476750e-004   1.0026443784e+000  -3.5815795343e-003   1.0003382192e+000  -2.8448844113e-003   6.4703814417e-004   2.8443408786e-004
  4.4773750000e+008   1.9519923357e-004  -1.5331608605e-004   1.0027409711e+000  -4.2736402132e-003   1.0006887181e+000  -2.9465516576e-003   7.0875275426e-004   3.4672497839e-004
  4.5632500000e+008  -6.8042671831e-005  -3.1132394554e-004   1.0013344099e+000  -4.1602875886e-003   1.0004208401e+000  -2.8345469637e-003   6.1240759102e-004   2.3416036884e-004
  4.6491250000e+008  -2.1235328717e-004   3.3719340661e-005   1.0018065317e+000  -4.4336100036e-003   1.0001416044e+000  -2.7903190661e-003   5.6295951311e-004   2.2337688799e-004
  4.7350000000e+008  -3.3246568495e-004   3.3314100391e-005   1.0011033972e+000  -3.9145789315e-003   1.0005604650e+000  -2.8372886256e-003   8.0057089100e-004   5.2444513089e-005
  4.8208750000e+008  -1.5979258984e-004  -7.7281882948e-006   9.9930359140e-001  -4.3109444642e-003   9.9996757077e-001  -2.6599407826e-003   7.1251751112e-004   1.9070653220e-004
  4.9067500000e+008   2.0106220987e-005  -2.9000268168e-004   9.9903096675e-001  -4.8595659830e-003   9.9978029939e-001  -2.8227239010e-003   7.2105673429e-004   1.6607310125e-004
  4.9926250000e+008  -2.0392421240e-004  -4.4352260721e-004   9.9883507334e-001  -4.4187237267e-003   9.9986876076e-001  -2.3673517842e-003   7.6575077940e-004   1.8613387527e-005
  5.0785000000e+008  -5.9276750807e-004  -3.2382485945e-004   9.9877008076e-001  -5.2547293377e-003   9.9974068259e-001  -1.7536250952e-003   7.2984161730e-004   3.0188993850e-004
  5.1643750000e+008  -8.7586182214e-004   1.3619915235e-004   9.9884736853e-001  -3.8234724323e-003   1.0004954300e+000  -2.1834196251e-003   1.1132609253e-003  -2.1987440961e-004
  5.2502500000e+008  -3.6556473152e-004   5.8619652099e-004   9.9935071352e-001  -4.3820769225e-003   1.0006049985e+000  -2.0462471833e-003   5.9507502906e-004  -7.6033103919e-004
  5.3361250000e+008   4.1506865972e-004   4.6425949796e-004   1.0012731008e+000  -4.4054797579e-003   1.0005728443e+000  -2.1292190432e-003   1.4996424760e-004  -9.5393405750e-004
  5.4220000000e+008   7.3323432938e-004   2.0368168206e-004   9.9948355144e-001  -5.2726561836e-003   1.0005516090e+000  -2.7171412049e-003  -7.0508968635e-004  -7.0354199103e-004
  5.5078750000e+008   7.2688559509e-004  -4.2999866376e-004   9.9934585550e-001  -5.1204111894e-003   1.0002769924e+000  -2.9201951187e-003  -9.2302498980e-004  -6.2286427085e-004
  5.5937500000e+008   4.4785169531e-004  -7.1737611189e-004   9.9730630454e-001  -5.7612796900e-003   1.0003765696e+000  -2.8652566826e-003  -9.1145270029e-004  -7.1381694969e-005
  5.6796250000e+008   2.7500488025e-004  -8.1823746887e-004   9.9896649340e-001  -6.9757345871e-003   1.0006076856e+000  -3.6768472604e-003  -9.9885294624e-004   4.0409942552e-004
  5.7655000000e+008  -2.2671579411e-004  -1.0156083902e-003   9.9850970154e-001  -8.1714732875e-003   1.0004730914e+000  -3.3411659134e-003  -8.0177279651e-004   8.6477318714e-004
  5.8513750000e+008  -5.0150680980e-004  -8.6022228879e-004   9.9793924518e-001  -7.0903642716e-003   9.9946370692e-001  -2.6552095936e-003  -7.8475308368e-004   8.1019890579e-004
  5.9372500000e+008  -6.2660806387e-004  -7.2998943572e-004   9.9771720376e-001  -5.6299162752e-003   1.0000304920e+000  -3.3801943577e-003  -6.2411058956e-004   1.1255449102e-003
  6.0231250000e+008  -1.2040837967e-003  -2.7402832489e-004   9.9775651266e-001  -4.6519945837e-003   9.9967896917e-001  -3.0476230220e-003  -4.4205699180e-004   1.1868706923e-003
  6.1090000000e+008  -7.8882864426e-004  -2.1951532353e-004   9.9808203775e-001  -7.1727675979e-003   1.0000153252e+000  -2.4167298365e-003  -5.1280482722e-004   1.0801117437e-003
  6.1948750000e+008  -7.7089347222e-004   8.8662311246e-005   9.9834376025e-001  -4.8551383386e-003   9.9967212470e-001  -2.9589702286e-003  -2.0088126068e-004   8.1098023628e-004
  6.2807500000e+008  -5.2941522228e-004   6.1613585405e-005   9.9957610267e-001  -6.5462845210e-003   1.0002945813e+000  -3.1678200842e-003   7.7438790057e-005   6.1301134700e-004
  6.3666250000e+008  -2.9528760379e-004   5.8856764052e-004   9.9979074039e-001  -5.1830138915e-003   1.0002716576e+000  -3.6138716368e-003   7.7100208177e-005   3.3185243151e-004
  6.4525000000e+008   6.3163660597e-005   3.7726772681e-004   9.9794311287e-001  -4.8765322572e-003   1.0002646050e+000  -3.2476885831e-003   4.1140988340e-004   1.8028759034e-004
  6.5383750000e+008   1.6748851708e-004   2.7877536569e-004   1.0013044538e+000  -6.2556433046e-003   9.9986198922e-001  -2.7990621390e-003   4.9067854320e-004  -1.6446299596e-004
  6.6242500000e+008   3.4401386918e-004   3.8245029293e-005   9.9658148430e-001  -5.2289816517e-003   1.0012196624e+000  -3.9716626900e-003   5.4481685299e-004  -3.3970041181e-004
  6.7101250000e+008   4.0796713991e-004  -8.3726969061e-005   9.9796833833e-001  -5.1530390502e-003   9.9968309905e-001  -2.2163317600e-003   3.6368419735e-004  -6.0981176049e-004
  6.7960000000e+008   5.7571240069e-004  -5.3581900494e-004   9.9808504324e-001  -7.4558181772e-003   1.0001075203e+000  -3.6205381640e-003   2.0154945839e-004  -1.0580247813e-003
  6.8818750000e+008   1.6970939486e-004  -8.2061909889e-004   9.9742672613e-001  -6.5107660606e-003   1.0000715201e+000  -3.6115491800e-003   1.4275331453e-004  -1.0919945637e-003
  6.9677500000e+008   3.7941676118e-005  -8.0472052973e-004   9.9835652892e-001  -6.1908892869e-003   1.0001514563e+000  -3.3635402173e-003  -2.0980137579e-004  -1.3126557357e-003
  7.0536250000e+008  -3.4880501231e-004  -8.0842095354e-004   9.9780001130e-001  -5.0458399419e-003   1.0000043554e+000  -2.9974294045e-003  -2.7983005535e-004  -1.3451243950e-003
  7.1395000000e+008  -7.2267263736e-004  -8.4930123435e-004   9.9763916069e-001  -6.5968906291e-003   1.0004879081e+000  -3.5261230604e-003  -5.3423256105e-004  -1.2546282788e-003
  7.2253750000e+008  -1.0711185001e-003  -6.4085801768e-004   9.9666767476e-001  -6.7992254340e-003   9.9954588886e-001  -3.5445486969e-003  -8.4460451809e-004  -1.3478898664e-003
  7.3112500000e+008  -1.0758065950e-003  -2.6367686351e-004   9.9802823117e-001  -6.1186678747e-003   9.9986627355e-001  -3.2189729383e-003  -8.9902935892e-004  -1.1076025570e-003
  7.3971250000e+008  -9.1485529807e-004   2.9150876890e-005   9.9743217845e-001  -6.5250902991e-003   9.9961897053e-001  -4.3612742242e-003  -1.2379099497e-003  -9.2365993216e-004
  7.4830000000e+008  -8.0502381749e-004   4.9041082233e-004   9.9815717987e-001  -5.2053404680e-003   9.9885979762e-001  -3.3307568846e-003  -1.0829534181e-003  -8.2845937295e-004
  7.5688750000e+008  -6.9753070304e-004   6.2272585849e-004   9.9680069552e-001  -7.5776849328e-003   9.9937777754e-001  -3.6765976885e-003  -1.1980176331e-003  -2.2338422397e-004
  7.6547500000e+008  -6.6971509732e-005   8.8771490024e-004   9.9758987323e-001  -6.6916606144e-003   9.9914933626e-001  -3.8403213906e-003  -1.1340447455e-003  -8.1610756218e-005
  7.7406250000e+008   1.9212161767e-004   6.7865269951e-004   9.9572366102e-001  -6.9069178015e-003   9.9977033709e-001  -3.5076189932e-003  -8.7651008926e-004   2.2939529979e-004
  7.8265000000e+008   4.0774427340e-004   4.4453941192e-004   9.9666031066e-001  -5.9271954093e-003   9.9979067981e-001  -3.3010504721e-003  -7.7755718448e-004   5.4859839467e-004
  7.9123750000e+008   5.3841237019e-004   1.4710216821e-004   9.9801080681e-001  -5.8645937190e-003   1.0002341673e+000  -3.0149728564e-003  -7.5727690646e-004   5.8880949682e-004
  7.9982500000e+008   4.1185806194e-004   2.3160766931e-004   9.9852088296e-001  -6.0610059709e-003   9.9973626220e-001  -1.7467359282e-003  -7.0082201727e-004   5.6821161676e-004
  8.0841250000e+008   8.6047566010e-004   1.8711721007e-004   9.9734712120e-001  -6.0657983238e-003   9.9954425704e-001  -3.2975844902e-003  -6.6017194052e-004   7.4719710945e-004
  8.1700000000e+008   9.3490971255e-004   3.8992866022e-005   9.9805441189e-001  -5.7594763242e-003   1.0000252403e+000  -3.0119600106e-003  -5.5050124533e-004   8.0906663274e-004
  8.2558750000e+008   1.0568658476e-003  -3.6040722793e-004   9.9950363545e-001  -6.0068594240e-003   1.0008549963e+000  -3.3411017900e-003  -7.1138112298e-004   1.2511587104e-003
  8.3417500000e+008   1.0941105581e-003  -6.8649358035e-004   9.9851501815e-001  -6.3296706117e-003   1.0007789008e+000  -3.1134812422e-003  -5.0482542263e-004   1.4543853710e-003
  8.4276250000e+008   7.5553399218e-004  -1.0984670133e-003   9.9774794903e-001  -5.9359513207e-003   9.9951072410e-001  -3.3023646694e-003  -2.3782126889e-004   1.5562272810e-003
  8.5135000000e+008   2.6082149005e-004  -1.3017021571e-003   9.9850558339e-001  -5.8641038259e-003   1.0009907991e+000  -3.5924217166e-003   2.2740929645e-004   1.7023501955e-003
  8.5993750000e+008  -9.1225288059e-005  -1.3188030940e-003   9.9890078319e-001  -5.1621126769e-003   9.9985577526e-001  -4.3330861566e-003   5.5798245688e-004   1.4752407909e-003
  8.6852500000e+008  -5.5518719644e-004  -1.0542201400e-003   9.9792133014e-001  -6.1524737696e-003   9.9945969119e-001  -3.4273435907e-003   8.0570782938e-004   1.2254985815e-003
  8.7711250000e+008  -4.8011032488e-004  -7.1220124151e-004   9.9840412540e-001  -7.2411020286e-003   9.9958446174e-001  -4.4077935698e-003   9.6993942416e-004   6.5451581839e-004
  8.8570000000e+008  -5.5242806884e-004  -3.0582299466e-004   9.9956942821e-001  -5.1671399681e-003   9.9933223760e-001  -4.5661323560e-003   1.0477230564e-003   2.2004496648e-004
  8.9428750000e+008  -3.3878340848e-004  -1.0212810339e-004   9.9805925370e-001  -7.0275402292e-003   1.0002001517e+000  -4.1479375966e-003   7.0953955759e-004  -1.8746258848e-004
  9.0287500000e+008   1.1180383038e-004  -8.4886227573e-005   9.9940069590e-001  -7.2804578201e-003   9.9985087396e-001  -4.5249495905e-003   5.1309296398e-004  -4.9871077916e-004
  9.1146250000e+008   2.2520905503e-004  -4.4713526490e-005   9.9831747685e-001  -7.6131532254e-003   9.9861467285e-001  -5.1997909982e-003   6.0999651492e-005  -6.1906016809e-004
  9.2005000000e+008   3.1536901322e-004  -2.8045380728e-004   9.9761940629e-001  -6.6999060800e-003   9.9975355907e-001  -3.1612192536e-003  -3.5708430790e-004  -9.0915845370e-004
  9.2863750000e+008   5.3599158877e-004  -5.3125847268e-004   9.9952379509e-001  -5.8056474153e-003   9.9964127814e-001  -3.7670934760e-003  -5.6613428529e-004  -9.6513501944e-004
  9.3722500000e+008   4.2690121713e-004  -7.0666274766e-004   9.9924483304e-001  -6.8682754816e-003   9.9900568069e-001  -4.0070360619e-003  -9.1735043343e-004  -9.8680120348e-004
  9.4581250000e+008   2.1282595234e-004  -1.0531059841e-003   9.9931578402e-001  -5.9146651118e-003   9.9920598655e-001  -3.6460347212e-003  -1.2255360948e-003  -8.1153217896e-004
  9.5440000000e+008  -6.3575230336e-005  -1.1608683696e-003   9.9709926720e-001  -6.4033371762e-003   9.9946270802e-001  -3.7331961890e-003  -1.4081560162e-003  -7.8432654194e-004
  9.6298750000e+008  -4.4701673492e-004  -1.2837271858e-003   1.0008839225e+000  -5.6402337253e-003   1.0004577401e+000  -4.0616026252e-003  -1.6856745967e-003  -4.9280274891e-004
  9.7157500000e+008  -6.3807122795e-004  -1.1673847632e-003   9.9916872909e-001  -5.5627266876e-003   1.0009753819e+000  -4.6996575739e-003  -1.7413806196e-003  -4.2606071795e-004
  9.8016250000e+008  -9.1938737246e-004  -9.3252195319e-004   9.9965468154e-001  -5.5412662679e-003   9.9918433249e-001  -5.1749460884e-003  -1.6876210550e-003  -3.9657431063e-005
  9.8875000000e+008  -1.1191366429e-003  -6.3281808076e-004   9.9681061072e-001  -5.8646418133e-003   9.9892532227e-001  -4.2883797038e-003  -1.4542539143e-003   2.3075791338e-004
  9.9733750000e+008  -1.1447125730e-003  -2.5148468256e-004   9.9792180095e-001  -6.7357296648e-003   9.9922790027e-001  -3.6125942925e-003  -1.4254808529e-003   1.6773644277e-004
  1.0059250000e+009  -9.2398121688e-004   1.2352568220e-004   9.9972264411e-001  -5.6891240698e-003   1.0008257766e+000  -4.2082388969e-003  -1.0828801502e-003   3.4981970477e-004
  1.0145125000e+009  -9.1530194135e-004   4.2779802970e-004   9.9881121455e-001  -8.4070386142e-003   9.9895442339e-001  -4.5510302864e-003  -6.3588405445e-004   5.0589095168e-004
  1.0231000000e+009  -5.9619946408e-004   4.6279388324e-004   9.9744330028e-001  -5.7408063209e-003   9.9932662063e-001  -4.2981731251e-003  -3.8074582916e-004   5.1426680770e-004
  1.0316875000e+009  -2.6006859105e-004   7.3526890075e-004   9.9864946584e-001  -7.2468803282e-003   9.9941061257e-001  -4.3272841999e-003  -2.0221846835e-004   4.2069425029e-004
  1.0402750000e+009   1.1106510114e-004   6.9582448429e-004   9.9749590185e-001  -7.3723983110e-003   9.9956307688e-001  -3.5565838535e-003   2.0146616804e-004   2.9189336262e-004
  1.0488625000e+009   3.7353277391e-004   4.6078603264e-004   9.9867334787e-001  -6.9842443810e-003   9.9949306451e-001  -4.2385715977e-003   7.1590797449e-004   1.4535425057e-004
  1.0574500000e+009   5.1473058862e-004   2.2349068311e-004   9.9818208761e-001  -6.7610742368e-003   9.9940241778e-001  -4.5603496339e-003   7.7968803138e-004  -2.3394136960e-004
