# Hz S RI R 50.000000
! Metas.Vna.Tools, 2.8.8664.20301
! Metas.Vna.Data, 2.8.8664.20285
! Created: UTC 2024.02.11 10:08:08
! FREQ                re:S1,1             im:S1,1             re:S2,1             im:S2,1             re:S1,2             im:S1,2             re:S2,2             im:S2,2          
  1.3000000000e+008  -4.9631192828e-004  -3.8976373910e-004   1.0025556514e+000  -1.3235724442e-003   1.0003894416e+000  -2.1619993809e-003   6.2502112600e-004   2.8902372946e-004
  1.3858750000e+008   7.8406905875e-005  -9.9144662679e-004   1.0039631938e+000  -2.8798675167e-004   1.0002496456e+000  -1.1684999716e-003   7.0710725377e-004   3.5997204908e-004
  1.4717500000e+008  -5.2850502852e-004  -1.4426443507e-004   1.0025524137e+000  -8.4214385304e-004   9.9961922607e-001  -1.1496534069e-003  -3.8866360102e-005   2.0006621581e-004
  1.5576250000e+008  -5.4492772899e-004   1.6023678496e-004   1.0034036848e+000  -5.8211089412e-004   9.9992637853e-001  -1.8613636030e-003   4.9624426201e-004  -1.4864812902e-003
  1.6435000000e+008  -4.9218129025e-005   4.7487378839e-004   1.0039902326e+000   8.5020540385e-005   1.0000428703e+000  -1.9583253689e-003   2.8141146799e-004   4.1415194152e-004
  1.7293750000e+008  -3.6488039167e-004   4.3104782576e-004   1.0038946185e+000  -2.8391981705e-004   9.9984139059e-001  -1.7753471911e-003   2.2064391144e-004  -4.2574187460e-004
  1.8152500000e+008  -5.4434419509e-005  -3.8224684955e-005   1.0034757759e+000   1.6278719403e-004   9.9938455128e-001  -2.2743623163e-003  -1.6208542158e-004  -3.7964168921e-004
  1.9011250000e+008   3.1340781196e-004   1.1298336410e-004   1.0040293180e+000  -1.5168603605e-003   1.0002826948e+000  -1.9386111387e-003   3.0482822169e-004  -8.7645516619e-004
  1.9870000000e+008  -4.1372541090e-004   6.5419048157e-004   1.0032857068e+000  -6.9143800855e-004   9.9983396756e-001  -1.5086728256e-003   2.0617685507e-005  -6.7763617839e-006
  2.0728750000e+008   2.2435730773e-004  -2.0622167767e-004   1.0026778249e+000  -3.8443676417e-004   1.0001345091e+000  -1.8435460701e-003   2.3506354798e-004  -2.1667960476e-004
  2.1587500000e+008  -2.3528010467e-004  -6.6295545580e-004   1.0031401844e+000  -3.7922075622e-004   9.9924840469e-001  -1.4445658256e-003  -5.3057916533e-004   1.7763806249e-004
  2.2446250000e+008  -1.0874037891e-004  -4.5083178830e-004   1.0027248981e+000  -1.6987382266e-003   1.0000451524e+000  -1.1676549765e-003  -2.1279711411e-006   7.1176014636e-005
  2.3305000000e+008  -2.1596983749e-004  -2.1686830042e-004   1.0020974874e+000  -1.3183089877e-003   1.0002830561e+000  -2.1695416986e-003  -2.5637189510e-004   2.7463716750e-004
  2.4163750000e+008  -5.1496314984e-004  -4.8672140205e-004   1.0029021790e+000  -2.1233222507e-003   9.9926827694e-001  -2.7088696187e-003  -3.2146531203e-004  -2.1262656290e-004
  2.5022500000e+008  -4.7299509027e-004  -4.1362546173e-004   1.0026994227e+000  -1.4974458107e-004   1.0004181602e+000  -2.2317617114e-003  -6.9801714473e-004   5.7536111160e-004
  2.5881250000e+008  -3.9184573627e-004  -2.5900008048e-004   1.0013359945e+000  -3.2955962452e-004   9.9871988761e-001  -2.6132620798e-003  -2.5797765521e-004   6.8873369343e-004
  2.6740000000e+008  -4.5542133426e-004  -1.5731992393e-004   1.0024733772e+000  -1.8473420031e-003   9.9989312327e-001  -2.9902254072e-003   3.2247726787e-005   2.1391732566e-004
  2.7598750000e+008  -8.1117941386e-005  -2.4395802340e-004   1.0016163145e+000  -1.4730844232e-003   9.9982345533e-001  -1.7561362168e-003  -3.1894889179e-004   1.3152109759e-004
  2.8457500000e+008  -2.7250962246e-004  -1.0313204907e-004   1.0015318462e+000  -1.0410541494e-003   1.0003011494e+000  -1.8690048754e-003   2.0817952520e-004   3.8091140396e-004
  2.9316250000e+008  -1.8716337437e-004  -1.2019930005e-004   1.0017113424e+000  -6.1754555335e-004   1.0004385696e+000  -2.2586235356e-003   3.3206350918e-004   6.1080798556e-004
  3.0175000000e+008  -3.6433731320e-004   3.2509548710e-004   1.0029547658e+000  -2.8342660532e-003   9.9897800075e-001  -2.0334973869e-003  -1.1730615451e-004   1.6496308564e-004
  3.1033750000e+008  -2.6500606817e-004   1.6529385120e-004   1.0029001988e+000  -1.8965870825e-004   1.0005570048e+000  -2.4256253293e-003  -2.1619054947e-004   2.1679855677e-004
  3.1892500000e+008  -3.8366794147e-004   3.9899641459e-005   1.0018182794e+000  -6.8867512403e-004   9.9980478844e-001  -1.4087119191e-003  -3.8756906897e-004   3.3038909449e-004
  3.2751250000e+008  -1.4988044684e-004   2.5861477058e-004   1.0027184388e+000  -2.4780868362e-003   1.0002387314e+000  -2.3383569947e-003  -6.0773632429e-005   7.3533029219e-005
  3.3610000000e+008  -3.5819765616e-004  -7.0495275287e-005   1.0033616730e+000  -1.3079997394e-003   1.0002637708e+000  -2.7145830068e-003   7.1051285192e-005   6.6317242785e-005
  3.4468750000e+008  -4.3883067377e-004   1.0742416468e-004   1.0027357898e+000  -1.2867427801e-003   9.9976943176e-001  -2.2770857361e-003   6.3934189575e-005   1.9435093367e-004
  3.5327500000e+008  -3.8197299295e-004   2.7608172887e-004   1.0021598027e+000  -1.6965305593e-003   9.9916974522e-001  -2.7518134388e-003  -3.7399251596e-004   2.3454560589e-005
  3.6186250000e+008  -9.1256241322e-005   1.4655355111e-004   1.0036962191e+000  -1.8442827923e-003   9.9995100245e-001  -1.5493602238e-003  -4.8278924762e-004   1.2344605816e-004
  3.7045000000e+008  -4.9869988655e-004   1.2427158995e-004   1.0023736429e+000  -1.9995625084e-003   1.0000223828e+000  -3.0346795192e-003  -1.7664933400e-004   7.1278300479e-005
  3.7903750000e+008  -5.9051465755e-005   4.3507573438e-004   1.0029024419e+000  -3.9620465895e-004   9.9928692987e-001  -2.5902938238e-003  -2.5972485043e-004   8.4459134144e-005
  3.8762500000e+008  -3.9924089641e-004   2.0035358060e-004   1.0053537203e+000  -4.2150406127e-004   9.9937186797e-001  -2.2257928198e-003  -2.8802764625e-004   3.4047972802e-004
  3.9621250000e+008  -3.1077913358e-005   1.1490201304e-004   1.0037046439e+000  -7.7453891606e-004   9.9993133882e-001  -2.2143584012e-003  -2.2728885245e-004   5.1367438547e-004
  4.0480000000e+008   1.5159473700e-005   2.6198769900e-004   1.0041173024e+000  -8.7773084414e-004   9.9977462050e-001  -2.7256097113e-003   5.8051378661e-005   3.4330465222e-004
  4.1338750000e+008   2.0826960202e-004   1.7478366951e-004   1.0044259177e+000  -2.9664792990e-004   1.0002274437e+000  -2.3714110067e-003   1.8676850881e-004   3.1509620456e-004
  4.2197500000e+008  -1.3236036660e-004  -1.2406047746e-004   1.0043304561e+000  -1.7063267355e-003   9.9986532853e-001  -2.3509610272e-003   1.5626621640e-004   5.1637526187e-004
  4.3056250000e+008  -1.9709964794e-006   2.4875340503e-004   1.0039710186e+000  -1.2152276684e-003   1.0002163978e+000  -2.4593307444e-003   3.6984589120e-004   2.0141264942e-004
  4.3915000000e+008  -7.1739583478e-005  -5.5982009791e-005   1.0069670124e+000  -1.2299986996e-004   9.9955428525e-001  -2.8296473537e-003   1.9668846739e-004   1.0564071566e-004
  4.4773750000e+008   2.2249836906e-004   8.7827793853e-005   1.0047371958e+000  -4.1756014241e-004   9.9980814167e-001  -2.7995979244e-003   3.5332432423e-004   3.2027969878e-004
  4.5632500000e+008  -7.4615565188e-005   7.7361669834e-006   1.0033441729e+000  -8.2313566978e-004   9.9972095814e-001  -2.5816958292e-003   4.1261515611e-004   3.8923341409e-004
  4.6491250000e+008  -1.6262706208e-004   4.2560226599e-005   1.0033030483e+000  -1.6926315830e-003   9.9956674120e-001  -2.8218543289e-003   3.3928014541e-004   3.1633601921e-004
  4.7350000000e+008  -3.4263397890e-004  -1.9625926528e-004   1.0015292703e+000  -2.1091523363e-003   9.9970301303e-001  -2.5026956777e-003   2.7230896189e-004  -1.1902345321e-005
  4.8208750000e+008  -2.7817069532e-005  -7.6036714056e-005   1.0000834482e+000  -2.4479441853e-003   9.9940740701e-001  -2.2181863442e-003   4.2074403461e-004   2.2436340457e-004
  4.9067500000e+008   2.0319260497e-004  -3.9781479123e-004   9.9887897686e-001  -3.1908206775e-003   9.9954653223e-001  -2.4262316344e-003   1.3870468511e-004  -2.9999509394e-005
  4.9926250000e+008  -6.3746199571e-005  -4.7324267577e-004   9.9909060352e-001  -2.1656120189e-003   9.9933297311e-001  -2.7238075482e-003   3.6253839276e-004  -2.4781346309e-005
  5.0785000000e+008  -5.7988534248e-004  -5.5288723297e-004   1.0003255768e+000  -1.5605258531e-003   9.9968276180e-001  -1.9860659963e-003   4.5529195988e-004   4.3449313214e-004
  5.1643750000e+008  -4.2692430737e-004   1.7859567030e-005   9.9977224603e-001  -2.0969936171e-003   1.0001484744e+000  -2.5691457383e-003   6.9765143545e-004   2.3899009091e-004
  5.2502500000e+008  -4.6011713874e-004   3.3348694226e-004   1.0010396562e+000  -5.2381779198e-004   9.9980524363e-001  -1.9261730903e-003   2.3594389689e-004  -1.9261436282e-004
  5.3361250000e+008   4.3753394303e-005   2.8172426439e-004   1.0010333565e+000  -2.6994730338e-003   1.0002220222e+000  -2.2074372452e-003   4.0006961112e-005  -5.2363243654e-004
  5.4220000000e+008   3.2868677561e-004   1.4847674891e-004   1.0003663332e+000  -1.8647537176e-003   1.0001932353e+000  -2.4208602328e-003  -3.6766619674e-004  -3.7256785540e-004
  5.5078750000e+008   3.7436212601e-004  -2.9853597299e-004   1.0008569726e+000  -3.0091314575e-003   9.9948619341e-001  -2.6617555107e-003  -4.7008133058e-004  -4.0607316532e-004
  5.5937500000e+008   2.2990688908e-004  -2.6268077079e-004   1.0009406706e+000  -9.9150013105e-004   1.0002153745e+000  -2.4206196862e-003  -5.5500807036e-004  -2.3572533641e-004
  5.6796250000e+008   4.1363732117e-004  -5.3441645067e-004   1.0008979276e+000  -2.6382865979e-003   9.9996745649e-001  -2.2041225702e-003  -5.9023091300e-004   1.6799116599e-004
  5.7655000000e+008  -3.0580201275e-004  -4.9205481590e-004   1.0015475571e+000  -4.6249342663e-003   9.9987332857e-001  -2.8877885689e-003  -3.7027167180e-004   3.1737765543e-004
  5.8513750000e+008  -2.2467994130e-004  -2.4794645303e-004   1.0006781115e+000  -2.1443112763e-003   9.9949713570e-001  -2.6609491069e-003  -5.0636924712e-004   4.2652311806e-004
  5.9372500000e+008  -4.0161845235e-004  -2.6271295250e-004   1.0003394488e+000  -1.1739980652e-003   9.9984401436e-001  -2.7471888299e-003  -3.8581532433e-004   4.6308912274e-004
  6.0231250000e+008  -8.4082415818e-004  -6.1370281968e-005   9.9955000454e-001  -2.2415398033e-003   9.9944117317e-001  -3.1823263059e-003  -6.6987611025e-005   5.8751645556e-004
  6.1090000000e+008  -4.1553011219e-004  -3.5871419312e-005   9.9975414096e-001  -4.1286050959e-003   9.9988163101e-001  -1.7741456101e-003  -4.4676145270e-004   6.0425993431e-004
  6.1948750000e+008  -5.1755247570e-004  -4.5874910355e-005   9.9833413143e-001  -2.3297932553e-003   9.9945100795e-001  -2.8415836018e-003  -2.3482982183e-004   4.3669776041e-004
  6.2807500000e+008  -4.8336762065e-004  -1.0855532542e-005   9.9987247526e-001  -4.1400065291e-003   1.0000846956e+000  -2.5745860713e-003  -4.0906112388e-005   3.5937948777e-004
  6.3666250000e+008  -2.5971779066e-004   2.9622299000e-004   1.0014811712e+000  -2.0852290890e-003   9.9954732044e-001  -3.3673136622e-003   1.5320006629e-004   3.3468965589e-004
  6.4525000000e+008   7.2597046211e-006   2.3105954377e-004   1.0013077059e+000  -1.7632589980e-003   9.9953695306e-001  -2.9633678957e-003   2.2636741313e-004   6.9376594954e-005
  6.5383750000e+008   3.5630341531e-005   2.4430294070e-004   1.0023938685e+000  -1.5559672988e-003   9.9915053489e-001  -2.5239145845e-003   3.1909721038e-004  -9.2597038435e-005
  6.6242500000e+008   1.1377424630e-004   9.9749126201e-005   9.9956576596e-001  -2.2005560290e-003   1.0002871826e+000  -3.6293713888e-003   3.6250890966e-004  -1.8002035945e-004
  6.7101250000e+008   7.2846422307e-005   5.4945603374e-006   1.0003512015e+000  -2.1122472226e-003   9.9966347159e-001  -2.8315474206e-003   2.1088176743e-004  -3.3191741057e-004
  6.7960000000e+008   3.3959724912e-004  -1.8424582533e-004   9.9994891743e-001  -3.0824623254e-003   9.9966535861e-001  -2.9047069303e-003   2.1194035227e-004  -5.2378367552e-004
  6.8818750000e+008  -3.6126436109e-005  -4.0493892576e-004   9.9868649878e-001  -2.9582654033e-003   9.9968914417e-001  -2.8856258418e-003   1.2186859408e-004  -5.2329815917e-004
  6.9677500000e+008   7.9577837703e-005  -4.7294658507e-004   9.9895218704e-001  -6.9481817377e-004   9.9988837484e-001  -3.0685246217e-003  -6.3805267130e-005  -4.6727911325e-004
  7.0536250000e+008  -1.9512745209e-004  -4.9427180740e-004   9.9995011553e-001  -3.3294003000e-003   9.9965753258e-001  -3.0763784375e-003  -1.1283058620e-004  -6.7597829229e-004
  7.1395000000e+008  -4.1262701606e-004  -4.4826396406e-004   9.9869937773e-001  -2.6101124775e-003   9.9948858743e-001  -2.7451695423e-003  -3.6702073958e-004  -5.3624558395e-004
  7.2253750000e+008  -8.3903607521e-004  -2.4743048446e-004   9.9889303618e-001  -2.4286454417e-003   9.9932193486e-001  -2.8012483901e-003  -4.3232932614e-004  -5.7586852757e-004
  7.3112500000e+008  -6.5981347248e-004  -7.1495402152e-005   9.9924707233e-001  -1.9220735183e-003   1.0004187481e+000  -3.1901351767e-003  -5.2506693960e-004  -3.9821556099e-004
  7.3971250000e+008  -5.4482942471e-004   1.0172012351e-004   9.9942096311e-001  -4.4549129086e-003   9.9960116860e-001  -3.2361862460e-003  -7.0355803833e-004  -3.0023541785e-004
  7.4830000000e+008  -4.1595343224e-004   4.1983910590e-004   9.9995453252e-001  -1.1920638705e-003   9.9965991249e-001  -3.3849884442e-003  -4.6313735537e-004  -2.3056964996e-004
  7.5688750000e+008  -5.0468058380e-004   5.2615001051e-004   9.9878275146e-001  -3.4885139351e-003   9.9889214878e-001  -3.6898058982e-003  -6.8639260242e-004  -2.1753518454e-005
  7.6547500000e+008  -5.6373306247e-005   5.9973765128e-004   1.0000570251e+000  -2.8538176909e-003   9.9861560640e-001  -3.4919224143e-003  -6.7560068011e-004   5.7177292903e-005
  7.7406250000e+008   8.1161547373e-005   4.7750753237e-004   9.9775393539e-001  -3.5440193714e-003   9.9929558656e-001  -3.5049843311e-003  -3.2778664824e-004   2.9664737181e-004
  7.8265000000e+008   1.7452231898e-004   2.2394685235e-004   9.9784575358e-001  -2.9104620429e-003   9.9920009006e-001  -2.8070246351e-003  -3.9987732496e-004   4.8072226699e-004
  7.9123750000e+008   2.8234073998e-004   6.4041450180e-005   9.9963946285e-001  -2.5515210367e-003   9.9907349897e-001  -2.9928104849e-003  -4.3150843584e-004   3.6946956173e-004
  7.9982500000e+008   1.2248020385e-004   1.2051981510e-004   1.0000794178e+000  -1.7562924786e-003   1.0000969675e+000  -2.1122038814e-003  -2.2598692893e-004   3.5385397072e-004
  8.0841250000e+008   3.4834385250e-004   2.0359560313e-004   9.9738875988e-001  -3.9599032257e-003   9.9961186989e-001  -2.9616991343e-003  -1.2657860798e-004   4.1617384929e-004
  8.1700000000e+008   6.4137972553e-004   1.9418806851e-004   1.0003791249e+000  -2.7414697612e-003   1.0004315857e+000  -2.9664936304e-003  -2.4155784067e-004   5.9571352187e-004
  8.2558750000e+008   6.7903266974e-004   1.9184130776e-005   1.0014750150e+000  -1.9247276642e-003   1.0006599209e+000  -3.4008564878e-003  -5.1602981878e-004   6.2907926884e-004
  8.3417500000e+008   8.1382278182e-004  -4.6381861563e-004   1.0003471840e+000  -3.1569348865e-003   1.0003417073e+000  -2.8980834840e-003  -2.8948773287e-004   7.6569315780e-004
  8.4276250000e+008   6.0479254547e-004  -4.6917020599e-004   1.0004526503e+000  -1.4520074329e-003   9.9991511147e-001  -3.8638292077e-003  -1.2888674579e-004   7.8166618553e-004
  8.5135000000e+008   2.7093062195e-004  -7.3676517723e-004   1.0004838742e+000  -1.4923917272e-003   1.0005952376e+000  -2.6791861414e-003  -5.8484172551e-005   9.5399034865e-004
  8.5993750000e+008  -1.3967227829e-004  -8.8725620030e-004   1.0000587907e+000  -2.1591958820e-003   1.0000586992e+000  -3.7970082295e-003   9.5615308215e-005   7.7947334389e-004
  8.6852500000e+008  -2.5093473484e-004  -6.5916746862e-004   1.0001323114e+000  -2.0925886187e-003   9.9988159435e-001  -3.4955940753e-003   3.4184002606e-004   6.6767546373e-004
  8.7711250000e+008  -3.6669829719e-004  -5.0512603706e-004   1.0000858654e+000  -3.1891088746e-003   1.0000575451e+000  -3.7696490210e-003   5.2767036446e-004   2.7029920309e-004
  8.8570000000e+008  -3.1352773359e-004  -3.4178970816e-004   1.0023747759e+000  -1.1142369936e-003   9.9956444873e-001  -4.7563999369e-003   5.4572093607e-004   1.3710204517e-004
  8.9428750000e+008  -4.2631114930e-004  -1.5031739858e-004   9.9879427017e-001  -3.3130125085e-003   9.9969452559e-001  -4.0984101928e-003   3.5604816368e-004  -3.1541901909e-004
  9.0287500000e+008  -1.6306465189e-004  -7.1004814029e-005   1.0003091161e+000  -3.1776796129e-003   9.9916407586e-001  -4.6073621485e-003   2.3961843980e-004  -2.8015063385e-004
  9.1146250000e+008   3.7229692885e-005  -2.7720730055e-005   9.9933712544e-001  -4.4089584860e-003   9.9811688908e-001  -4.5312904069e-003  -2.3334002022e-004  -3.2653919974e-004
  9.2005000000e+008  -7.5297024681e-005  -1.7412143620e-004   9.9855365624e-001  -2.9389881084e-003   9.9879038585e-001  -3.0295661004e-003  -4.0527995423e-004  -3.0491677966e-004
  9.2863750000e+008   2.3060863593e-004  -2.8903561396e-004   9.9999916351e-001  -9.0220551290e-004   9.9971544513e-001  -3.6163408457e-003  -2.4168082086e-004  -4.3088119868e-004
  9.3722500000e+008   6.0539539985e-005  -4.0771627772e-004   9.9858864227e-001  -2.1833193380e-003   9.9798804344e-001  -3.7633225001e-003  -5.0062473126e-004  -4.8360380656e-004
  9.4581250000e+008   7.5421494732e-005  -5.6342959264e-004   9.9882817459e-001  -2.6792799639e-003   9.9943593599e-001  -3.6776364659e-003  -7.5814692077e-004  -3.1655745033e-004
  9.5440000000e+008  -5.1541714019e-006  -6.7524932299e-004   9.9892593124e-001  -2.4037077374e-003   1.0003180789e+000  -3.1422949024e-003  -7.5687878550e-004  -1.9593472232e-004
  9.6298750000e+008  -3.5393635169e-004  -7.4791379952e-004   1.0007045365e+000  -9.0295738543e-004   1.0002676706e+000  -4.0714313915e-003  -8.6385358966e-004  -5.0902847482e-005
  9.7157500000e+008  -4.3703394735e-004  -6.5832623886e-004   1.0014723361e+000  -3.0012750681e-003   1.0008324450e+000  -3.6390896760e-003  -9.1180419271e-004  -1.1118263909e-004
  9.8016250000e+008  -8.0046460367e-004  -4.7919871040e-004   1.0019675150e+000  -2.8394024069e-003   9.9944312574e-001  -3.9543143667e-003  -9.3194088155e-004   2.9347103295e-005
  9.8875000000e+008  -8.3140004540e-004  -2.1997334930e-004   9.9942971124e-001  -2.7452162817e-003   9.9872632993e-001  -2.8753241848e-003  -7.7993137820e-004   2.2980124746e-004
  9.9733750000e+008  -7.4808562934e-004  -6.4642307873e-005   9.9905639182e-001  -3.5424980405e-003   9.9941350085e-001  -2.5708760172e-003  -8.1715145434e-004   1.4040009833e-004
  1.0059250000e+009  -6.1351840748e-004   2.9397417410e-004   1.0000640968e+000  -2.7532016578e-003   1.0002512708e+000  -3.6642244210e-003  -4.9067513162e-004   2.8357800986e-004
  1.0145125000e+009  -6.3040494255e-004   4.5023848743e-004   1.0009665958e+000  -4.7847977775e-003   9.9912646682e-001  -2.3912624167e-003  -1.9370516625e-004   2.9320838237e-004
  1.0231000000e+009  -3.9351902992e-004   4.8195480921e-004   1.0009370472e+000  -1.9130486331e-003   9.9923189328e-001  -3.8487881972e-003  -6.0071815936e-005   2.9735850808e-004
  1.0316875000e+009  -2.5816177372e-004   6.6805078802e-004   1.0011026966e+000  -3.9187773316e-003   9.9937806850e-001  -3.9192723503e-003  -1.4139521238e-005   3.0847259982e-004
  1.0402750000e+009   1.1074731239e-004   6.0774735504e-004   1.0006796644e+000  -2.8748726056e-003   9.9950025060e-001  -3.0127051302e-003   3.1589917474e-004   2.4993597221e-004
  1.0488625000e+009   1.7108311626e-004   6.2809882118e-004   1.0020190254e+000  -2.2820867348e-003   9.9883352835e-001  -3.5281997954e-003   5.5996246784e-004   1.2399541319e-004
  1.0574500000e+009   2.0032071665e-004   3.3240188108e-004   1.0020171161e+000  -2.1789719524e-003   9.9941258962e-001  -3.7642514203e-003   7.1758161393e-004  -1.5497422831e-005
