# Hz S RI R 50.000000
! Metas.Vna.Tools, 2.8.8664.20301
! Metas.Vna.Data, 2.8.8664.20285
! Created: UTC 2024.02.11 10:08:07
! FREQ                re:S1,1             im:S1,1             re:S2,1             im:S2,1             re:S1,2             im:S1,2             re:S2,2             im:S2,2          
  1.3000000000e+008  -2.6989741257e-005  -4.9225724365e-004   9.9526356240e-001  -2.9968258336e-003   9.9993285997e-001  -1.4368392394e-003   4.0777546454e-004   4.8423310891e-004
  1.3858750000e+008   9.3226813265e-005  -5.5779664696e-005   9.9595193043e-001  -1.9674634589e-003   9.9989084794e-001  -1.1974930631e-003   6.6642009473e-004   7.7268791330e-005
  1.4717500000e+008  -4.7932528537e-004  -4.0085795213e-004   9.9320202699e-001  -3.4440654326e-003   9.9967051440e-001  -1.0309472844e-003  -5.4007298792e-004   5.7610778835e-004
  1.5576250000e+008  -5.5056692859e-005   4.9247982875e-004   9.9544515909e-001  -1.3425450793e-003   1.0000414767e+000  -8.4891709139e-004   3.9658685919e-004  -5.8905537123e-004
  1.6435000000e+008   4.4574463050e-004   2.7105686367e-004   9.9766585667e-001  -2.9578827614e-004   9.9957927038e-001  -1.2724215469e-003  -6.8512189379e-005   1.7840338822e-005
  1.7293750000e+008   2.0641044430e-004   4.6519678945e-004   9.9643623316e-001  -1.3593217902e-003   9.9955288076e-001  -8.3041427447e-004   1.5809646522e-004  -4.7050875481e-004
  1.8152500000e+008   1.0906647510e-004  -7.7259070978e-005   9.9607648288e-001  -1.6894710592e-003   9.9958175020e-001  -1.3484488135e-003   9.9779031169e-005  -1.2759317597e-004
  1.9011250000e+008  -2.1054426077e-004  -4.7085967184e-004   9.9741765251e-001  -2.5246987790e-003   1.0001239997e+000  -9.3840239271e-004  -1.6419510580e-004  -4.9587073680e-004
  1.9870000000e+008   5.0622483669e-005   1.8781050607e-004   9.9567424286e-001  -1.6548452201e-003   9.9975756755e-001  -9.9306620393e-004  -2.1946629425e-005  -4.2523170293e-004
  2.0728750000e+008   2.8505736121e-004   4.4201785387e-005   9.9467661286e-001  -1.7665375840e-003   1.0001697973e+000  -1.2522627517e-003   1.4950324939e-004  -1.5210262268e-004
  2.1587500000e+008   2.1884982803e-005  -6.5582236644e-004   9.9581477771e-001  -2.1913871315e-003   9.9884714097e-001  -2.9793432754e-004  -4.4161190580e-004   8.5326867896e-005
  2.2446250000e+008  -2.3403655452e-004  -6.1303637681e-004   9.9662844833e-001  -1.6885456023e-003   9.9954008185e-001  -1.0264141312e-003  -2.1979199482e-004   1.0566773891e-004
  2.3305000000e+008  -1.2776885066e-004  -3.7246491241e-005   9.9689136413e-001  -1.6334532274e-003   9.9996569762e-001  -1.3964238240e-003  -1.0893238482e-004  -1.3653528076e-004
  2.4163750000e+008   2.0862266750e-005  -1.0954964850e-004   9.9701326766e-001  -2.6896766129e-003   9.9973184671e-001  -1.9089678988e-003  -2.9355723687e-004   3.9400423865e-005
  2.5022500000e+008  -5.7178600249e-004  -2.7757251136e-004   9.9693715079e-001  -7.8920046150e-004   9.9916844515e-001  -1.5900058242e-003  -2.5452448576e-004   2.6237215416e-004
  2.5881250000e+008  -5.3937363166e-004  -1.5946089884e-004   9.9460379203e-001  -2.3236748007e-003   9.9994924967e-001  -1.6541015335e-003   2.0419961570e-005   1.5332908730e-004
  2.6740000000e+008  -1.0191212948e-003   1.2862155463e-004   9.9605489563e-001  -3.4227875646e-003   9.9962350541e-001  -2.2875286087e-003  -1.0551826841e-005  -3.0438238183e-004
  2.7598750000e+008   2.4292585726e-004   2.7684219530e-004   9.9567040848e-001  -2.9090594091e-003   9.9948921471e-001  -8.9587007990e-004  -1.2542533689e-005   1.5701159740e-004
  2.8457500000e+008  -1.6372148459e-004  -3.6750604987e-004   9.9587762663e-001  -1.2966894497e-003   9.9982148884e-001  -1.5910968760e-003  -2.9082908098e-005   1.9320285450e-004
  2.9316250000e+008  -2.4098799227e-004  -1.1248920773e-004   9.9596779646e-001  -2.3876785405e-003   1.0000475136e+000  -1.9126282612e-003   6.0071045639e-004  -2.3025138112e-005
  3.0175000000e+008  -2.2529190487e-004   5.2511139741e-004   9.9287388530e-001  -4.0643404837e-003   1.0000502846e+000  -8.8199553928e-004   4.2594709626e-005  -2.4548491111e-004
  3.1033750000e+008  -1.4168684947e-004   3.2534839466e-004   9.9562026727e-001  -1.6471309918e-003   1.0002997222e+000  -2.2753164715e-003  -2.5260311524e-004   3.1043590652e-004
  3.1892500000e+008  -2.3252493049e-004   1.7718613761e-004   9.9528291146e-001  -2.7007712948e-003   9.9980331484e-001  -1.3991634200e-003  -1.4021660562e-005  -7.1250812276e-005
  3.2751250000e+008  -9.5956538545e-005  -2.4477641208e-004   9.9628421629e-001  -2.1075210776e-003   1.0002374475e+000  -2.6662250704e-003  -5.6424984691e-005   3.5631369594e-004
  3.3610000000e+008  -4.1426745328e-004  -1.7704408454e-004   9.9650373752e-001  -2.0016861227e-003   1.0005031912e+000  -1.7588479387e-003  -1.3051110746e-004  -7.8726975888e-005
  3.4468750000e+008  -2.1525493746e-004  -1.4672481347e-004   9.9326368849e-001  -2.2632022776e-003   9.9996565860e-001  -1.2267617696e-003   5.3610790843e-006   7.2923097898e-007
  3.5327500000e+008  -2.8519426333e-004  -1.5715571874e-004   9.9321710183e-001  -3.8327294600e-003   9.9879667345e-001  -1.8918110049e-003  -1.4293877748e-004  -1.3224802036e-004
  3.6186250000e+008  -1.8876020701e-004   1.0141067557e-004   9.9270147397e-001  -3.3915289932e-003   9.9991622339e-001  -7.7190420757e-004  -9.9952688338e-005   4.3708918556e-005
  3.7045000000e+008  -4.5295722420e-004   8.3743535468e-005   9.9274396958e-001  -4.0099841497e-003   1.0000182585e+000  -1.5295775883e-003  -2.4769072026e-004   1.9279280780e-005
  3.7903750000e+008  -3.2718909447e-004   1.2601251504e-004   9.9377356569e-001  -1.8599244601e-003   9.9987332150e-001  -1.1452853503e-003  -1.8382100154e-004   6.3717206942e-005
  3.8762500000e+008  -2.6145151208e-004   1.4662044230e-004   9.9732578003e-001  -2.1873150518e-003   9.9995595998e-001  -1.1083764776e-003  -1.2189759642e-004   1.3613978799e-004
  3.9621250000e+008  -1.9768311170e-004   3.9235369470e-006   9.9545213090e-001  -2.9167714000e-003   1.0004451950e+000  -1.9403624627e-003  -3.6677507046e-004   1.4301215355e-004
  4.0480000000e+008  -5.5232163460e-006   1.2855052052e-004   9.9598608216e-001  -2.3369276265e-003   9.9990187818e-001  -1.5183145430e-003   4.4645370490e-007   1.8507327674e-005
  4.1338750000e+008  -7.4687809776e-005   9.8047262297e-005   9.9524767776e-001  -1.7720436166e-003   1.0006474593e+000  -1.5276827513e-003   7.4868731943e-005   3.3039108684e-004
  4.2197500000e+008  -7.0770068475e-005  -3.3536014160e-005   9.9460555212e-001  -2.7611550735e-003   1.0003852744e+000  -1.8830424803e-003   8.3989616807e-005   2.5764778483e-004
  4.3056250000e+008   1.4040680378e-004   2.1154409194e-004   9.9488432807e-001  -2.3510608727e-003   9.9990542452e-001  -1.8046511297e-003   1.5888479558e-004   1.4413760445e-004
  4.3915000000e+008   1.1778819549e-004  -1.1415342949e-004   9.9562917700e-001  -2.0953796336e-003   1.0001586888e+000  -2.2181343913e-003   1.3656454691e-004   1.7863680321e-004
  4.4773750000e+008   8.5391086772e-005  -2.3332433165e-004   9.9406992200e-001  -3.0774941016e-003   9.9965290037e-001  -2.0816683517e-003   1.8596274895e-004   1.1149772379e-004
  4.5632500000e+008  -2.1534455868e-004  -9.8993905526e-005   9.9634485831e-001  -9.6423285976e-004   9.9984619175e-001  -2.0683812140e-003   2.9483813997e-004   2.6990674796e-004
  4.6491250000e+008  -1.6525862037e-004  -1.4044994272e-004   9.9740925074e-001  -2.4564663025e-003   1.0000140260e+000  -1.8843128871e-003   1.4003726994e-004   8.9474877912e-005
  4.7350000000e+008  -1.3923284778e-004  -1.3743987028e-004   9.9781040416e-001  -1.6802941729e-003   1.0000253519e+000  -1.9935759722e-003   1.5225426911e-004   1.9271741462e-007
  4.8208750000e+008  -7.6158319464e-005   1.5890443173e-004   9.9678871139e-001  -2.0741292504e-003   9.9934057952e-001  -1.7118603819e-003   2.1795436274e-004   2.2214676010e-004
  4.9067500000e+008   1.9131683028e-004  -2.9611405182e-004   9.9472314388e-001  -2.0900743466e-003   1.0000641437e+000  -2.2541183594e-003   2.3072657516e-004   8.9361003883e-005
  4.9926250000e+008  -8.0012701280e-005  -2.2410561917e-004   9.9472192834e-001  -2.3344075880e-003   9.9969131379e-001  -1.9147048368e-003   2.7953329953e-004   1.0895986775e-004
  5.0785000000e+008  -4.0352979102e-004  -2.6972937172e-004   9.9400871499e-001  -2.7339699739e-003   9.9973741904e-001  -1.4777415680e-003  -3.5368503520e-005   2.9151560986e-004
  5.1643750000e+008  -3.6326381716e-004  -1.8046959907e-004   9.9424774035e-001  -2.0169049164e-003   9.9979416793e-001  -1.9276953947e-003   4.2611296897e-004   2.0385558436e-004
  5.2502500000e+008  -3.8170577851e-004   3.1023894444e-004   9.9395853139e-001  -2.6117620020e-003   1.0004813988e+000  -1.2702476282e-003   1.1798960823e-004   4.7603131793e-005
  5.3361250000e+008  -5.6727243091e-005   2.6378703253e-004   9.9368347286e-001  -3.0499852515e-003   1.0002440791e+000  -1.6844611873e-003   2.8800725705e-004  -1.6493648008e-004
  5.4220000000e+008   2.4264384651e-004   1.0883380023e-004   9.9335249051e-001  -3.8330741740e-003   1.0002178237e+000  -1.9444873465e-003  -8.4763239686e-005  -9.9353662753e-005
  5.5078750000e+008   2.9050535398e-004  -3.1019365339e-004   9.9466247738e-001  -4.0966414804e-003   9.9967875525e-001  -1.8589965664e-003  -1.5655948305e-004  -3.4758617512e-004
  5.5937500000e+008   4.9822920815e-005   7.8459121424e-005   9.9571504800e-001  -2.8226130904e-003   9.9951062412e-001  -1.9106296213e-003  -1.1952113498e-004  -1.9128411244e-004
  5.6796250000e+008   2.0993223498e-004   6.4147504054e-005   9.9754203782e-001  -2.2677979392e-003   1.0001721496e+000  -1.6167060304e-003  -3.0463936578e-004  -4.6892421649e-005
  5.7655000000e+008  -1.2537425050e-004  -3.5760713012e-004   9.9685508663e-001  -4.1057660692e-003   1.0001127874e+000  -2.6815590859e-003  -2.4284535070e-004   2.7378403212e-004
  5.8513750000e+008  -2.0743646844e-004  -3.1040542456e-004   9.9634751030e-001  -3.2747472927e-003   9.9941179994e-001  -1.8369258257e-003  -1.7923918566e-004   1.3277276538e-004
  5.9372500000e+008  -1.9075641554e-004  -3.2214751854e-004   9.9651743913e-001  -1.6008374940e-003   9.9983612523e-001  -2.1657182074e-003  -2.5487231150e-004   2.4295732280e-004
  6.0231250000e+008  -4.1895863942e-004  -3.9862402189e-005   9.9686904373e-001  -2.2483885321e-003   9.9999492069e-001  -1.9547688958e-003  -3.3999255451e-005   2.3716151015e-004
  6.1090000000e+008  -2.9454107950e-004  -1.4941989242e-004   9.9744016440e-001  -2.3869920082e-003   9.9993720952e-001  -1.7272069178e-003  -2.5028700517e-004   4.7124656391e-004
  6.1948750000e+008  -5.0650052344e-004  -7.0401797064e-006   9.9816491667e-001  -1.1602274421e-003   9.9946087361e-001  -1.6795958911e-003  -2.0996833720e-004   1.9694136273e-004
  6.2807500000e+008  -4.5410604601e-004  -1.1158882439e-004   9.9694330128e-001  -3.4517350208e-003   9.9994862256e-001  -1.4390869928e-003   3.6442239086e-005   5.8266268314e-006
  6.3666250000e+008  -2.3192129805e-004   3.2671654967e-004   9.9746105839e-001  -1.3424435029e-003   9.9958591763e-001  -2.7299591045e-003  -5.6787461758e-005   1.2028475712e-004
  6.4525000000e+008  -6.0421223826e-005   2.5090229772e-004   9.9880554763e-001  -2.5731854410e-003   1.0000570041e+000  -1.9834215625e-003   8.2958416204e-005   2.6352087306e-005
  6.5383750000e+008  -8.9962884396e-005   3.0892762964e-004   9.9683369049e-001  -2.5540288876e-003   9.9947891857e-001  -1.6006604897e-003   1.3306354093e-004  -3.5188292192e-005
  6.6242500000e+008  -7.3857882910e-005   1.0734461442e-004   9.9580570555e-001  -3.2763271040e-003   1.0005000072e+000  -2.9028366818e-003   1.0687056751e-004  -4.4184275879e-005
  6.7101250000e+008  -3.1199056634e-005   1.4736820485e-004   9.9845638806e-001  -9.7366268247e-004   9.9978678713e-001  -1.6695668482e-003   1.0170145745e-004   1.2903445991e-005
  6.7960000000e+008   2.5659525925e-004  -1.8620258539e-005   1.0001856064e+000  -1.1042313901e-003   1.0002965907e+000  -2.0759656113e-003   8.8988990837e-005  -2.4449292759e-004
  6.8818750000e+008   1.2846861548e-004   1.5527209818e-006   9.9707650524e-001  -2.4372764812e-003   9.9967806473e-001  -2.5038361822e-003   1.1741684475e-004  -2.0332385821e-004
  6.9677500000e+008  -2.3779133480e-006  -1.6155323895e-004   9.9918178371e-001  -1.1731407568e-003   1.0003310332e+000  -2.4650321297e-003   6.9162479782e-005  -1.4173121173e-004
  7.0536250000e+008  -1.7204647339e-004  -9.6430965563e-005   9.9913703390e-001  -1.9333160233e-003   1.0001617358e+000  -2.1069563074e-003   1.2084078570e-004  -3.9497920554e-004
  7.1395000000e+008  -2.0919387159e-004  -1.6911840896e-004   9.9835550397e-001  -1.4435092082e-003   1.0003422646e+000  -2.1277545454e-003   4.8476141344e-005  -2.5461667649e-004
  7.2253750000e+008  -4.3163782387e-004  -1.0348110551e-004   9.9872295827e-001  -1.2610382305e-003   9.9975941674e-001  -2.3491579130e-003  -2.5124314181e-004  -3.2293289159e-004
  7.3112500000e+008  -4.5530228361e-004  -1.4716639718e-004   9.9864036005e-001  -1.6197936079e-003   1.0005609911e+000  -1.9883946459e-003  -1.7892300373e-004  -1.9420670296e-004
  7.3971250000e+008  -2.2044539659e-004   1.3308672873e-004   9.9956732888e-001  -3.0213038150e-003   9.9987235767e-001  -2.5862941219e-003  -2.6413649030e-004  -5.3153856139e-005
  7.4830000000e+008  -1.6456247195e-004   2.8024330235e-004   9.9895505833e-001  -1.5121965052e-003   9.9928594482e-001  -1.9235378053e-003  -2.1037894265e-004  -2.0400696490e-004
  7.5688750000e+008  -1.8591839029e-004   3.7306018921e-004   9.9732994694e-001  -2.3474545392e-003   9.9878379994e-001  -2.8090553769e-003  -3.8907912715e-004   3.3895637429e-005
  7.6547500000e+008   1.1321024700e-004   3.9056468170e-004   9.9821091662e-001  -2.9172264300e-003   9.9939592826e-001  -2.1401651508e-003  -2.8275632704e-004  -5.0424896002e-005
  7.7406250000e+008  -1.3937304749e-004   2.0749125032e-004   9.9845184108e-001  -2.7654402303e-003   9.9982102757e-001  -2.5567447212e-003  -1.4306944854e-004   7.8754740709e-005
  7.8265000000e+008   1.0550198361e-004   8.3372427733e-005   9.9796939478e-001  -1.6053012732e-003   9.9965038758e-001  -1.8979012700e-003  -1.0547070145e-004   2.6318537585e-004
  7.9123750000e+008   1.9559110366e-004  -5.3575141537e-005   9.9824362443e-001  -1.6253411771e-003   9.9928814242e-001  -1.6200233578e-003  -1.8530637048e-004   1.5131320939e-004
  7.9982500000e+008   6.8614424719e-005   9.1307657858e-005   1.0003154468e+000  -1.0095261301e-003   1.0000518928e+000  -1.6504403818e-003  -2.0002691000e-004   2.5002595271e-004
  8.0841250000e+008   3.1789015264e-004   1.0042174533e-005   9.9825734128e-001  -3.0493457272e-003   9.9927896726e-001  -2.0305337449e-003  -2.4188287240e-005   3.2980575717e-004
  8.1700000000e+008   3.7626765035e-004   3.2090137896e-005   1.0003922169e+000  -1.1436666906e-003   1.0000813488e+000  -2.2728131462e-003  -1.7950610529e-004   1.9967056822e-004
  8.2558750000e+008   4.7409229839e-004  -5.4344052974e-005   1.0000383607e+000  -1.5379745454e-003   1.0007593924e+000  -2.5060625082e-003  -3.4650046188e-004   2.0329483230e-004
  8.3417500000e+008   4.1321473048e-004  -3.0784130896e-004   9.9855262655e-001  -2.3619754990e-003   1.0008540570e+000  -3.0238978963e-003  -1.4178695997e-004   2.2464222395e-004
  8.4276250000e+008   3.4288189481e-004  -3.7917367452e-004   9.9919095694e-001  -1.5504895718e-003   9.9927245958e-001  -2.2698539847e-003  -2.2070126064e-004   3.8341869432e-004
  8.5135000000e+008   8.4063709421e-005  -4.3701072263e-004   9.9793920180e-001  -1.6901461093e-004   1.0010437071e+000  -2.5909225794e-003  -1.6711111512e-004   6.0654085366e-004
  8.5993750000e+008  -9.3676169625e-006  -5.3271999242e-004   9.9927269334e-001  -1.0335685077e-003   9.9973140675e-001  -2.7830836239e-003  -1.1228021766e-004   4.1096212712e-004
  8.6852500000e+008  -2.3094486846e-004  -4.8751894302e-004   9.9752181339e-001  -1.8379753918e-003   9.9898222664e-001  -1.2201972295e-003   2.3769397030e-005   4.7064579519e-004
  8.7711250000e+008  -2.2369503898e-004  -3.3217471097e-004   9.9755393777e-001  -2.6176081173e-003   1.0002201387e+000  -2.1520231333e-003   1.7691271843e-004   1.4053841764e-004
  8.8570000000e+008  -3.8278951626e-004  -2.5686685928e-004   1.0009438665e+000  -1.5704912678e-003   9.9938139867e-001  -2.4600917963e-003   2.6848592190e-004   1.6563051876e-004
  8.9428750000e+008  -3.3410711781e-004   2.4770129836e-005   9.9812855122e-001  -2.5672599695e-003   9.9866106171e-001  -3.3030602393e-003   9.5178238514e-005  -1.0325285001e-004
  9.0287500000e+008  -2.4906383949e-004  -1.4068492051e-004   9.9968158387e-001  -2.2871924355e-003   9.9958132142e-001  -2.9966776182e-003   5.4792262579e-005  -1.0321119601e-004
  9.1146250000e+008  -9.7510490183e-005   8.2573500812e-005   9.9707649506e-001  -2.2243756379e-003   9.9928004820e-001  -3.3644617001e-003  -9.5519589936e-005  -1.8854470424e-004
  9.2005000000e+008  -2.1393977418e-004   9.3188862487e-006   9.9669678046e-001  -1.9785608096e-003   9.9914221202e-001  -2.4424169774e-003  -1.6609178094e-004  -2.4233665266e-004
  9.2863750000e+008  -9.7332478378e-006   2.7635031071e-005   9.9777395257e-001  -1.7032614782e-003   9.9932052632e-001  -3.3835234335e-003  -2.2133662243e-004  -1.8593455350e-004
  9.3722500000e+008   1.8924434150e-005  -2.7508596600e-004   9.9733746239e-001  -3.0368984318e-003   9.9893753797e-001  -2.1570602190e-003  -3.0335929046e-004  -3.2778040504e-004
  9.4581250000e+008   8.1324782813e-005  -3.0564777726e-004   9.9847062629e-001  -1.0043591987e-003   9.9850081606e-001  -2.1715506656e-003  -4.8138735731e-004  -2.8398129574e-004
  9.5440000000e+008  -2.0102833633e-004  -3.7944334257e-004   9.9676628943e-001  -2.4805627714e-003   1.0001819561e+000  -2.1457079525e-003  -4.0758345789e-004  -1.5036350291e-004
  9.6298750000e+008  -2.6224152056e-004  -4.2555006973e-004   1.0007357103e+000  -1.0822935982e-003   1.0001904218e+000  -2.2233329529e-003  -6.0730848499e-004  -1.3538558489e-004
  9.7157500000e+008  -3.4477562274e-004  -4.5389839640e-004   9.9939051246e-001  -1.5801241096e-003   1.0007448326e+000  -3.2552351282e-003  -4.2226327617e-004  -2.0437683280e-004
  9.8016250000e+008  -5.1435562539e-004  -2.6282362898e-004   9.9985860444e-001  -2.5895422170e-003   9.9984916244e-001  -4.0519526831e-003  -4.4244311117e-004  -6.7161655835e-006
  9.8875000000e+008  -6.7242848415e-004  -1.4250710190e-004   9.9607831256e-001  -7.6143930305e-004   9.9963125262e-001  -2.8535088357e-003  -4.9326645743e-004   1.3449925059e-004
  9.9733750000e+008  -6.3842635624e-004   9.2150422717e-005   9.9518581417e-001  -2.5682538042e-003   9.9903317993e-001  -1.6308568602e-003  -3.5303112330e-004   1.4032173208e-005
  1.0059250000e+009  -6.2768069097e-004   1.9249289863e-004   9.9722140355e-001  -3.2680884384e-003   9.9992680956e-001  -2.9496846892e-003  -1.9397624226e-004   1.0862738607e-004
  1.0145125000e+009  -5.4196443127e-004   4.3019221911e-004   9.9800271124e-001  -4.8353353490e-003   9.9972039476e-001  -2.3752950887e-003  -1.3894870049e-004   1.6961957126e-004
  1.0231000000e+009  -3.4748823834e-004   3.4612534010e-004   9.9574834670e-001  -1.3134812941e-003   9.9945391567e-001  -2.9526711701e-003  -1.3017892167e-004   1.8479018632e-004
  1.0316875000e+009  -3.3162767722e-004   7.0612962955e-004   9.9642601849e-001  -3.5007028547e-003   9.9884462480e-001  -3.5636651751e-003  -1.7028902304e-005   1.2792046112e-004
  1.0402750000e+009  -2.1188256137e-005   6.7969722322e-004   9.9606422737e-001  -3.2407163384e-003   9.9947726869e-001  -2.1256669033e-003   1.0813391602e-004   7.8582551629e-005
  1.0488625000e+009   4.3883425447e-005   6.3143826734e-004   9.9620052149e-001  -2.9990187995e-003   9.9914668847e-001  -2.8295267622e-003   2.7132890376e-004   2.8203340121e-005
  1.0574500000e+009   1.6261685048e-004   4.5178614337e-004   9.9905015911e-001  -1.8963943597e-003   9.9926203328e-001  -3.2394073319e-003   4.7016910265e-004  -2.8825652405e-005
