# Hz S RI R 50.000000
! Metas.Vna.Tools, 2.8.8664.20301
! Metas.Vna.Data, 2.8.8664.20285
! Created: UTC 2024.02.11 10:08:34
! FREQ                re:S1,1             im:S1,1             re:S2,1             im:S2,1             re:S1,2             im:S1,2             re:S2,2             im:S2,2          
  1.3000000000e+008   3.5962157312e-004  -1.3888926889e-003   9.9602621683e-001  -5.5018363761e-003   1.0010600794e+000   1.2380040019e-004   1.1293380177e-003   1.1403367707e-003
  1.3858750000e+008  -1.5122417225e-004  -9.6262985260e-004   9.9606705779e-001  -5.1260514902e-003   1.0003776842e+000  -4.3521478416e-004   1.4783585613e-003   9.5160365450e-005
  1.4717500000e+008  -1.2516222004e-003  -1.2701209914e-003   9.9573459206e-001  -6.5084370002e-003   1.0003291510e+000  -9.2650868859e-005   5.6793604609e-004  -8.4873813074e-004
  1.5576250000e+008  -1.5632373573e-003  -2.2074291245e-005   9.9765066853e-001  -5.7073146578e-003   1.0011501626e+000  -6.4079027307e-005   1.2338168499e-003  -7.4437502684e-004
  1.6435000000e+008  -1.1217057289e-003   7.2198045299e-004   9.9771349846e-001  -5.5616142915e-003   1.0007726918e+000  -6.7535396159e-005   9.1621860077e-004  -1.2951210207e-003
  1.7293750000e+008  -1.3667903001e-003   7.9325412633e-004   9.9748878167e-001  -4.8483310061e-003   1.0005465243e+000   3.2037109616e-004   9.5147289485e-004  -1.1207288895e-003
  1.8152500000e+008  -4.5239127228e-004   6.3476657458e-004   9.9642991965e-001  -5.4567179254e-003   9.9997138755e-001  -4.2707967761e-004   6.4764044317e-004  -1.1326974779e-003
  1.9011250000e+008  -2.7228533817e-004   7.4799056549e-004   9.9778078905e-001  -6.8731185066e-003   1.0007567613e+000  -6.9250548092e-004   1.3686619671e-004  -1.1470038899e-003
  1.9870000000e+008  -1.5953698376e-004   3.8443955956e-004   9.9734793494e-001  -6.0304495272e-003   1.0008396679e+000  -3.3847353211e-004   6.1749263498e-004  -2.7066730508e-004
  2.0728750000e+008   1.5420580752e-004   2.0851296091e-004   9.9614413737e-001  -5.9459518290e-003   1.0005733059e+000  -7.7779559551e-004   8.8956988456e-006  -1.4852553468e-004
  2.1587500000e+008   7.0912908221e-004  -4.6792115825e-004   9.9674869583e-001  -5.3514364383e-003   9.9968352677e-001  -4.4202177585e-004  -2.5412468939e-004   3.4742954566e-004
  2.2446250000e+008   6.2201318625e-004  -3.8311373757e-004   9.9597099866e-001  -5.4836300576e-003   1.0003573265e+000  -6.2033238164e-004  -4.7816903639e-004   2.4244397553e-004
  2.3305000000e+008   2.0708460818e-004   5.1430586324e-005   9.9590139610e-001  -5.4877054043e-003   1.0006319213e+000  -5.5802933435e-004  -5.0323588316e-004  -2.4441423101e-005
  2.4163750000e+008  -3.3286973748e-004  -6.9202256720e-004   9.9613252922e-001  -6.8128848357e-003   1.0003783420e+000  -6.2950623161e-004  -8.8851043522e-004   2.8821785316e-004
  2.5022500000e+008  -2.5221091476e-004  -6.6610560047e-004   9.9657926402e-001  -6.7961735136e-003   1.0004057148e+000  -6.2995206969e-004  -1.1069925926e-003   4.2206239812e-004
  2.5881250000e+008  -6.1739448408e-004  -7.5371421497e-004   9.9503264295e-001  -6.0927843052e-003   1.0009845450e+000  -1.2464343362e-003  -6.7443842717e-004   7.1227732966e-004
  2.6740000000e+008  -8.6030303730e-004  -9.0265325146e-004   9.9615825268e-001  -6.6283318019e-003   1.0007410688e+000  -1.1578763935e-003  -6.4183122439e-004   3.6499878117e-004
  2.7598750000e+008  -6.2141037747e-004  -4.6636789719e-004   9.9485241684e-001  -7.0802027692e-003   1.0002641010e+000  -2.8665143151e-004  -5.1713912354e-004   4.5187160057e-004
  2.8457500000e+008  -8.4382819175e-004  -4.5865762461e-004   9.9558976048e-001  -5.4180140020e-003   1.0010075072e+000  -4.0496706567e-004  -4.2588797613e-004   6.6830590888e-004
  2.9316250000e+008  -6.4790308018e-004  -3.7914206562e-004   9.9633610878e-001  -6.7141585815e-003   1.0004929296e+000  -1.8018477476e-003  -1.7190557548e-004   5.9798848467e-004
  3.0175000000e+008  -1.0006919157e-003   2.9411421088e-004   9.9511400921e-001  -7.7169056665e-003   1.0003793005e+000  -1.0757381742e-003  -4.1499917393e-004   3.5302164051e-004
  3.1033750000e+008  -8.5159409629e-004   1.9951501807e-004   9.9589874128e-001  -6.5448046246e-003   1.0012851266e+000  -1.0842972225e-003  -6.4199939854e-004   6.0698878176e-004
  3.1892500000e+008  -9.2873703512e-004   2.7477330191e-004   9.9582115856e-001  -7.0404645360e-003   1.0002985243e+000  -1.0211209913e-003  -7.6722678521e-004   3.9063658619e-004
  3.2751250000e+008  -8.3466211300e-004   1.4902273439e-004   9.9593439755e-001  -7.2506423886e-003   1.0005789886e+000  -1.4761375027e-003  -6.5702811069e-004   6.6746211019e-005
  3.3610000000e+008  -7.2402607964e-004  -2.6016512326e-005   9.9645107206e-001  -6.5873712652e-003   1.0008242677e+000  -1.3347541391e-003  -4.5322394832e-004   2.3277659260e-004
  3.4468750000e+008  -7.6985630312e-004   1.2490240924e-004   9.9514871448e-001  -5.9914329235e-003   1.0007250984e+000  -9.7794304494e-004  -3.7919340840e-004   6.5256562846e-005
  3.5327500000e+008  -3.0596613979e-004   3.4733391670e-004   9.9565142470e-001  -6.2665201362e-003   9.9933981171e-001  -2.0789687415e-003  -4.7002829893e-004   3.4995810499e-005
  3.6186250000e+008  -3.8452771459e-004   2.2477078444e-004   9.9687479175e-001  -7.3969326757e-003   1.0007674507e+000  -6.5498238400e-004  -3.1265098435e-004   4.1904721629e-004
  3.7045000000e+008  -6.5409586145e-004   3.1885505704e-004   9.9803575777e-001  -5.8691397647e-003   1.0002865037e+000  -1.4217065011e-003  -7.2859494520e-004   3.3108158841e-004
  3.7903750000e+008  -8.6251850634e-005   6.7926089837e-004   9.9829786914e-001  -5.1280168814e-003   1.0006353760e+000  -1.2914372814e-003  -5.9868872240e-004   1.0248697492e-004
  3.8762500000e+008  -4.1581275893e-004   6.5337835923e-004   1.0016670278e+000  -4.8156086740e-003   1.0000075645e+000  -1.7540734378e-003  -4.1451097756e-004   5.1067029208e-004
  3.9621250000e+008  -1.5381437388e-004   2.1289434148e-004   9.9657621045e-001  -6.5271164314e-003   1.0007428299e+000  -1.3338548999e-003  -7.5418359038e-004   5.3951626533e-004
  4.0480000000e+008   3.8546213676e-004   2.5830920427e-004   9.9564127447e-001  -7.5372546519e-003   1.0004150071e+000  -1.3053732793e-003  -8.8929880313e-005   1.7602001815e-004
  4.1338750000e+008   3.5233579163e-004   1.2710231203e-004   9.9524801852e-001  -6.3491341644e-003   1.0006428559e+000  -1.5231965600e-003   2.8188344016e-004   2.7850802919e-004
  4.2197500000e+008   1.2700401060e-005  -1.6093377254e-004   9.9268347104e-001  -7.8856326494e-003   1.0005067751e+000  -1.2141407840e-003   7.3708632313e-005   6.1631404162e-004
  4.3056250000e+008   1.9624703857e-004   1.9720641010e-005   9.9247058930e-001  -7.8094117413e-003   1.0005811926e+000  -1.4300943680e-003   2.7914477215e-004   1.9430165497e-004
  4.3915000000e+008   2.8501684896e-004  -3.4278568743e-004   9.9339292671e-001  -7.1078269817e-003   1.0005126890e+000  -1.3663630672e-003   3.3922223654e-004   2.1264498715e-004
  4.4773750000e+008   2.3061163810e-004  -4.2611669435e-004   9.9372841716e-001  -7.3171407315e-003   1.0006276103e+000  -1.9489012646e-003   4.8046122059e-004  -4.3650387940e-005
  4.5632500000e+008  -2.5341192353e-004  -5.0285822465e-004   9.9329769868e-001  -6.5635404694e-003   1.0003891890e+000  -1.7347209496e-003   6.0136423631e-004   1.9932201526e-004
  4.6491250000e+008  -2.4033807066e-004  -3.0018551894e-004   9.9339575387e-001  -7.9479695841e-003   1.0003019545e+000  -1.7560672651e-003   4.2457003794e-004   6.2880987638e-005
  4.7350000000e+008  -2.8356524339e-004  -2.8710297193e-004   9.9443856105e-001  -6.6515360078e-003   1.0004536314e+000  -1.7116564966e-003   5.7999485391e-004   2.6029067767e-004
  4.8208750000e+008  -2.3830678713e-004   7.9079524372e-005   9.9280720854e-001  -8.1936463973e-003   9.9989271065e-001  -1.4188484231e-003   5.4398806271e-004   1.6776776035e-004
  4.9067500000e+008  -5.9293406459e-006  -2.1617033572e-004   9.9235959305e-001  -7.6481720801e-003   1.0003471329e+000  -1.5810547979e-003   4.3016582387e-004   2.1594554090e-005
  4.9926250000e+008  -2.1243453098e-004  -4.9163681222e-004   9.9156208327e-001  -6.9021990392e-003   9.9966612879e-001  -1.5101742248e-003   6.9777529913e-004   5.0051278363e-005
  5.0785000000e+008  -3.8342203359e-004  -2.7425495003e-004   9.9279778109e-001  -6.8887131125e-003   9.9968135852e-001  -1.2946572469e-003   7.2137903635e-004   2.2129726730e-004
  5.1643750000e+008  -3.2971047893e-004   8.3045814804e-005   9.9072579178e-001  -6.1483356003e-003   1.0006750399e+000  -1.4053948794e-003   5.8013817068e-004   2.2971274380e-005
  5.2502500000e+008  -2.1362615958e-004   4.9796674045e-004   9.9173123597e-001  -6.9783442580e-003   1.0009956560e+000  -1.2176392279e-003   2.1528491389e-004  -3.2014210205e-004
  5.3361250000e+008   3.1817068568e-004   2.6741085294e-004   9.9252049549e-001  -8.1674706694e-003   1.0003170241e+000  -1.0127641720e-003   1.6864418047e-004  -4.2920081914e-004
  5.4220000000e+008   6.4853734102e-004  -3.4667583260e-005   9.8969427396e-001  -8.7301147030e-003   1.0006622259e+000  -1.9767872322e-003  -5.8140457136e-004  -1.5027691540e-004
  5.5078750000e+008   6.6972154285e-004  -4.6722716394e-004   9.8833860150e-001  -9.1877153289e-003   9.9992282377e-001  -1.9908937819e-003  -7.2552586353e-004   1.4986955419e-005
  5.5937500000e+008   4.1154896963e-004  -6.0470252425e-004   9.9051886488e-001  -8.5905834620e-003   1.0007766528e+000  -1.8930877911e-003  -8.7402584827e-004   1.2995762661e-004
  5.6796250000e+008   3.7957145438e-004  -8.6643022044e-004   9.9122962363e-001  -7.8802497946e-003   1.0007579501e+000  -1.8415395007e-003  -1.0002572184e-003   2.5118640298e-004
  5.7655000000e+008  -3.0414636733e-004  -1.0026479140e-003   9.9552999204e-001  -8.5225869134e-003   1.0002520840e+000  -2.5194429735e-003  -8.7829715622e-004   7.0168733959e-004
  5.8513750000e+008  -4.7634886037e-004  -8.7445747568e-004   9.9527236612e-001  -7.4954128039e-003   9.9990441008e-001  -1.7619979691e-003  -8.6053921495e-004   8.8013811818e-004
  5.9372500000e+008  -5.8348006403e-004  -8.5820172706e-004   9.9477471810e-001  -7.0520949119e-003   1.0008479487e+000  -2.1380025995e-003  -7.3251687950e-004   9.9333838986e-004
  6.0231250000e+008  -1.0551258305e-003  -5.2544233932e-004   9.9520624483e-001  -5.0331145593e-003   1.0002756318e+000  -2.2004303244e-003  -4.3024437479e-004   7.7876165225e-004
  6.1090000000e+008  -9.3549241782e-004  -3.0149906062e-004   9.9474807558e-001  -9.1614248043e-003   1.0000636896e+000  -1.5551854901e-003  -4.2074064931e-004   9.9821433929e-004
  6.1948750000e+008  -8.9158117251e-004  -1.5897660526e-004   9.9480684344e-001  -6.8283843958e-003   1.0004536422e+000  -2.1781553677e-003  -3.4070291405e-004   6.0428860916e-004
  6.2807500000e+008  -7.3578153021e-004   3.2483511960e-005   9.9628187971e-001  -7.8810217020e-003   9.9981358048e-001  -2.2036688281e-003  -6.4116546396e-005   3.7599295329e-004
  6.3666250000e+008  -4.5630654489e-004   4.5529120508e-004   9.9759215812e-001  -7.4055589370e-003   1.0003728658e+000  -2.3820232956e-003   1.2669494586e-004   3.7746047630e-004
  6.4525000000e+008  -6.5657009356e-005   3.6061354940e-004   9.9534780604e-001  -6.5970008784e-003   1.0002554560e+000  -1.8827773381e-003   2.7422707332e-004   4.0789907740e-005
  6.5383750000e+008   1.9347919797e-004   2.9486027624e-004   9.9611191559e-001  -6.2639390720e-003   9.9966266007e-001  -1.2535461844e-003   3.4144708093e-004  -1.1942387086e-004
  6.6242500000e+008   3.1028363670e-004   1.2733469046e-004   9.9526639413e-001  -6.8025248247e-003   1.0009508358e+000  -2.2872903339e-003   3.6746794907e-004  -3.8612285468e-004
  6.7101250000e+008   3.7918655048e-004  -3.0958260230e-004   9.9562806630e-001  -5.5233213482e-003   1.0004394496e+000  -1.7492357316e-003   2.7309568419e-004  -6.9264057070e-004
  6.7960000000e+008   6.3974718706e-004  -4.9138379896e-004   9.9457115432e-001  -7.3844800213e-003   1.0002026582e+000  -2.7662598725e-003   2.0616392755e-004  -9.6851951562e-004
  6.8818750000e+008   2.7000700555e-004  -8.3018343588e-004   9.9273324735e-001  -9.2129086537e-003   1.0001858924e+000  -2.6743113978e-003   2.1431265578e-004  -1.0669709913e-003
  6.9677500000e+008   1.9024825879e-004  -1.0199556365e-003   9.9203549950e-001  -8.1806484557e-003   1.0002296717e+000  -2.2537728440e-003  -2.0143643458e-004  -1.0122916054e-003
  7.0536250000e+008  -1.6706590038e-004  -1.1214984782e-003   9.9080435840e-001  -8.4408161216e-003   9.9997510075e-001  -2.2471708469e-003  -3.0746781605e-004  -1.2696619995e-003
  7.1395000000e+008  -5.1596943793e-004  -1.0364602004e-003   9.9182223480e-001  -8.9455792525e-003   9.9997797896e-001  -2.4630066034e-003  -6.1712906095e-004  -1.2150721036e-003
  7.2253750000e+008  -9.9457104318e-004  -8.3853555762e-004   9.9053947613e-001  -8.5144673869e-003   9.9978811019e-001  -2.3479469647e-003  -8.0050357321e-004  -1.2032617023e-003
  7.3112500000e+008  -1.0993497604e-003  -5.4395031433e-004   9.9041847758e-001  -8.5186616900e-003   1.0003951796e+000  -2.0087884447e-003  -8.3208247159e-004  -8.8938133725e-004
  7.3971250000e+008  -1.1958222748e-003  -1.0887568564e-005   9.9228541670e-001  -8.9907486088e-003   9.9954804528e-001  -2.6191047147e-003  -1.0949554179e-003  -6.3940393491e-004
  7.4830000000e+008  -9.4320414546e-004   6.3908841597e-004   9.9223003960e-001  -9.1066601584e-003   1.0002133773e+000  -2.4505357425e-003  -1.0116360875e-003  -6.3393698675e-004
  7.5688750000e+008  -8.1071358816e-004   7.0123976827e-004   9.9286445006e-001  -8.6246282710e-003   9.9978905928e-001  -2.5536676911e-003  -1.0818826434e-003  -3.4886730816e-004
  7.6547500000e+008  -3.8299335812e-004   8.3774616659e-004   9.9577561597e-001  -8.5020098377e-003   9.9935611792e-001  -3.1519342549e-003  -1.1479239745e-003  -5.3973834569e-005
  7.7406250000e+008   8.3830118268e-005   8.4218560946e-004   9.9483087336e-001  -7.7156929173e-003   1.0002984645e+000  -2.8055534136e-003  -8.2811201616e-004   2.9641302650e-004
  7.8265000000e+008   3.6727591235e-004   5.4888250723e-004   9.9548847029e-001  -7.3751961444e-003   9.9958009158e-001  -2.0125104819e-003  -7.9477310866e-004   5.5800179399e-004
  7.9123750000e+008   7.0309045118e-004   4.0398176648e-004   9.9189179700e-001  -7.0856243486e-003   9.9985125962e-001  -2.2386848036e-003  -7.0823647057e-004   4.4999392639e-004
  7.9982500000e+008   7.7715374865e-004   3.8069706431e-004   9.9146498522e-001  -8.1067735412e-003   1.0005285437e+000  -2.0731654232e-003  -4.1612661842e-004   7.1813653889e-004
  8.0841250000e+008   1.0169521470e-003   7.5445361820e-005   9.9179672590e-001  -8.1304568372e-003   9.9934161630e-001  -2.3078602926e-003  -3.7913255003e-004   9.3464943131e-004
  8.1700000000e+008   1.1787858853e-003  -9.1315792892e-005   9.9130771080e-001  -8.2739053395e-003   1.0000837358e+000  -1.9700535254e-003  -4.0224776885e-004   9.9198477206e-004
  8.2558750000e+008   1.0875174124e-003  -5.9065024872e-004   9.9187353252e-001  -8.6798309774e-003   1.0000025023e+000  -2.8764542115e-003  -4.3820075151e-004   1.0373385836e-003
  8.3417500000e+008   1.0334611263e-003  -1.1591221753e-003   9.9188956540e-001  -8.4055971921e-003   1.0010726225e+000  -2.6580065097e-003  -2.7700448586e-004   1.2344683024e-003
  8.4276250000e+008   5.2888939903e-004  -1.3260383177e-003   9.8987896271e-001  -9.7002135399e-003   9.9986059066e-001  -2.3356566673e-003   9.7254160915e-005   1.1303507186e-003
  8.5135000000e+008  -3.2207607917e-005  -1.2864487549e-003   9.8991336801e-001  -7.9056957236e-003   1.0010351282e+000  -2.5507990604e-003   2.0973158547e-004   1.2343010610e-003
  8.5993750000e+008  -2.6384364306e-004  -1.4230520332e-003   9.9088857675e-001  -7.8735671794e-003   9.9983049550e-001  -3.5486393362e-003   2.0740414478e-004   9.1033370463e-004
  8.6852500000e+008  -5.4925737263e-004  -1.0021883994e-003   9.9107687456e-001  -8.7272340505e-003   9.9971407186e-001  -3.0802767909e-003   6.1162561461e-004   7.9132921091e-004
  8.7711250000e+008  -5.2548860470e-004  -6.6962443600e-004   9.9004466128e-001  -8.8716522613e-003   9.9980546825e-001  -2.0860827344e-003   5.0370738472e-004   3.8554190561e-004
  8.8570000000e+008  -5.1292182806e-004  -4.8073059062e-004   9.9327343698e-001  -7.6246033002e-003   1.0001275317e+000  -3.0041354243e-003   3.9563050988e-004   8.3330128306e-005
  8.9428750000e+008  -3.2841065116e-004  -1.7137617557e-004   9.9260239346e-001  -9.4840205280e-003   9.9968400424e-001  -3.1925267136e-003   9.2803425879e-005  -2.3026518543e-004
  9.0287500000e+008   9.8303698702e-005  -1.8518373652e-004   9.9220053190e-001  -9.9444452226e-003   9.9848058898e-001  -4.2588494682e-003  -1.8753894938e-004  -3.6387414652e-004
  9.1146250000e+008   2.9712952934e-004  -1.8177659932e-004   9.9204727588e-001  -9.2089039047e-003   9.9939018070e-001  -2.5559449532e-003  -3.7232675538e-004  -2.9090671104e-004
  9.2005000000e+008   2.8077010625e-004  -3.9992369517e-004   9.9049844943e-001  -9.0650716999e-003   9.9769917276e-001  -1.8733967051e-003  -7.8863552177e-004  -5.3557085363e-004
  9.2863750000e+008   4.8192436905e-004  -4.9957998410e-004   9.9397808844e-001  -8.1106345282e-003   9.9909088959e-001  -3.8109086072e-003  -8.4779821005e-004  -6.1467756288e-004
  9.3722500000e+008   2.9035159207e-004  -7.9550382186e-004   9.9306183112e-001  -7.4845577625e-003   9.9948674252e-001  -2.7609977203e-003  -1.0258742731e-003  -7.5423479059e-004
  9.4581250000e+008   4.0511982771e-004  -1.1397525299e-003   9.9443953518e-001  -7.6581287497e-003   9.9897706933e-001  -2.4548098322e-003  -1.3359154790e-003  -5.3963635228e-004
  9.5440000000e+008  -3.0339089369e-005  -1.2987750154e-003   9.9300253053e-001  -7.8607376763e-003   1.0002159211e+000  -1.8499057513e-003  -1.3944557427e-003  -5.6968129692e-004
  9.6298750000e+008  -2.9341689994e-004  -1.3993134272e-003   9.9594617128e-001  -6.9528462938e-003   9.9941984627e-001  -3.1954229311e-003  -1.5917256997e-003  -2.8543310141e-004
  9.7157500000e+008  -6.9417921072e-004  -1.3022372475e-003   9.9364719028e-001  -7.5589466582e-003   1.0004526431e+000  -3.0508148644e-003  -1.3976647146e-003  -2.1168315917e-004
  9.8016250000e+008  -9.5849554899e-004  -9.5781641234e-004   9.9290733896e-001  -7.7557608792e-003   1.0002982484e+000  -3.8735562900e-003  -1.4814814378e-003   3.6265733670e-005
  9.8875000000e+008  -1.1171120077e-003  -7.4866511728e-004   9.9302272341e-001  -7.8431414415e-003   9.9923144069e-001  -2.1691922752e-003  -1.2676009198e-003   2.9911734158e-004
  9.9733750000e+008  -1.1374370144e-003  -3.4713575459e-004   9.9216545912e-001  -9.0954969913e-003   9.9929404370e-001  -2.8271941650e-003  -1.1426904474e-003   1.9753742421e-004
  1.0059250000e+009  -9.7522626419e-004   1.0512952421e-004   9.9075655129e-001  -8.7102795457e-003   1.0004088530e+000  -2.7535250958e-003  -7.3482236698e-004   1.2035845342e-004
  1.0145125000e+009  -8.4935357009e-004   3.9164177934e-004   9.8789880264e-001  -1.1729386372e-002   9.9856641432e-001  -3.6445395778e-003  -3.2374000731e-004   2.7691714833e-004
  1.0231000000e+009  -6.2078308300e-004   5.3142365975e-004   9.8795298121e-001  -9.4849686232e-003   9.9919196922e-001  -3.0792284754e-003  -2.1384647242e-004   1.6936077598e-004
  1.0316875000e+009  -2.5439089275e-004   8.4201834608e-004   9.8805311918e-001  -1.0930714377e-002   9.9880477219e-001  -4.3108032676e-003   1.5147288537e-004   1.0829607949e-004
  1.0402750000e+009   2.9494163397e-004   7.7422074339e-004   9.8899193476e-001  -1.0187609223e-002   1.0003359562e+000  -2.0159512373e-003   4.0433423880e-004  -7.1012343626e-005
  1.0488625000e+009   4.5556859730e-004   4.8058235465e-004   9.9238987016e-001  -8.3098114978e-003   9.9920169871e-001  -2.8531210334e-003   7.3195287342e-004  -1.9843898622e-004
  1.0574500000e+009   6.4464888570e-004   1.8529665438e-004   9.9556105521e-001  -6.9666307114e-003   9.9934059878e-001  -3.1926331916e-003   7.6870291582e-004  -3.5971229787e-004
