# Hz S RI R 50.000000
! Metas.Vna.Tools, 2.8.8664.20301
! Metas.Vna.Data, 2.8.8664.20285
! Created: UTC 2024.02.11 10:08:12
! FREQ                re:S1,1             im:S1,1             re:S2,1             im:S2,1             re:S1,2             im:S1,2             re:S2,2             im:S2,2          
  1.3000000000e+008   1.9800880018e-004  -1.8821852859e-003   9.9656146290e-001  -5.2002512510e-003   1.0004662834e+000  -1.6742751187e-003   8.1038567987e-004   6.8465602434e-004
  1.3858750000e+008  -3.6883444179e-004  -1.5818122393e-003   9.9784945145e-001  -4.8592045708e-003   1.0007898673e+000  -1.6940535150e-003   1.2005423233e-003  -3.2430993428e-005
  1.4717500000e+008  -1.3130360860e-003  -1.3093918885e-003   9.9692942588e-001  -5.1648370756e-003   1.0002096515e+000  -1.3861375068e-003   1.4448384312e-004   1.0229998881e-004
  1.5576250000e+008  -9.0285393981e-004  -2.5077060272e-006   9.9874835470e-001  -4.8841315420e-003   9.9993155137e-001  -7.6517100180e-004   1.1189403403e-003  -7.6581221385e-004
  1.6435000000e+008  -8.4187072586e-004   7.4187982243e-004   9.9943772466e-001  -4.1408875963e-003   1.0007041500e+000  -1.8299968549e-003   1.0327727505e-003  -4.0470068986e-004
  1.7293750000e+008  -3.7953958528e-004   9.6326455168e-004   9.9817950630e-001  -4.2772252081e-003   1.0002365887e+000  -1.8172033733e-003   6.3740188302e-004  -1.0113267566e-003
  1.8152500000e+008  -2.8443957634e-005   2.7328511377e-004   9.9859317935e-001  -4.8795198683e-003   1.0000508474e+000  -1.8291366335e-003   7.0168257846e-004  -8.7456215078e-004
  1.9011250000e+008  -3.3797546042e-004   4.9178235111e-004   9.9932394282e-001  -6.2985639222e-003   1.0008607579e+000  -2.1134948158e-003   1.7222009387e-004  -6.7455062857e-004
  1.9870000000e+008  -2.6231325358e-004   8.7627774779e-004   9.9881425999e-001  -4.4629437986e-003   1.0006050945e+000  -1.7436263853e-003   4.2660144007e-004  -3.2602821142e-004
  2.0728750000e+008   5.3132568406e-004   4.4402822517e-004   9.9918506529e-001  -4.4541320223e-003   1.0008512544e+000  -1.5371428389e-003   2.4655096919e-004  -4.2825201653e-004
  2.1587500000e+008   2.1671692191e-005  -1.4588122893e-004   9.9971231777e-001  -4.5298703565e-003   9.9986433457e-001  -1.6918068898e-003  -7.9385413600e-004   1.2961559687e-004
  2.2446250000e+008   1.8339570433e-004  -3.9800534040e-004   9.9789701375e-001  -5.7029086575e-003   1.0000494738e+000  -1.8993968675e-003  -6.8817512889e-004   2.3753042196e-004
  2.3305000000e+008  -2.5010673761e-004  -3.8647453785e-004   9.9755573592e-001  -5.1893376999e-003   1.0007625995e+000  -2.0249116621e-003  -1.8963134245e-004   1.7297291741e-005
  2.4163750000e+008   3.1603169545e-005  -5.9446469713e-004   9.9810424015e-001  -6.2056516990e-003   1.0000233511e+000  -2.2945585976e-003  -9.1410090882e-004   1.6003186401e-004
  2.5022500000e+008  -1.6076916622e-004  -8.2087058889e-004   9.9963944682e-001  -4.3961072163e-003   9.9992409094e-001  -2.5625166180e-003  -7.6579047844e-004   8.3229133308e-004
  2.5881250000e+008  -3.0604540761e-004  -9.7566935193e-004   9.9651464397e-001  -4.3262358994e-003   1.0003366009e+000  -2.5382133852e-003  -5.6529202894e-004   7.9818891975e-004
  2.6740000000e+008  -1.1283896613e-003  -7.2927897944e-004   9.9883861435e-001  -5.7093440355e-003   1.0005662476e+000  -2.7546210713e-003  -3.2897417334e-004   1.7302293007e-004
  2.7598750000e+008  -3.9107119145e-004  -2.9114953565e-004   9.9844018867e-001  -5.5676130139e-003   1.0007275852e+000  -2.5538934280e-003  -2.0866340976e-004   5.6054699549e-004
  2.8457500000e+008  -6.5942151629e-004  -2.9540689587e-004   9.9758437182e-001  -5.8221628436e-003   1.0004829503e+000  -1.8723457774e-003  -1.0646010289e-004   6.7969254266e-004
  2.9316250000e+008  -7.1354398740e-004  -3.5480173444e-004   9.9927061771e-001  -4.1831687012e-003   1.0004674696e+000  -2.7969260660e-003  -2.9753072388e-004   5.0780810799e-004
  3.0175000000e+008  -1.0443194313e-003   6.1942308638e-005   9.9933572228e-001  -7.4561262913e-003   1.0002368834e+000  -1.9544385445e-003  -3.7157028734e-004   4.0018780289e-004
  3.1033750000e+008  -9.0830189288e-004   2.8824419550e-004   1.0002113276e+000  -4.8334391042e-003   1.0021245361e+000  -2.7501370330e-003  -5.6687846571e-004   5.9856587991e-004
  3.1892500000e+008  -9.1545941208e-004   1.1680729341e-004   9.9771008359e-001  -5.9537722178e-003   1.0004304711e+000  -1.8848042559e-003  -3.9242426725e-004   3.2345752051e-004
  3.2751250000e+008  -5.1505354662e-004   2.3992109627e-004   9.9879932095e-001  -5.3437292498e-003   1.0005283716e+000  -2.9219283105e-003  -6.0456242785e-004   3.9932175080e-004
  3.3610000000e+008  -5.3910691932e-004   1.5304521201e-004   9.9902768541e-001  -5.6711055752e-003   1.0013345334e+000  -3.3200309059e-003  -4.2502530077e-004   2.0698077934e-004
  3.4468750000e+008  -5.5388720593e-004   2.1791504150e-004   9.9824839023e-001  -5.6757728664e-003   1.0004634928e+000  -2.2226846062e-003  -3.7745406939e-004   7.7915541099e-005
  3.5327500000e+008  -4.7823172515e-004   4.9382929922e-004   9.9911406226e-001  -6.8380353788e-003   9.9896279096e-001  -2.6882374135e-003  -5.5890590061e-004   2.1041276620e-004
  3.6186250000e+008  -4.3798318043e-004   3.6353147153e-004   9.9929514506e-001  -5.2055886160e-003   1.0003892051e+000  -2.0074432718e-003  -3.4258996630e-004   4.7794523342e-004
  3.7045000000e+008  -6.8357802962e-004   5.5139891534e-004   9.9796658854e-001  -5.6281226394e-003   1.0003061469e+000  -2.7761484219e-003  -8.2117839882e-004   4.1448508210e-004
  3.7903750000e+008  -2.9785155255e-004   6.2591766994e-004   9.9884448868e-001  -5.5105309274e-003   1.0005789909e+000  -2.5150575916e-003  -6.5360038123e-004   7.5851198830e-005
  3.8762500000e+008  -3.4958983343e-004   5.6737161684e-004   1.0006396674e+000  -4.5745525851e-003   1.0003511722e+000  -2.3701002597e-003  -3.9648459072e-004   3.7172842903e-004
  3.9621250000e+008  -7.5253383722e-005   2.6556547309e-004   9.9884963248e-001  -5.1067953418e-003   1.0002870623e+000  -2.3852725200e-003  -5.0788825630e-004   3.3096431673e-004
  4.0480000000e+008   1.3608501420e-004   2.4912702450e-004   9.9862337145e-001  -6.1813950033e-003   1.0001565374e+000  -2.7314912238e-003  -1.7191043059e-004   4.8149165488e-004
  4.1338750000e+008   2.9288006494e-004  -1.3830623003e-005   9.9706026064e-001  -5.3335917018e-003   1.0011245928e+000  -2.6814574936e-003   2.9975376907e-004   4.5446178663e-004
  4.2197500000e+008  -2.3090981554e-005  -1.9790190577e-004   9.9777613890e-001  -6.2773819740e-003   1.0008485871e+000  -2.7368383230e-003  -3.4351978364e-006   4.8202075649e-004
  4.3056250000e+008   3.5607838018e-004   4.0411889801e-005   9.9716222080e-001  -6.2325858319e-003   1.0006353015e+000  -2.7655335812e-003   4.6786050287e-004   1.0105184432e-004
  4.3915000000e+008  -4.4757824358e-005  -1.7712710592e-004   9.9918526551e-001  -4.8176767248e-003   1.0003220734e+000  -3.5758928638e-003   6.1233269874e-004   6.1027562522e-005
  4.4773750000e+008   1.0333325979e-004  -2.9423215132e-004   9.9892304703e-001  -5.6462246564e-003   1.0003086063e+000  -3.1535545266e-003   4.4616012822e-004   1.6770443230e-004
  4.5632500000e+008   9.3315496860e-005  -3.2368248375e-004   9.9651405843e-001  -6.3640897643e-003   1.0005328669e+000  -2.9495701058e-003   5.4743712341e-004   2.3506246459e-004
  4.6491250000e+008  -2.0804935326e-004  -6.2497486913e-005   9.9711616084e-001  -6.4151201419e-003   1.0001585476e+000  -3.0725408011e-003   4.4247471877e-004   2.1559917001e-004
  4.7350000000e+008  -4.0466754659e-004  -1.9423798399e-004   9.9657678978e-001  -6.5067303286e-003   1.0001866082e+000  -2.9991977644e-003   4.1561258911e-004   1.1878751718e-004
  4.8208750000e+008  -2.7104780912e-004  -1.0730781795e-004   9.9495789660e-001  -6.9233339010e-003   9.9985663457e-001  -2.9139855890e-003   5.5003195529e-004   9.0464343688e-005
  4.9067500000e+008   3.0502206123e-005  -3.4270042801e-004   9.9411390459e-001  -7.4341572151e-003   9.9992477333e-001  -3.0568321361e-003   3.2523356701e-004   4.4169618158e-006
  4.9926250000e+008  -2.9960083583e-004  -5.4741777201e-004   9.9324542349e-001  -6.6372192024e-003   9.9965036946e-001  -2.8156551226e-003   5.6336813605e-004  -9.6780141080e-005
  5.0785000000e+008  -5.6149781310e-004  -2.5391350433e-004   9.9456973506e-001  -6.0492048416e-003   9.9947297704e-001  -2.2693805108e-003   5.2064120143e-004   4.0566582461e-004
  5.1643750000e+008  -7.0863643972e-004   1.2064580443e-004   9.9586257037e-001  -4.8549797490e-003   1.0005064173e+000  -2.6877387282e-003   1.0317716215e-003  -1.5415624642e-004
  5.2502500000e+008  -3.9068587918e-004   5.3778917999e-004   9.9740283108e-001  -4.9108815919e-003   1.0007726114e+000  -2.1086357660e-003   4.7060225613e-004  -4.9416318321e-004
  5.3361250000e+008   2.6688332934e-004   5.7152991914e-004   9.9563722607e-001  -7.1435743914e-003   1.0004738916e+000  -2.7088169453e-003  -2.2732604918e-005  -7.8955428606e-004
  5.4220000000e+008   7.7245619703e-004   2.1973867693e-004   9.9532676657e-001  -7.9331437237e-003   1.0011897136e+000  -2.7617202034e-003  -9.2171380454e-004  -4.9001013347e-004
  5.5078750000e+008   6.2698492830e-004  -4.4597542320e-004   9.9441514679e-001  -9.2653573457e-003   1.0006862681e+000  -3.3605367031e-003  -1.0208115749e-003  -3.9566668532e-004
  5.5937500000e+008   4.3777886145e-004  -6.2756352316e-004   9.9298044479e-001  -6.8788939852e-003   1.0001518497e+000  -3.3003361492e-003  -9.5722005275e-004   6.9924182464e-005
  5.6796250000e+008   4.2872199043e-004  -8.0957077129e-004   9.9386070950e-001  -8.6081723199e-003   9.9987471312e-001  -3.6124284964e-003  -1.0536468460e-003   4.6070494650e-004
  5.7655000000e+008  -3.3574440997e-004  -9.9213141852e-004   9.9561348251e-001  -9.0046961530e-003   1.0003860392e+000  -3.3027873785e-003  -8.3038663245e-004   7.7464997956e-004
  5.8513750000e+008  -4.3409310457e-004  -9.6344348917e-004   9.9418373793e-001  -7.2600093984e-003   9.9963238128e-001  -3.0570735310e-003  -8.6688406759e-004   8.9519122680e-004
  5.9372500000e+008  -6.4024995341e-004  -8.1449496931e-004   9.9566616016e-001  -6.5157685110e-003   9.9985935539e-001  -3.7230191497e-003  -7.3823850222e-004   1.0661137267e-003
  6.0231250000e+008  -9.2719156546e-004  -4.6496099475e-004   9.9628470730e-001  -5.5161656207e-003   1.0001295029e+000  -3.1994680232e-003  -3.9305191221e-004   9.4286429787e-004
  6.1090000000e+008  -8.1596915231e-004  -3.8062169224e-004   9.9391509874e-001  -9.3845486341e-003   9.9965473897e-001  -4.1266689485e-003  -4.9072507115e-004   9.7061490660e-004
  6.1948750000e+008  -7.8546297805e-004   3.4820653028e-006   9.9622335718e-001  -7.2207329099e-003   9.9964178376e-001  -3.5018918825e-003  -3.6155976033e-004   7.6876631680e-004
  6.2807500000e+008  -8.1226381958e-004   6.4982311558e-005   9.9627261552e-001  -8.2557956158e-003   1.0006389183e+000  -3.4422921518e-003   9.6527758189e-005   5.1148106406e-004
  6.3666250000e+008  -3.5141645518e-004   5.4796615609e-004   9.9907143647e-001  -4.3980531052e-003   1.0004230922e+000  -3.6732526337e-003   2.0011417152e-004   4.5951685305e-004
  6.4525000000e+008  -1.6099677575e-004   3.4280402471e-004   9.9887843114e-001  -6.1599300166e-003   1.0004363543e+000  -3.6949618932e-003   4.0857036503e-004  -7.8698818646e-005
  6.5383750000e+008   1.4139081870e-004   2.0103762783e-004   9.9901170712e-001  -6.1114407468e-003   1.0001963623e+000  -2.9423961774e-003   4.4219906077e-004  -2.3023153548e-004
  6.6242500000e+008   2.8753438114e-004   9.7858761912e-005   9.9609429090e-001  -6.5331673782e-003   1.0008222513e+000  -4.0294330044e-003   4.0407603774e-004  -2.7588232523e-004
  6.7101250000e+008   2.5356590487e-004  -1.5257465965e-004   9.9904819194e-001  -5.4775181391e-003   1.0001223568e+000  -2.6922403296e-003   3.6983707100e-004  -5.1425365612e-004
  6.7960000000e+008   5.2537334383e-004  -4.6757238525e-004   9.9836266450e-001  -5.8554979014e-003   1.0001976980e+000  -3.6043962730e-003   2.4111147478e-004  -9.7141944192e-004
  6.8818750000e+008   3.1071386873e-004  -7.8531092584e-004   9.9681181255e-001  -7.1175226300e-003   1.0001953506e+000  -3.5614165114e-003   1.0100713708e-004  -1.1378500394e-003
  6.9677500000e+008   7.9280484935e-005  -8.5273640430e-004   9.9865803185e-001  -6.1767305351e-003   1.0002913021e+000  -4.1710801936e-003  -5.7973391860e-005  -1.3480236653e-003
  7.0536250000e+008  -3.4076210644e-004  -9.3468380320e-004   9.9804935158e-001  -6.2403732810e-003   1.0000415283e+000  -3.3434965273e-003  -3.3404751659e-004  -1.3681616724e-003
  7.1395000000e+008  -6.2800684271e-004  -9.0972998677e-004   9.9843549603e-001  -6.3420792818e-003   9.9987083348e-001  -3.5070152149e-003  -5.0065229550e-004  -1.3224562140e-003
  7.2253750000e+008  -9.5561504845e-004  -7.9031835174e-004   9.9749888142e-001  -6.6699789008e-003   9.9996029662e-001  -3.9528416780e-003  -8.8063430325e-004  -1.2091846438e-003
  7.3112500000e+008  -1.1335470381e-003  -2.5200353085e-004   9.9899706728e-001  -5.8490045178e-003   9.9990854120e-001  -3.3233010758e-003  -8.8535604742e-004  -1.0832530458e-003
  7.3971250000e+008  -1.1033906664e-003   1.0693171290e-004   9.9900328532e-001  -8.1606753912e-003   9.9985337852e-001  -3.9402601106e-003  -1.0331148113e-003  -7.3379336180e-004
  7.4830000000e+008  -8.5455055901e-004   5.1655586409e-004   9.9912421250e-001  -5.3113779262e-003   9.9941707250e-001  -4.0350724264e-003  -1.0627453598e-003  -7.5238679805e-004
  7.5688750000e+008  -6.7980534477e-004   7.2678401220e-004   9.9689255117e-001  -6.6369619709e-003   9.9908023316e-001  -4.5772604089e-003  -1.2457603033e-003  -3.0247987247e-004
  7.6547500000e+008  -2.0689325784e-004   8.5372243345e-004   9.9895056195e-001  -7.2603885960e-003   9.9913223545e-001  -4.0745787894e-003  -1.0658823337e-003   9.9454378961e-005
  7.7406250000e+008   8.3747059353e-005   5.8491174514e-004   9.9804687155e-001  -6.8179459298e-003   1.0000202144e+000  -4.6602290024e-003  -8.2399713948e-004   3.7342052535e-004
  7.8265000000e+008   3.8445600910e-004   5.0913025150e-004   9.9762176915e-001  -6.3017323116e-003   9.9948212944e-001  -3.3361997213e-003  -8.2032913304e-004   6.8949870876e-004
  7.9123750000e+008   4.5977187981e-004   3.3728346401e-004   9.9901207103e-001  -4.9248755981e-003   9.9894651310e-001  -2.7942710323e-003  -6.5793789734e-004   5.7358578121e-004
  7.9982500000e+008   5.0335689368e-004   2.5506001479e-004   9.9972294623e-001  -4.7982977843e-003   1.0004285537e+000  -2.8090907230e-003  -4.0467827005e-004   7.0962474462e-004
  8.0841250000e+008   8.1936238740e-004   3.7579646510e-004   9.9935650341e-001  -6.8921419139e-003   1.0001482039e+000  -3.1575681825e-003  -3.0847841326e-004   7.2244388929e-004
  8.1700000000e+008   1.0132864212e-003   1.0344416008e-004   1.0004782045e+000  -5.3728173887e-003   1.0001913515e+000  -3.0996050167e-003  -4.8000897187e-004   8.6126239982e-004
  8.2558750000e+008   1.1962115941e-003  -1.0299399019e-004   9.9958626873e-001  -5.3586351574e-003   9.9983208124e-001  -3.8322359295e-003  -6.4997760080e-004   1.0266210027e-003
  8.3417500000e+008   1.2267277330e-003  -8.7157677669e-004   9.9952572269e-001  -5.3522419441e-003   1.0006170412e+000  -4.5196855090e-003  -5.0711840264e-004   1.3246831533e-003
  8.4276250000e+008   7.9100411911e-004  -1.2996138751e-003   9.9817389576e-001  -7.1440745203e-003   9.9970492796e-001  -4.9413803859e-003  -4.2518027590e-005   1.4008979504e-003
  8.5135000000e+008   2.4692101394e-004  -1.3738066245e-003   9.9743569954e-001  -6.3920798564e-003   1.0003625707e+000  -4.1435339783e-003   1.1770162683e-004   1.6000407789e-003
  8.5993750000e+008   5.8701708209e-007  -1.3372025719e-003   9.9786423013e-001  -5.5482884622e-003   9.9984509624e-001  -4.9424906210e-003   4.1724968204e-004   1.4249438488e-003
  8.6852500000e+008  -4.9610266652e-004  -1.1102679915e-003   9.9638691078e-001  -7.6756056393e-003   1.0000714573e+000  -3.7460791995e-003   7.8691737603e-004   1.0846854426e-003
  8.7711250000e+008  -6.0873793339e-004  -8.1464209012e-004   9.9745448282e-001  -6.6796011987e-003   1.0002055219e+000  -4.2133036240e-003   7.0545164103e-004   6.6981129364e-004
  8.8570000000e+008  -5.9271432274e-004  -4.8623842793e-004   9.9885914286e-001  -5.5527955311e-003   1.0004934855e+000  -4.9226809755e-003   9.1979496359e-004   3.3870048911e-004
  8.9428750000e+008  -3.6973614330e-004  -2.2064145722e-004   9.9760816019e-001  -6.9733994172e-003   9.9983526296e-001  -5.0609306088e-003   4.6478047583e-004  -2.3756419436e-004
  9.0287500000e+008  -6.4492190138e-005  -1.6608296557e-004   9.9826545301e-001  -6.3439768731e-003   9.9927964015e-001  -5.6608835608e-003   3.1144256879e-004  -4.2885685711e-004
  9.1146250000e+008   1.2769675670e-004  -7.4321205267e-005   9.9532671696e-001  -8.6834640489e-003   9.9828725389e-001  -5.0620530901e-003  -2.8879565476e-004  -4.0759855736e-004
  9.2005000000e+008   2.8368760402e-004  -2.5905019929e-004   9.9219415707e-001  -7.1692525507e-003   9.9876423676e-001  -3.8653744097e-003  -6.1859599333e-004  -5.2343879161e-004
  9.2863750000e+008   5.5238400035e-004  -4.0945592773e-004   9.9220461834e-001  -8.7167886610e-003   9.9938486374e-001  -5.0502847411e-003  -8.8903984544e-004  -5.4874383676e-004
  9.3722500000e+008   4.6729383522e-004  -7.1038980524e-004   9.9666675170e-001  -6.4780545411e-003   9.9830685733e-001  -3.5648037647e-003  -9.5192426215e-004  -8.3189291335e-004
  9.4581250000e+008   3.0843851831e-004  -1.0778502264e-003   9.9631166176e-001  -6.3714876911e-003   9.9889129514e-001  -4.3663526587e-003  -1.2847260003e-003  -5.3316071164e-004
  9.5440000000e+008   7.8868851041e-006  -1.2037586827e-003   9.9750315046e-001  -6.4940442048e-003   9.9984077886e-001  -4.1984040746e-003  -1.3576964492e-003  -4.9029685178e-004
  9.6298750000e+008  -3.1721185470e-004  -1.3152902311e-003   9.9928866300e-001  -5.0160031936e-003   1.0003497745e+000  -5.0732006803e-003  -1.6091577087e-003  -2.9184694869e-004
  9.7157500000e+008  -5.9652552817e-004  -1.2752359337e-003   9.9949407238e-001  -6.7045933892e-003   1.0004422415e+000  -3.9146850339e-003  -1.5324000859e-003  -2.6808998439e-004
  9.8016250000e+008  -8.5005770364e-004  -1.0674843547e-003   9.9698479375e-001  -7.8964960392e-003   9.9894699800e-001  -5.4411173769e-003  -1.5301430729e-003   1.6071640659e-004
  9.8875000000e+008  -1.2783889435e-003  -6.8999996075e-004   9.9702134889e-001  -5.7749036990e-003   9.9980512779e-001  -4.2061048812e-003  -1.5975312015e-003   1.6786912737e-004
  9.9733750000e+008  -1.1182479424e-003  -4.7915522419e-004   9.9684924542e-001  -6.7312227450e-003   9.9954084212e-001  -3.6997682786e-003  -1.4418241561e-003   7.6085772498e-005
  1.0059250000e+009  -9.8733189836e-004  -4.2713064939e-005   9.9728513200e-001  -7.1330161309e-003   1.0003151098e+000  -4.3115657339e-003  -9.1189102316e-004   2.8221793697e-004
  1.0145125000e+009  -1.0342345754e-003   4.1648906945e-004   9.9673682744e-001  -8.6139876957e-003   9.9958862022e-001  -4.2150785651e-003  -5.3382043637e-004   4.6013323853e-004
  1.0231000000e+009  -6.5714663924e-004   5.7650790036e-004   9.9571691696e-001  -6.0621122847e-003   9.9916049333e-001  -4.8687435141e-003  -3.1450835679e-004   3.7564604470e-004
  1.0316875000e+009  -3.4699421561e-004   8.5338108351e-004   9.9618463371e-001  -7.7441873079e-003   9.9949743863e-001  -5.0069157643e-003  -1.5913599130e-005   3.1509934612e-004
  1.0402750000e+009   9.0293851259e-005   7.6435774536e-004   9.9708242956e-001  -6.2989353307e-003   9.9941910589e-001  -3.5522321657e-003   2.7033786927e-004   2.2673425039e-004
  1.0488625000e+009   3.7040760807e-004   6.6463536339e-004   9.9723368098e-001  -7.4157343450e-003   9.9909696029e-001  -3.7128481230e-003   6.1664573333e-004   9.0884307384e-006
  1.0574500000e+009   6.0218646753e-004   4.0248100567e-004   9.9620652589e-001  -7.3734747633e-003   9.9976367663e-001  -4.4840014196e-003   7.4309786664e-004  -2.1142054574e-004
