# Hz S RI R 50.000000
! Metas.Vna.Tools, 2.8.8664.20301
! Metas.Vna.Data, 2.8.8664.20285
! Created: UTC 2024.02.11 10:08:12
! FREQ                re:S1,1             im:S1,1             re:S2,1             im:S2,1             re:S1,2             im:S1,2             re:S2,2             im:S2,2          
  1.3000000000e+008   3.9033107143e-004  -1.6663337385e-003   9.9789553124e-001  -5.0316585407e-003   1.0005732914e+000  -1.8430652577e-003   1.1429281586e-003   2.5554278595e-004
  1.3858750000e+008  -1.4114523058e-003  -9.2830412495e-004   1.0007351253e+000  -4.7443297697e-003   1.0008094658e+000  -1.4167658376e-003   1.5148957964e-003  -2.4659341518e-004
  1.4717500000e+008  -1.5950664790e-003  -1.3917798892e-003   9.9977846952e-001  -4.7754817124e-003   1.0001511794e+000  -1.4645695802e-003   7.1042992185e-004  -3.2277833517e-004
  1.5576250000e+008  -1.2220622052e-003   1.5878051406e-004   9.9962394102e-001  -5.4956174549e-003   1.0004167989e+000  -8.8756280293e-004   7.8730757500e-004  -1.0874975165e-003
  1.6435000000e+008  -9.4321588144e-004   2.4372285284e-004   9.9968743455e-001  -3.4518619544e-003   1.0006846717e+000  -1.7559804683e-003   1.1269900156e-003  -3.9658934270e-004
  1.7293750000e+008  -9.6820006837e-004   6.5719015296e-004   1.0004371861e+000  -3.2455552161e-003   1.0004066977e+000  -1.9809244889e-003   9.9089872315e-004  -6.5143498238e-004
  1.8152500000e+008  -4.8604278092e-004   5.8723474751e-004   1.0000513384e+000  -4.4578544581e-003   9.9980150526e-001  -1.4782608873e-003   6.6335599332e-004  -8.2610322379e-004
  1.9011250000e+008  -6.2892145249e-004   6.2362899523e-004   9.9782935835e-001  -6.1633637746e-003   1.0010684548e+000  -2.3816087814e-003   5.2916981189e-004  -1.2337096348e-003
  1.9870000000e+008  -7.0046080824e-005   5.2781877858e-004   9.9705922861e-001  -4.7452115478e-003   1.0003774261e+000  -1.8628275732e-003   2.6462193868e-004  -3.7141759522e-004
  2.0728750000e+008   2.3094763031e-004   2.8442743903e-004   9.9832344250e-001  -4.6205540822e-003   1.0005512856e+000  -1.7291280471e-003   1.1857467488e-004  -4.2649322547e-004
  2.1587500000e+008   2.6728879326e-004  -4.2809262046e-004   9.9960140813e-001  -5.0282402492e-003   9.9997142825e-001  -1.4578912729e-003  -6.1801838430e-004   9.8007559846e-005
  2.2446250000e+008   2.3092816226e-004  -3.3225342021e-004   9.9912015014e-001  -4.0071863700e-003   1.0001452003e+000  -1.4405166982e-003  -2.9640130038e-004   1.8003098058e-004
  2.3305000000e+008  -3.6790871053e-005   7.3794605307e-005   9.9756308250e-001  -6.6443933743e-003   1.0007008486e+000  -1.6871229861e-003  -6.6592148858e-004   5.0224938163e-005
  2.4163750000e+008  -2.0248179405e-004  -6.9502897836e-004   9.9789257661e-001  -6.6734797197e-003   1.0008062543e+000  -2.8847381055e-003  -4.7447750199e-004   1.3510459784e-004
  2.5022500000e+008  -4.7829748493e-004  -6.8717070810e-004   1.0008186665e+000  -4.5100544475e-003   1.0001555332e+000  -1.7168690062e-003  -7.3326316613e-004   8.9816943963e-004
  2.5881250000e+008  -5.9628857820e-004  -7.1683487173e-004   1.0001751216e+000  -4.3003786919e-003   1.0005902894e+000  -2.5664316114e-003  -3.1377841289e-004   9.1419436285e-004
  2.6740000000e+008  -9.2548739857e-004  -3.5790022221e-004   9.9994212676e-001  -5.3816574485e-003   1.0011073066e+000  -3.0252503042e-003  -5.2475518803e-004   4.5774381054e-004
  2.7598750000e+008  -3.4376099316e-004  -3.3250066125e-004   9.9938518974e-001  -6.0095614659e-003   1.0007125987e+000  -2.5982364401e-003  -2.5776503450e-004   8.2552413798e-004
  2.8457500000e+008  -8.0640263430e-004  -2.0091057319e-004   9.9999324237e-001  -5.9772807647e-003   1.0008464230e+000  -1.8593548164e-003  -1.6266251229e-004   6.0732358179e-004
  2.9316250000e+008  -4.9650141807e-004  -4.3611934331e-004   9.9991340534e-001  -4.8796903675e-003   1.0002948113e+000  -2.4268016329e-003  -3.2807826100e-004   4.9098078002e-004
  3.0175000000e+008  -1.1146301449e-003   3.6239686447e-004   1.0007010266e+000  -7.0522723041e-003   1.0008724456e+000  -1.3827080966e-003  -3.3629033753e-004   4.3756515369e-004
  3.1033750000e+008  -1.0726351704e-003   3.1770430203e-004   1.0011170867e+000  -4.7718117278e-003   1.0012954688e+000  -2.6408398560e-003  -3.6471292773e-004   6.4547026716e-004
  3.1892500000e+008  -7.8446654393e-004   9.0334166053e-005   1.0000650327e+000  -5.0140060391e-003   1.0002994696e+000  -2.0679076030e-003  -6.3765818163e-004   5.7963016037e-004
  3.2751250000e+008  -8.1623202948e-004   3.3128354428e-004   1.0009916271e+000  -7.0049212933e-003   1.0003867840e+000  -3.3527791908e-003  -3.2153222607e-004   3.3221776792e-004
  3.3610000000e+008  -7.3486295234e-004   2.0203838914e-004   1.0006356869e+000  -4.8028589020e-003   1.0010430686e+000  -2.6962266515e-003  -3.1280828982e-004   1.7643518996e-004
  3.4468750000e+008  -6.9162925428e-004   7.9757220632e-005   1.0010983013e+000  -4.9207942329e-003   1.0003092523e+000  -2.6205688901e-003  -5.1747821343e-004   4.4968096216e-005
  3.5327500000e+008  -6.4648847973e-004   1.2142371945e-004   1.0011511475e+000  -5.0715293931e-003   9.9996497666e-001  -2.6492881129e-003  -6.3434320847e-004   9.8268488791e-005
  3.6186250000e+008  -4.0364096525e-004   6.6151550495e-004   1.0006034730e+000  -6.1752242713e-003   1.0007839233e+000  -2.5498458666e-003  -6.0075609709e-004   3.1486848840e-004
  3.7045000000e+008  -7.9709453438e-004   7.0183822873e-004   9.9976629944e-001  -5.4568716929e-003   1.0004278816e+000  -2.7660801201e-003  -8.1811919473e-004   3.1571872636e-004
  3.7903750000e+008  -1.8949187813e-004   5.4394786569e-004   1.0013556457e+000  -4.3736782363e-003   1.0006788217e+000  -2.8043345126e-003  -4.6741073165e-004   4.3665698166e-004
  3.8762500000e+008  -1.5801351500e-004   6.7214907541e-004   1.0021615581e+000  -4.2579657566e-003   1.0003309817e+000  -2.3504628383e-003  -2.6085105858e-004   5.0433150958e-004
  3.9621250000e+008  -3.2372420155e-005   2.2146238662e-004   9.9767296815e-001  -6.0556598799e-003   1.0002514349e+000  -2.7656659949e-003  -4.9419278225e-004   3.2920150725e-004
  4.0480000000e+008   1.9965956837e-004   1.4940769766e-004   9.9806030674e-001  -6.8532080607e-003   1.0002785199e+000  -2.6546708206e-003  -1.8437126900e-004   4.4712229747e-004
  4.1338750000e+008   3.2223912930e-004  -8.4677579146e-006   1.0004228807e+000  -5.0035464704e-003   1.0008545534e+000  -2.6819689907e-003   3.2913718858e-006   3.2742224384e-004
  4.2197500000e+008  -8.0662800952e-005  -3.5163434401e-004   1.0000786567e+000  -5.7275658068e-003   1.0006565012e+000  -2.8635247327e-003   2.0178714028e-004   6.6998429780e-004
  4.3056250000e+008   6.6576191578e-006   6.7421552494e-006   1.0003197279e+000  -4.6818529299e-003   1.0006596583e+000  -2.6443221734e-003   6.7313962189e-004   3.1475354614e-004
  4.3915000000e+008   1.1085459431e-004  -2.6485068306e-004   1.0023666502e+000  -3.7471784801e-003   1.0005618542e+000  -2.9533147508e-003   5.6610952858e-004   2.6803738088e-004
  4.4773750000e+008   1.2972568233e-004  -5.4791421189e-004   1.0012354475e+000  -5.5238786047e-003   1.0000066556e+000  -3.2957312866e-003   6.3575240257e-004   9.6353740236e-005
  4.5632500000e+008  -1.5052253537e-004  -1.8429337017e-004   9.9970056998e-001  -4.0809504209e-003   1.0005952428e+000  -2.7823163608e-003   6.2218166525e-004   1.6974019163e-004
  4.6491250000e+008  -2.0813854779e-004  -1.9228059020e-004   1.0002433202e+000  -6.3451144807e-003   1.0002654072e+000  -2.9078950814e-003   6.7277254556e-004  -2.9140304086e-005
  4.7350000000e+008  -4.8903256491e-004  -1.7778018031e-004   9.9972439585e-001  -5.6456956461e-003   1.0004064679e+000  -2.9774448891e-003   7.1599132961e-004  -6.3525371263e-005
  4.8208750000e+008  -2.8329728371e-004   1.8599723896e-004   9.9736121146e-001  -5.8960866066e-003   9.9987725639e-001  -2.5599570136e-003   6.0908034738e-004  -6.1332642608e-005
  4.9067500000e+008   2.9691740967e-005  -4.0956777867e-004   9.9691174545e-001  -6.4667458419e-003   9.9996147470e-001  -3.5109086275e-003   4.3390040538e-004   5.6337930485e-005
  4.9926250000e+008   9.4481952398e-005  -4.5713405851e-004   9.9719301622e-001  -5.8686286296e-003   9.9964671872e-001  -2.6511310115e-003   6.0585109464e-004   7.7827843592e-005
  5.0785000000e+008  -6.0071558412e-004  -2.1282184097e-004   9.9730569423e-001  -6.2648626832e-003   9.9959023268e-001  -2.1430120124e-003   5.5949848719e-004   3.1421483128e-004
  5.1643750000e+008  -7.3067477321e-004   6.6628940657e-005   9.9754257019e-001  -4.9753847766e-003   1.0000893353e+000  -2.6520331612e-003   8.2638932731e-004   3.6487119741e-005
  5.2502500000e+008  -5.0030816414e-004   7.1001466948e-004   9.9757673916e-001  -5.0177225194e-003   1.0006663373e+000  -1.5306572834e-003   5.1050012943e-004  -5.7785272817e-004
  5.3361250000e+008   3.3046197981e-004   4.9579499024e-004   9.9814189265e-001  -6.8775024431e-003   1.0006946612e+000  -2.4924890153e-003   4.4345369732e-005  -6.2083771128e-004
  5.4220000000e+008   8.1359776941e-004   1.9626604736e-004   9.9845182726e-001  -5.7092356273e-003   1.0010921325e+000  -2.8675272884e-003  -7.1940475584e-004  -4.4771361020e-004
  5.5078750000e+008   5.8893188883e-004  -5.1840584351e-004   9.9859394009e-001  -6.5319688456e-003   1.0003233058e+000  -3.2576513963e-003  -9.8041059025e-004  -2.7600957476e-004
  5.5937500000e+008   5.0891674805e-004  -7.6367658156e-004   9.9830860245e-001  -6.2590712400e-003   1.0002953959e+000  -2.8046989772e-003  -1.0928151687e-003   1.3308648099e-004
  5.6796250000e+008   2.5587521294e-004  -9.5359748514e-004   9.9973863501e-001  -6.2145402400e-003   1.0003643104e+000  -3.2153810824e-003  -1.0409720122e-003   5.5657885497e-004
  5.7655000000e+008  -3.4039462518e-004  -1.0902616899e-003   9.9815821890e-001  -7.6672357038e-003   1.0004716288e+000  -3.3389543900e-003  -7.6141267582e-004   6.8415963230e-004
  5.8513750000e+008  -6.0058957170e-004  -8.3026603894e-004   9.9791666841e-001  -7.9346202535e-003   1.0000483353e+000  -3.2949019560e-003  -8.1023158638e-004   1.0018694979e-003
  5.9372500000e+008  -8.5125425630e-004  -8.1376262938e-004   9.9659401061e-001  -6.4210692487e-003   1.0003029665e+000  -3.4437631765e-003  -5.7514284784e-004   1.0866884350e-003
  6.0231250000e+008  -1.0309402422e-003  -4.2674492349e-004   9.9412794213e-001  -6.9896312337e-003   1.0003035535e+000  -3.5939106855e-003  -2.9162289418e-004   9.6800154118e-004
  6.1090000000e+008  -1.0626497336e-003  -4.2083498358e-005   9.9598195872e-001  -8.1500751168e-003   9.9952566874e-001  -2.2534851152e-003  -3.7363552947e-004   9.6358689517e-004
  6.1948750000e+008  -7.9214756880e-004   1.4071486123e-004   9.9533922349e-001  -6.2710916917e-003   9.9954440023e-001  -3.1448332974e-003  -2.0888356034e-004   6.9565531219e-004
  6.2807500000e+008  -7.0725900677e-004   1.4521609401e-005   9.9721479121e-001  -7.0787985834e-003   1.0003588387e+000  -3.7047362250e-003   1.3061852893e-004   3.5683658298e-004
  6.3666250000e+008  -3.1135008994e-004   5.9202502029e-004   9.9896517980e-001  -5.1561146307e-003   9.9996474261e-001  -3.6365026287e-003   2.1952876045e-004   3.4702752600e-004
  6.4525000000e+008   1.4293394362e-004   4.9994775000e-004   9.9560738400e-001  -6.3399992265e-003   9.9976184169e-001  -3.2582492210e-003   2.4680128078e-004  -9.7854216191e-005
  6.5383750000e+008   2.9143953185e-004   3.1795943822e-004   9.9701635636e-001  -6.2794754842e-003   1.0001204548e+000  -2.9731553988e-003   3.8104191062e-004  -1.5014708141e-004
  6.6242500000e+008   4.0227511065e-004   4.6970061882e-005   9.9810840972e-001  -6.4054999168e-003   1.0001891118e+000  -3.8158328573e-003   4.2922371315e-004  -5.3502441824e-004
  6.7101250000e+008   4.0383508682e-004  -2.5486812785e-004   9.9795040092e-001  -4.9232795470e-003   1.0002521058e+000  -2.6584576618e-003   4.3706561668e-004  -6.6221810953e-004
  6.7960000000e+008   5.6283488365e-004  -6.3183491516e-004   9.9664213574e-001  -5.8017190954e-003   1.0002741848e+000  -3.7096672346e-003   1.1926338689e-004  -9.4871187411e-004
  6.8818750000e+008   2.0707472646e-004  -9.5319313293e-004   9.9603423755e-001  -6.8287583536e-003   1.0001656588e+000  -3.4773300898e-003  -2.4109461482e-005  -9.7595871255e-004
  6.9677500000e+008  -4.1092112721e-005  -1.0061245201e-003   9.9865035641e-001  -5.0309896590e-003   1.0004207809e+000  -3.7880873028e-003  -5.0197480038e-005  -1.2237355561e-003
  7.0536250000e+008  -3.5547036310e-004  -1.0337873722e-003   9.9680408837e-001  -6.5863361369e-003   9.9980473041e-001  -3.3098127211e-003  -2.7814759429e-004  -1.3074573215e-003
  7.1395000000e+008  -8.4493676514e-004  -8.8724413781e-004   9.9766083212e-001  -5.0351583584e-003   1.0002495934e+000  -3.8054463505e-003  -5.8275804592e-004  -1.2086027780e-003
  7.2253750000e+008  -1.2255557739e-003  -6.4501981146e-004   9.9673006355e-001  -6.7622253957e-003   9.9955752298e-001  -3.2685689905e-003  -8.3802447177e-004  -1.1523730358e-003
  7.3112500000e+008  -1.3069102175e-003  -3.0361601116e-004   9.9641066557e-001  -7.0138698974e-003   1.0001800761e+000  -3.0009446896e-003  -9.1724541738e-004  -9.3027285729e-004
  7.3971250000e+008  -1.0834538588e-003   1.0638195207e-004   9.9664963262e-001  -8.7569060675e-003   9.9994179871e-001  -4.1768106497e-003  -1.1232746402e-003  -5.9910451447e-004
  7.4830000000e+008  -7.9465131391e-004   6.1898546653e-004   9.9775579608e-001  -6.1901408449e-003   1.0001084287e+000  -3.8836668263e-003  -1.1189828596e-003  -4.3258488499e-004
  7.5688750000e+008  -5.0711076604e-004   7.5164067286e-004   9.9535621639e-001  -7.5470325392e-003   9.9961955093e-001  -3.6407661316e-003  -1.1307372556e-003  -1.1100298298e-004
  7.6547500000e+008  -7.7060402390e-005   8.7814705677e-004   9.9755485196e-001  -7.1558154821e-003   9.9850694889e-001  -4.1109166144e-003  -1.0713726725e-003   1.0061014900e-004
  7.7406250000e+008   1.5124664918e-004   7.0862608492e-004   9.9660680278e-001  -7.2264069808e-003   9.9976842235e-001  -3.8181362523e-003  -6.9461785416e-004   5.0213746546e-004
  7.8265000000e+008   3.7227374039e-004   3.9278626300e-004   9.9667739673e-001  -6.9695391786e-003   9.9922853201e-001  -3.1260720962e-003  -7.1042010384e-004   6.8374351226e-004
  7.9123750000e+008   6.1350697995e-004   1.2747523727e-004   9.9716176961e-001  -5.8963933127e-003   9.9939096890e-001  -2.6995950137e-003  -4.8570114208e-004   7.1625004476e-004
  7.9982500000e+008   4.8507927265e-004   1.8555864555e-004   9.9705584031e-001  -5.8450685096e-003   9.9986570513e-001  -2.4906045458e-003  -3.6731376805e-004   6.9781633621e-004
  8.0841250000e+008   7.8572241034e-004   1.8604003220e-004   9.9705495361e-001  -7.1726054667e-003   9.9992235021e-001  -3.6396886229e-003  -3.3331283462e-004   8.1736769117e-004
  8.1700000000e+008   9.2402065331e-004  -1.9850303118e-005   9.9776221465e-001  -6.1105761513e-003   9.9969382915e-001  -2.9996216278e-003  -3.8185459507e-004   7.6860219026e-004
  8.2558750000e+008   1.0876146386e-003  -2.6293627066e-004   9.9840808048e-001  -5.8156390265e-003   1.0005858845e+000  -3.9289337134e-003  -4.0465532547e-004   1.0562321654e-003
  8.3417500000e+008   1.0967718858e-003  -9.1182145352e-004   9.9926033268e-001  -6.4016758651e-003   1.0012021156e+000  -4.0001222284e-003  -4.1891593006e-004   1.1458874584e-003
  8.4276250000e+008   7.3276479068e-004  -1.2364890471e-003   9.9702288549e-001  -7.1690605378e-003   1.0001290200e+000  -4.6005293326e-003  -5.0470814541e-005   1.2227289051e-003
  8.5135000000e+008   6.0036421296e-005  -1.2527904591e-003   9.9755505811e-001  -7.2213636652e-003   1.0010142423e+000  -3.4721130037e-003   3.0969458376e-004   1.5456309552e-003
  8.5993750000e+008  -3.9365125959e-005  -1.3039461429e-003   9.9731358259e-001  -6.8112292498e-003   1.0006672132e+000  -3.8456791970e-003   3.6386691115e-004   1.2214424748e-003
  8.6852500000e+008  -5.2288481291e-004  -9.9485224353e-004   9.9651584383e-001  -6.8117771779e-003   1.0002266901e+000  -4.1277144496e-003   7.5929956728e-004   9.2962365037e-004
  8.7711250000e+008  -6.1876555436e-004  -5.1447838678e-004   9.9755597660e-001  -6.9183885564e-003   1.0002550988e+000  -4.3187298052e-003   6.5419395531e-004   4.5725037287e-004
  8.8570000000e+008  -3.7813589848e-004  -2.6966135087e-004   9.9889161316e-001  -6.9608517374e-003   9.9968466226e-001  -4.8174283178e-003   7.8922147507e-004   1.1800086470e-004
  8.9428750000e+008  -2.2521960702e-004  -1.3623240883e-004   9.9634859176e-001  -5.9491284317e-003   1.0006455875e+000  -4.5547265287e-003   3.6756612255e-004  -1.6101566648e-004
  9.0287500000e+008   1.6695971058e-004  -2.1919537335e-004   9.9779740537e-001  -6.5154269149e-003   9.9943337886e-001  -5.4219292893e-003   1.6012997632e-004  -4.0712865295e-004
  9.1146250000e+008   2.8771312797e-004  -1.8784440574e-004   9.9845701300e-001  -8.7426039758e-003   9.9911324817e-001  -5.1749130346e-003  -3.0966461892e-004  -6.1568176590e-004
  9.2005000000e+008   4.3212323350e-004  -4.8186438465e-004   9.9810472238e-001  -6.0556891157e-003   9.9902291939e-001  -3.4239387748e-003  -6.0756267129e-004  -5.8464635296e-004
  9.2863750000e+008   5.4547492756e-004  -6.4028871432e-004   9.9720598276e-001  -6.4271504073e-003   9.9904351403e-001  -4.9019331015e-003  -7.4330000457e-004  -6.2043938818e-004
  9.3722500000e+008   4.9952760102e-004  -8.6670881338e-004   9.9684032795e-001  -8.0708257115e-003   9.9861393686e-001  -4.4981398755e-003  -1.0847615284e-003  -6.4085658436e-004
  9.4581250000e+008   3.5506115092e-004  -1.1177737669e-003   9.9676015168e-001  -6.8429745746e-003   9.9967973868e-001  -3.6516584873e-003  -1.2988948513e-003  -5.2383088077e-004
  9.5440000000e+008  -5.3777434661e-005  -1.3038984247e-003   9.9710128277e-001  -7.4321492319e-003   9.9904884733e-001  -3.4038548928e-003  -1.5001291675e-003  -2.6285574867e-004
  9.6298750000e+008  -5.0560432742e-004  -1.3618084897e-003   9.9974454047e-001  -6.4978496881e-003   9.9969079463e-001  -4.5047103568e-003  -1.6052536660e-003  -1.9833134745e-004
  9.7157500000e+008  -7.1032623888e-004  -1.2332179130e-003   9.9709214152e-001  -6.8643672197e-003   1.0001766592e+000  -4.3096645809e-003  -1.4142558951e-003  -8.3505512809e-005
  9.8016250000e+008  -9.9874711391e-004  -9.2501940264e-004   9.9706082097e-001  -8.1139029998e-003   9.9991991202e-001  -4.5833017956e-003  -1.5486761651e-003   9.3582436099e-005
  9.8875000000e+008  -1.1090384550e-003  -5.9046265040e-004   9.9773707158e-001  -6.7510297342e-003   9.9943108049e-001  -4.3633670406e-003  -1.3605672538e-003   4.6637495143e-004
  9.9733750000e+008  -1.1461621163e-003  -1.5768689514e-004   9.9553802241e-001  -7.2460993001e-003   9.9931755063e-001  -3.6266966768e-003  -1.1707812418e-003   1.6036664528e-004
  1.0059250000e+009  -9.0894227137e-004   1.7552296288e-004   9.9572832456e-001  -6.8844981886e-003   1.0004574355e+000  -4.5755571535e-003  -7.1461410539e-004   2.8608028981e-004
  1.0145125000e+009  -7.5036962357e-004   4.8717567005e-004   9.9456342017e-001  -1.0146295526e-002   9.9998720084e-001  -3.8367250054e-003  -3.2785901536e-004   3.5124820340e-004
  1.0231000000e+009  -4.5849252679e-004   5.9212532666e-004   9.9536238205e-001  -6.0863725325e-003   9.9950148993e-001  -4.2334894424e-003  -1.4366537328e-004   2.8927770769e-004
  1.0316875000e+009  -1.1565720347e-004   8.7895572870e-004   9.9584156339e-001  -7.9516979533e-003   9.9926462381e-001  -4.7729501838e-003   3.7088180167e-005   2.2658342272e-004
  1.0402750000e+009   2.8722494669e-004   7.1875120851e-004   9.9537961024e-001  -7.8794754474e-003   9.9921934733e-001  -3.5140617250e-003   4.0626457454e-004   9.4144071274e-005
  1.0488625000e+009   4.6845642185e-004   4.5064043582e-004   9.9797621672e-001  -6.8547591879e-003   9.9859227253e-001  -4.5297606000e-003   6.4629133012e-004  -1.7011296436e-004
  1.0574500000e+009   5.5281969485e-004   1.4026609101e-004   9.9803867516e-001  -7.6007033236e-003   9.9944632777e-001  -4.0369197851e-003   9.3984047489e-004  -4.3738864676e-004
