# Hz S RI R 50.000000
! Metas.Vna.Tools, 2.8.8664.20301
! Metas.Vna.Data, 2.8.8664.20285
! Created: UTC 2024.02.11 10:08:23
! FREQ                re:S1,1             im:S1,1             re:S2,1             im:S2,1             re:S1,2             im:S1,2             re:S2,2             im:S2,2          
  1.3000000000e+008  -5.4322872444e-004  -1.9865953655e-003   9.9374108469e-001  -6.1323795453e-003   1.0002419521e+000  -6.7271121510e-004   1.2775641545e-003   4.8999842723e-004
  1.3858750000e+008  -2.3821622190e-004  -1.8003105767e-003   9.9604449753e-001  -4.6569024328e-003   1.0005358826e+000  -1.9245244010e-004   8.7305184340e-004  -2.3182395931e-004
  1.4717500000e+008  -1.5533494426e-003  -1.5198447329e-003   9.9358802971e-001  -7.2617086529e-003   1.0007636103e+000  -5.3733986743e-004   1.0259363773e-003  -1.6122943613e-004
  1.5576250000e+008  -1.3625319764e-003   2.4743646320e-004   9.9466877403e-001  -6.1398040204e-003   1.0003093701e+000  -4.1415677316e-004   1.0164478739e-003  -1.1785253188e-003
  1.6435000000e+008  -5.9386397298e-004   3.5072471630e-004   9.9574554492e-001  -5.1874781048e-003   1.0012211609e+000  -7.7670244355e-004   1.5708498727e-003  -2.3129224944e-004
  1.7293750000e+008  -3.5661588935e-004   5.4407603507e-004   9.9439175571e-001  -5.3591491803e-003   1.0008825177e+000  -2.0978613741e-004   5.4007356057e-004  -1.0666964813e-003
  1.8152500000e+008  -6.4323941372e-004   1.9857326306e-004   9.9280672276e-001  -6.2179927304e-003   1.0001896082e+000  -4.8771987447e-004   7.3176600347e-004  -5.9663569332e-004
  1.9011250000e+008  -6.8151076371e-004   4.7993696124e-004   9.9629980174e-001  -7.0642203934e-003   1.0002851717e+000  -8.7872322959e-004   5.9464274876e-004  -1.1661199501e-003
  1.9870000000e+008  -2.8868372798e-005   5.7212098504e-004   9.9494849635e-001  -6.0534958902e-003   1.0000661129e+000  -7.5627309897e-004   3.2926872301e-004  -1.4600427132e-004
  2.0728750000e+008  -4.4302132746e-004   2.6134246958e-004   9.9519228643e-001  -5.8815660836e-003   1.0014810773e+000  -8.3699625818e-004   1.7150394434e-004  -4.0544230762e-004
  2.1587500000e+008   2.7423592060e-004  -2.6436243117e-004   9.9415260271e-001  -5.5005341357e-003   1.0003123143e+000   5.0870127524e-005  -6.1045953506e-004   4.8855560611e-005
  2.2446250000e+008   7.3501597586e-004  -7.4027143069e-004   9.9369286884e-001  -5.9648669803e-003   1.0005412923e+000  -9.7855409873e-004  -1.0510447362e-004   9.8297376851e-005
  2.3305000000e+008  -1.2952423281e-004  -3.7689783609e-004   9.9348137876e-001  -6.7910368561e-003   1.0009650007e+000  -9.1712080529e-004  -1.5040126474e-004   1.6592885812e-004
  2.4163750000e+008  -3.6402993228e-004  -4.9719719848e-004   9.9544420246e-001  -7.2459444332e-003   1.0002411934e+000  -1.4948126500e-003  -8.3649517808e-004  -1.1432733876e-005
  2.5022500000e+008  -5.2268983093e-004  -5.9325431310e-004   9.9502396795e-001  -5.1121139587e-003   1.0005200152e+000  -9.3899099469e-004  -1.1885672309e-003   6.5497473238e-004
  2.5881250000e+008  -4.3758519826e-004  -2.3462201033e-004   9.9451774026e-001  -5.2436301524e-003   1.0008402051e+000  -1.4017570525e-003  -4.4377906401e-004   7.8619352327e-004
  2.6740000000e+008  -8.8553912071e-004  -5.5674278978e-004   9.9580771798e-001  -5.8759910155e-003   1.0003344944e+000  -2.3156030307e-003  -8.0806694387e-004   2.9663372723e-004
  2.7598750000e+008  -4.0707614787e-004  -2.2479754210e-004   9.9334426139e-001  -8.7576572807e-003   1.0001962748e+000  -6.4414767896e-004  -2.8437520011e-004   5.6329523059e-004
  2.8457500000e+008  -7.6102651426e-004  -4.2534035631e-004   9.9551715163e-001  -6.2690968827e-003   1.0007886108e+000  -1.0340291321e-003  -1.9896846587e-004   7.7575517914e-004
  2.9316250000e+008  -2.6138603482e-004  -4.8689250535e-004   9.9574063237e-001  -5.2706177095e-003   1.0009398078e+000  -1.7137780511e-003  -9.4388315482e-005   4.2321188678e-004
  3.0175000000e+008  -9.8809370709e-004   2.0510175079e-004   9.9585442927e-001  -8.4272039273e-003   1.0008293660e+000  -1.5899672316e-003  -6.0309512021e-004   4.8071030614e-004
  3.1033750000e+008  -9.8559388554e-004   3.8230709990e-004   9.9747781447e-001  -5.1575146287e-003   1.0013986120e+000  -1.6506076734e-003  -7.6481126970e-004   5.8408151575e-004
  3.1892500000e+008  -8.2171597964e-004   7.7929657423e-005   9.9366480643e-001  -6.0914560891e-003   1.0003201588e+000  -6.1562341112e-004  -6.2831159985e-004   4.3229420913e-004
  3.2751250000e+008  -8.8746040028e-004   1.8427199989e-004   9.9436339786e-001  -8.2454442335e-003   9.9988806399e-001  -2.2824769199e-003  -6.2969898757e-004   3.5348361162e-004
  3.3610000000e+008  -6.7745727027e-004   1.3975813652e-004   9.9549657681e-001  -4.5374363169e-003   1.0006563098e+000  -1.5511373105e-003  -6.4488549525e-004   2.3483325600e-004
  3.4468750000e+008  -6.0409898137e-004   1.7975309642e-004   9.9548061307e-001  -6.7405121281e-003   1.0010003031e+000  -1.4188273534e-003  -2.9978149593e-004   1.7809493025e-004
  3.5327500000e+008  -5.6774790261e-004   4.1480242867e-004   9.9653257081e-001  -7.6426035613e-003   9.9964729968e-001  -2.3535382711e-003  -4.4542790493e-004   3.3698248652e-004
  3.6186250000e+008  -5.3816425618e-004   3.7281891166e-004   9.9671212012e-001  -8.0631541101e-003   1.0003542715e+000  -1.5224333704e-003  -5.9293430056e-004   2.6386255056e-004
  3.7045000000e+008  -7.0032310182e-004   5.5186571058e-004   9.9334370100e-001  -6.5567797144e-003   1.0007488476e+000  -2.1634924493e-003  -6.6802508743e-004   2.7074488942e-004
  3.7903750000e+008  -2.2229059482e-004   5.2504808607e-004   9.9408147830e-001  -5.6510486905e-003   1.0001505894e+000  -1.7627964036e-003  -4.2068391196e-004   3.3704547299e-004
  3.8762500000e+008  -1.4018227553e-004   4.8477947719e-004   9.9633467853e-001  -5.6385123752e-003   1.0004688525e+000  -1.5388896149e-003  -3.8205340595e-004   5.5720446174e-004
  3.9621250000e+008  -9.6538337155e-005   3.4734228389e-004   9.9453735354e-001  -7.1672693363e-003   1.0007082183e+000  -2.0522265868e-003  -3.4981039245e-004   7.6431810802e-004
  4.0480000000e+008   2.4810217369e-004   2.6234451145e-004   9.9612075882e-001  -6.3685474075e-003   1.0006366616e+000  -1.8183455132e-003  -2.2440440586e-004   3.9386415049e-004
  4.1338750000e+008   1.7421285718e-004   1.5699345789e-004   9.9577884026e-001  -5.8688123315e-003   1.0010882944e+000  -1.3274009993e-003   3.4907566029e-004   4.0341707409e-004
  4.2197500000e+008  -1.3738028002e-004   2.7964969736e-005   9.9663350363e-001  -6.5884365887e-003   1.0010256433e+000  -1.7404153064e-003   2.8077847360e-004   5.2533235461e-004
  4.3056250000e+008   1.0130781362e-004  -3.1841575013e-005   9.9559086465e-001  -6.5796068687e-003   1.0006413942e+000  -1.8840967031e-003   4.1291868006e-004   7.0964742349e-005
  4.3915000000e+008   6.4599538188e-005  -4.5811841692e-004   9.9542336268e-001  -6.2691032827e-003   1.0005100210e+000  -1.9709662961e-003   4.7412551914e-004   3.4582489914e-004
  4.4773750000e+008   1.6805286154e-004  -3.0268458349e-004   9.9820036398e-001  -6.2247328756e-003   1.0001164304e+000  -2.2975699631e-003   6.9408880018e-004   1.0771044925e-004
  4.5632500000e+008  -2.4851446684e-004  -5.7898851318e-004   9.9509007937e-001  -6.0271062088e-003   1.0004404147e+000  -1.9753362453e-003   5.2961802592e-004   4.6755833249e-005
  4.6491250000e+008  -5.6057392062e-004  -1.5809421692e-004   9.9455723645e-001  -7.3750286517e-003   1.0001916459e+000  -1.8244451035e-003   5.6629924144e-004   5.2721458735e-005
  4.7350000000e+008  -2.8037079182e-004  -2.0450341740e-004   9.9548464118e-001  -6.3634035759e-003   1.0005055706e+000  -2.1012703106e-003   5.1993227733e-004   6.9123845192e-005
  4.8208750000e+008  -4.0393120781e-004   1.0272785987e-004   9.9303658498e-001  -7.6563023862e-003   9.9974005357e-001  -1.5181113675e-003   7.0839546606e-004   1.4259715261e-004
  4.9067500000e+008  -1.2263457253e-004  -2.9738262064e-004   9.9297394861e-001  -7.1626912901e-003   1.0001583893e+000  -2.0471343130e-003   2.8441078116e-004  -3.7536830556e-005
  4.9926250000e+008  -1.5529907941e-004  -4.0346673700e-004   9.9216192559e-001  -7.1651282895e-003   9.9983817292e-001  -2.1435111259e-003   4.3862982204e-004  -6.0072281215e-005
  5.0785000000e+008  -3.4416018384e-004  -2.1161789895e-004   9.9226212674e-001  -7.6636297338e-003   1.0000519049e+000  -1.4071863153e-003   5.0974983330e-004   2.4741108889e-004
  5.1643750000e+008  -6.0354241183e-004  -2.6711489071e-005   9.9089007811e-001  -6.9439273688e-003   1.0004672085e+000  -1.4629334736e-003   7.2077171893e-004  -1.9355715012e-004
  5.2502500000e+008  -4.4702927634e-004   6.2190972300e-004   9.9356113294e-001  -6.4053810581e-003   1.0008394068e+000  -1.0076558456e-003   1.7417830583e-004  -4.1451836157e-004
  5.3361250000e+008   4.6005015010e-004   5.8508519778e-004   9.9708830272e-001  -7.1215489817e-003   1.0007777912e+000  -1.5244103826e-003  -5.0515411466e-005  -8.0550862732e-004
  5.4220000000e+008   6.9479236333e-004  -1.3330165695e-005   9.9588195642e-001  -8.4129647184e-003   1.0009064761e+000  -1.9388808654e-003  -8.2488556398e-004  -3.9520446892e-004
  5.5078750000e+008   6.3764519697e-004  -5.7134395671e-004   9.9489893848e-001  -7.9858450317e-003   1.0003093952e+000  -2.2981443129e-003  -9.7445305616e-004  -1.9499330153e-004
  5.5937500000e+008   3.8486079319e-004  -6.4318690114e-004   9.9462346849e-001  -6.2206590101e-003   1.0005514550e+000  -2.3277866092e-003  -9.9430703256e-004   1.6684196196e-004
  5.6796250000e+008   2.6316901350e-004  -9.7394998165e-004   9.9478360700e-001  -7.6514104064e-003   1.0001816996e+000  -1.9106992044e-003  -1.1557941787e-003   5.6444923483e-004
  5.7655000000e+008  -2.9383683636e-004  -1.1058083711e-003   9.9580204744e-001  -9.1666777925e-003   1.0004138063e+000  -2.6387499014e-003  -1.0008267992e-003   9.1136898485e-004
  5.8513750000e+008  -4.2885843819e-004  -1.0923959437e-003   9.9486800838e-001  -6.5291025079e-003   9.9949358165e-001  -2.2715186466e-003  -8.8871750094e-004   9.8012157778e-004
  5.9372500000e+008  -6.5521981493e-004  -7.3676169482e-004   9.9448206388e-001  -6.3830202976e-003   1.0003069206e+000  -3.2079604224e-003  -5.9796989416e-004   1.2157633999e-003
  6.0231250000e+008  -1.0400308648e-003  -4.8198264745e-004   9.9593819858e-001  -5.5766706763e-003   9.9935426524e-001  -2.4407803228e-003  -3.7378767103e-004   9.6883557800e-004
  6.1090000000e+008  -8.9816830446e-004  -2.4641560107e-004   9.9093962904e-001  -8.5236843865e-003   1.0002515751e+000  -2.3324730382e-003  -2.5006769260e-004   9.9137171184e-004
  6.1948750000e+008  -9.5483889929e-004  -5.5028041608e-005   9.9050378439e-001  -8.8571265517e-003   9.9974165205e-001  -2.2856431407e-003  -1.5003124582e-004   6.8182730942e-004
  6.2807500000e+008  -8.1250488437e-004   4.8591307318e-006   9.9073665668e-001  -8.7694875799e-003   1.0000282155e+000  -2.4861924402e-003  -7.1614030244e-005   5.3420359682e-004
  6.3666250000e+008  -4.9152099305e-004   7.1452237276e-004   9.8984307745e-001  -8.2289312337e-003   1.0000018721e+000  -2.7754984009e-003   7.6471191869e-005   1.3748772515e-004
  6.4525000000e+008   2.6609924813e-005   4.4227141051e-004   9.9444692412e-001  -7.1051361174e-003   1.0000726789e+000  -2.4844461155e-003   3.1417781089e-004  -5.9299318013e-005
  6.5383750000e+008   2.7922095628e-004   2.6464878894e-004   9.9447674182e-001  -6.0425270135e-003   9.9984740765e-001  -2.0598997191e-003   2.7200748473e-004  -1.7985639281e-004
  6.6242500000e+008   4.4303726830e-004   7.7979258111e-005   9.9348587126e-001  -8.6008420450e-003   1.0006061919e+000  -2.6520304188e-003   4.4226634780e-004  -4.5909318694e-004
  6.7101250000e+008   4.1027079187e-004  -2.7999498492e-004   9.9456744567e-001  -7.0704833806e-003   1.0002390437e+000  -1.8230861120e-003   2.1727207312e-004  -7.5163952696e-004
  6.7960000000e+008   7.1300989934e-004  -6.6535098399e-004   9.9418693254e-001  -7.2614788617e-003   1.0002719983e+000  -2.7125333680e-003   2.7012820686e-004  -1.1571583076e-003
  6.8818750000e+008   3.0713124757e-004  -8.4234395668e-004   9.9120281475e-001  -8.2699055124e-003   1.0002507668e+000  -3.2441284373e-003  -1.0420645443e-004  -1.2893058901e-003
  6.9677500000e+008   2.2617515738e-004  -9.8823345125e-004   9.9111787475e-001  -7.7387783310e-003   9.9989403208e-001  -2.5566800331e-003  -2.4609821631e-004  -1.1723377403e-003
  7.0536250000e+008  -2.5829481371e-004  -1.1279816681e-003   9.9323060421e-001  -8.0957961091e-003   1.0002113009e+000  -2.5443986329e-003  -4.1865084776e-004  -1.4113556840e-003
  7.1395000000e+008  -6.5403603865e-004  -9.8624901106e-004   9.9314392926e-001  -7.4935429525e-003   1.0003460097e+000  -2.2719612882e-003  -7.1133666764e-004  -1.2632628807e-003
  7.2253750000e+008  -1.0554467923e-003  -8.7452310247e-004   9.9169997593e-001  -7.5582653866e-003   9.9994630358e-001  -2.3879568711e-003  -8.6745583236e-004  -1.1872089616e-003
  7.3112500000e+008  -1.1291416611e-003  -3.6122774073e-004   9.9301912844e-001  -7.1972848871e-003   1.0004276703e+000  -2.3289084466e-003  -9.6907445204e-004  -1.0227424726e-003
  7.3971250000e+008  -9.9577458179e-004   8.7044064506e-005   9.9477726244e-001  -7.2613802758e-003   1.0003737898e+000  -2.8997583125e-003  -1.2111466026e-003  -6.3260197271e-004
  7.4830000000e+008  -8.8298409762e-004   5.6881088917e-004   9.9392972360e-001  -7.0675697654e-003   9.9949460289e-001  -3.0807263322e-003  -1.2138232447e-003  -5.3755103362e-004
  7.5688750000e+008  -7.5922421456e-004   6.9652387990e-004   9.9451187892e-001  -8.2413257298e-003   9.9978665288e-001  -3.1102283813e-003  -1.2880505183e-003  -7.1457316632e-005
  7.6547500000e+008  -1.1945826358e-004   8.5060647022e-004   9.9505456444e-001  -9.2936054458e-003   1.0000405762e+000  -2.1920844035e-003  -1.1862257486e-003   4.6613715832e-005
  7.7406250000e+008   1.0234651045e-004   8.5687699902e-004   9.9426736182e-001  -7.9712967368e-003   9.9983384031e-001  -2.8115535139e-003  -7.0324452952e-004   2.5872279444e-004
  7.8265000000e+008   4.5954366449e-004   5.9214068606e-004   9.9408616655e-001  -6.6610147328e-003   9.9960262590e-001  -2.2448654607e-003  -8.4165318130e-004   5.6706017419e-004
  7.9123750000e+008   6.7694288884e-004   2.1809783114e-004   9.9258364157e-001  -6.5331686110e-003   9.9963780901e-001  -2.3501559107e-003  -6.2418993143e-004   5.4837455538e-004
  7.9982500000e+008   6.8904029645e-004   1.6955572159e-004   9.9390585903e-001  -7.2774453946e-003   1.0003130111e+000  -1.5731096922e-003  -4.5490670765e-004   8.0605402994e-004
  8.0841250000e+008   8.9087624864e-004   1.7181214672e-004   9.9323485868e-001  -7.7694929556e-003   9.9986042899e-001  -2.6079658699e-003  -3.2725743526e-004   8.5644797978e-004
  8.1700000000e+008   1.1429932521e-003  -1.6155167255e-004   9.9497014620e-001  -7.5233696995e-003   1.0006191250e+000  -2.3902289925e-003  -2.9331011902e-004   9.8109192515e-004
  8.2558750000e+008   1.1584158646e-003  -5.1738265148e-004   9.9334942112e-001  -7.0146695793e-003   1.0005766868e+000  -2.5989648547e-003  -3.1890565621e-004   9.5392102818e-004
  8.3417500000e+008   1.0351477712e-003  -1.0251782137e-003   9.9222416412e-001  -8.5246948401e-003   1.0011254920e+000  -3.3393002986e-003  -1.4375253065e-004   1.2033841738e-003
  8.4276250000e+008   5.4241716535e-004  -1.2924384118e-003   9.9265812020e-001  -8.5049338890e-003   1.0002337919e+000  -3.2113526773e-003   1.3279308644e-004   1.1884228325e-003
  8.5135000000e+008   1.0261643468e-004  -1.3330370845e-003   9.9369368036e-001  -6.9101116778e-003   1.0007929855e+000  -3.0812351039e-003   2.1818330793e-004   1.2302647791e-003
  8.5993750000e+008  -1.3956792072e-004  -1.3728933825e-003   9.9351142414e-001  -7.3564503754e-003   9.9965142699e-001  -3.0965005583e-003   3.0519210919e-004   1.0602348325e-003
  8.6852500000e+008  -4.0869765905e-004  -1.0933808346e-003   9.9205627269e-001  -7.6321023637e-003   1.0001265183e+000  -2.8913107114e-003   5.6058687679e-004   7.3570724648e-004
  8.7711250000e+008  -5.3385390868e-004  -6.1094978147e-004   9.9297620825e-001  -8.0276598547e-003   1.0004514483e+000  -3.9399363710e-003   6.1716528585e-004   3.6498231943e-004
  8.8570000000e+008  -5.1872465305e-004  -3.5395104766e-004   9.9439716666e-001  -7.9023428517e-003   1.0010367124e+000  -3.3791372971e-003   5.3410844750e-004   4.1434097719e-005
  8.9428750000e+008  -3.5204970411e-004  -1.2085752992e-004   9.9416094777e-001  -8.9487624707e-003   9.9993042780e-001  -3.1384547383e-003   2.0676332081e-004  -2.8882720043e-004
  9.0287500000e+008   3.0977774576e-005  -1.6038615158e-004   9.9410490088e-001  -8.0293273678e-003   9.9973607592e-001  -4.4243402533e-003  -1.4779678317e-004  -4.1489304800e-004
  9.1146250000e+008   2.2407415998e-004  -1.8443661044e-004   9.9389778243e-001  -7.6429842078e-003   9.9886108967e-001  -3.7105810755e-003  -3.8914922223e-004  -4.5646095054e-004
  9.2005000000e+008   2.5671410639e-004  -3.7533163889e-004   9.9292240156e-001  -7.3783738313e-003   9.9926218489e-001  -2.0672411684e-003  -6.5626279978e-004  -5.7507265024e-004
  9.2863750000e+008   5.2664681024e-004  -5.6107912744e-004   9.9563945902e-001  -7.4860238884e-003   9.9934615464e-001  -4.1641864020e-003  -9.3279608404e-004  -5.6320327307e-004
  9.3722500000e+008   3.9559638225e-004  -8.7181230494e-004   9.9420204439e-001  -7.1450178552e-003   9.9824318042e-001  -3.8345535502e-003  -1.1483549602e-003  -5.4307279926e-004
  9.4581250000e+008   2.6503252033e-004  -1.0334135341e-003   9.9257196967e-001  -6.4050458021e-003   1.0000767818e+000  -2.5103474655e-003  -1.2512811116e-003  -4.2280742946e-004
  9.5440000000e+008  -7.0409928906e-005  -1.2960121964e-003   9.9295684114e-001  -7.1175184606e-003   9.9999093785e-001  -2.3760681373e-003  -1.3862891877e-003  -3.1604422742e-004
  9.6298750000e+008  -3.7742871452e-004  -1.2715806526e-003   9.9554610370e-001  -6.5535416773e-003   9.9979254643e-001  -2.8031196477e-003  -1.5430506910e-003  -2.0827884703e-004
  9.7157500000e+008  -5.8731092836e-004  -1.3463393774e-003   9.9424032612e-001  -8.1167005121e-003   1.0009470966e+000  -3.9244607564e-003  -1.4746628161e-003  -6.0218942422e-005
  9.8016250000e+008  -8.7458781198e-004  -1.0552638040e-003   9.9439966087e-001  -8.1523931902e-003   9.9961861311e-001  -3.9940879523e-003  -1.4663491940e-003   1.0518191682e-004
  9.8875000000e+008  -1.2335135023e-003  -6.8812014629e-004   9.9480321618e-001  -6.2942514444e-003   9.9909089653e-001  -3.1834133617e-003  -1.3039238247e-003   2.7825461562e-004
  9.9733750000e+008  -1.1005423782e-003  -2.4948223307e-004   9.9527090020e-001  -7.5747192011e-003   9.9903245672e-001  -2.6966537828e-003  -1.1109283512e-003   7.3503438360e-005
  1.0059250000e+009  -1.0550690660e-003  -2.1524949233e-005   9.9588128970e-001  -6.1905380718e-003   1.0006707050e+000  -2.9972970521e-003  -7.5929305405e-004   2.4572831999e-004
  1.0145125000e+009  -8.6710095029e-004   4.4527930087e-004   9.9438771122e-001  -9.3745224094e-003   9.9951488377e-001  -3.1184203109e-003  -4.1365260232e-004   1.1664741979e-004
  1.0231000000e+009  -5.0576831263e-004   5.6602324113e-004   9.9541883283e-001  -6.6330930066e-003   9.9930623784e-001  -4.1183033931e-003  -1.6872560390e-004   2.5982651833e-004
  1.0316875000e+009  -3.0068989408e-004   6.9752793749e-004   9.9554589557e-001  -8.2746938885e-003   9.9948470529e-001  -3.7613028252e-003   1.1060233368e-004   1.1566689976e-004
  1.0402750000e+009   2.0345608124e-004   7.2635871969e-004   9.9424558496e-001  -7.8312620175e-003   9.9937050385e-001  -2.5783388914e-003   3.9547732472e-004  -6.3310214699e-005
  1.0488625000e+009   5.4036014222e-004   4.6549616063e-004   9.9485597930e-001  -7.8858641730e-003   9.9915367847e-001  -3.7337761815e-003   6.1722741665e-004  -3.7981390994e-004
  1.0574500000e+009   5.6367668743e-004   2.0320078312e-004   9.9475982559e-001  -6.9696644434e-003   9.9985715806e-001  -3.2379902863e-003   8.9597209228e-004  -5.6761521739e-004
