# Hz S RI R 50.000000
! Metas.Vna.Tools, 2.8.8664.20301
! Metas.Vna.Data, 2.8.8664.20285
! Created: UTC 2024.02.11 10:08:50
! FREQ                re:S1,1             im:S1,1             re:S2,1             im:S2,1             re:S1,2             im:S1,2             re:S2,2             im:S2,2          
  1.3000000000e+008  -6.9591727860e-005  -1.8673762181e-003   9.9340822063e-001  -5.7013895080e-003   1.0002043795e+000   3.9737249052e-004   1.3688470880e-003   1.3646197812e-003
  1.3858750000e+008  -6.9589506560e-004  -1.4923463653e-003   9.9472919723e-001  -5.9947623434e-003   1.0005722233e+000   8.2881147463e-004   1.2055458751e-003  -3.4887347364e-005
  1.4717500000e+008  -1.7514513313e-003  -1.2412858188e-003   9.9347356100e-001  -6.7288080418e-003   1.0004331358e+000   4.8456344681e-004   5.3623703851e-004  -2.9596250686e-004
  1.5576250000e+008  -1.0644504905e-003  -3.5581762914e-004   9.9442964577e-001  -5.8610431666e-003   1.0006359866e+000   8.5395167618e-004   8.9594153138e-004  -1.1149246511e-003
  1.6435000000e+008  -1.2558098739e-003   5.5568413709e-004   9.9435270538e-001  -5.3555020590e-003   1.0005505751e+000  -2.6853064442e-004   1.0750483479e-003   2.2560974341e-004
  1.7293750000e+008  -8.4115836620e-004   8.0865584142e-004   9.9439589513e-001  -5.4632373036e-003   1.0002012313e+000   5.2872326503e-004   1.1926884053e-003  -9.4717861957e-004
  1.8152500000e+008  -6.3910336411e-004   6.0007290197e-004   9.9394717318e-001  -6.3349204928e-003   1.0001099176e+000  -2.4740986911e-004   5.7308087179e-005  -4.6604541854e-004
  1.9011250000e+008  -6.0428486468e-004   4.2324849338e-004   9.9565319220e-001  -6.5550234900e-003   1.0007369205e+000  -4.7609200755e-004   3.0569086352e-004  -9.8992042338e-004
  1.9870000000e+008  -2.3524235030e-004   9.0824848703e-004   9.9539161723e-001  -6.0094110568e-003   1.0010066980e+000  -1.1307914810e-004   7.4386202403e-004  -1.1275085847e-004
  2.0728750000e+008   1.6506479932e-004   2.2688767392e-004   9.9409083292e-001  -5.7199130892e-003   1.0004839258e+000  -7.6618775113e-004  -2.8133047856e-004  -3.4209178023e-004
  2.1587500000e+008  -7.0946834227e-005  -6.6423977872e-004   9.9486219885e-001  -6.3236642671e-003   9.9994687486e-001   5.6974385074e-005  -6.4067113871e-004  -1.8869977239e-004
  2.2446250000e+008   2.6521394484e-004  -4.3921559861e-004   9.9414257159e-001  -5.7880329993e-003   1.0002204883e+000  -1.5051404221e-004  -2.6841625531e-004   3.9489939462e-005
  2.3305000000e+008   1.4118968580e-004  -1.7153962258e-004   9.9386815221e-001  -5.9937372563e-003   1.0002848910e+000  -3.1373274089e-004  -2.6713599773e-004   2.5879763806e-004
  2.4163750000e+008  -9.9328055857e-005  -3.5194628238e-004   9.9397574636e-001  -8.7486475205e-003   1.0002904829e+000  -9.0352155975e-004  -3.3380940049e-004   2.9140136232e-005
  2.5022500000e+008  -5.8309593755e-004  -9.6028148000e-004   9.9530409289e-001  -6.4966269183e-003   1.0004788341e+000   1.4544842086e-004  -9.5815265642e-004   4.8991025950e-004
  2.5881250000e+008  -3.9035093867e-004  -6.5225364436e-004   9.9411559330e-001  -6.3979000719e-003   1.0003081487e+000  -3.1580650205e-004  -7.0279039186e-004   6.6560276803e-004
  2.6740000000e+008  -4.7357260214e-004  -3.5094816660e-004   9.9465344994e-001  -8.0991968909e-003   1.0008102103e+000  -6.8204183282e-004  -4.2488145297e-004   3.2666605618e-004
  2.7598750000e+008  -3.8326735864e-004  -1.8653070769e-004   9.9347295043e-001  -7.1146026491e-003   1.0009946230e+000  -3.5759739426e-004  -4.9916176285e-004   4.4924799524e-004
  2.8457500000e+008  -5.9081480274e-004  -5.3703507707e-004   9.9612767331e-001  -5.6877115717e-003   1.0006732447e+000   3.9018760087e-004  -4.0596586203e-004   5.1266495515e-004
  2.9316250000e+008  -8.2747391365e-004  -8.0598828140e-004   9.9367417715e-001  -6.0017732938e-003   1.0003977480e+000  -1.1913436146e-003  -4.7315691716e-004   3.9189729810e-004
  3.0175000000e+008  -8.5511611633e-004   1.7297089472e-004   9.9379289686e-001  -7.0501539414e-003   1.0005306704e+000  -1.5568222700e-004  -4.6954512697e-004   3.5187508692e-004
  3.1033750000e+008  -1.0563598875e-003   8.0186093872e-005   9.9536033373e-001  -6.3615744707e-003   1.0016113274e+000  -1.0693672988e-003  -6.5942705673e-004   7.0481016582e-004
  3.1892500000e+008  -7.9992017000e-004   2.3116955287e-005   9.9346449707e-001  -8.1858084329e-003   9.9986590062e-001   2.7770028503e-004  -9.4728788694e-004   4.2694911070e-004
  3.2751250000e+008  -8.0887622667e-004  -9.8115304793e-005   9.9431980131e-001  -8.4445555641e-003   1.0005016314e+000  -1.4995188005e-003  -6.1757476163e-004   3.8087239497e-004
  3.3610000000e+008  -9.3152879230e-004   2.8399238456e-004   9.9355112807e-001  -6.8421266859e-003   1.0008414567e+000  -6.8492175820e-004  -5.2100639324e-004   1.5763197456e-004
  3.4468750000e+008  -6.7776302908e-004   2.4294341336e-004   9.9260754236e-001  -7.1894707534e-003   1.0004918076e+000  -1.0012370960e-003  -6.0323794583e-004  -2.2715600341e-005
  3.5327500000e+008  -7.2344878791e-004   3.7690248501e-004   9.9336332113e-001  -8.4689940858e-003   9.9958750267e-001  -1.2000294487e-003  -7.7290878088e-004   1.1129634938e-004
  3.6186250000e+008  -3.2749674773e-004   4.4431945975e-004   9.9470820704e-001  -7.0072643599e-003   1.0005692097e+000  -6.1314682952e-004  -4.2271071155e-004   4.0099208167e-004
  3.7045000000e+008  -5.9059518750e-004   5.6404861433e-004   9.9320573301e-001  -7.2494833298e-003   1.0006223302e+000  -8.4221529974e-004  -7.6158670829e-004   1.8733466810e-004
  3.7903750000e+008  -2.4720505102e-004   5.9561580895e-004   9.9258550709e-001  -6.4264791142e-003   1.0008197120e+000  -7.4957053060e-004  -3.6291696713e-004   1.1439557956e-004
  3.8762500000e+008  -3.9713682826e-004   5.3681085233e-004   9.9639332948e-001  -6.3218720729e-003   1.0004330235e+000  -3.1550807710e-004  -2.9700084242e-004   4.9246241870e-004
  3.9621250000e+008   3.8906538415e-005   1.2542690118e-004   9.9460976830e-001  -6.5407680821e-003   1.0008108595e+000  -5.7942357206e-004  -5.3870395117e-004   5.2078140940e-004
  4.0480000000e+008   2.8874202103e-004   3.5309174498e-004   9.9465472724e-001  -7.2755483383e-003   1.0004463046e+000  -1.0225345728e-003  -3.2504848381e-004   3.4623827443e-004
  4.1338750000e+008   4.9900969940e-004   3.1158193881e-004   9.9392676462e-001  -6.0194069912e-003   1.0007594772e+000  -8.8549984174e-004  -2.5456864448e-005   5.2103647317e-004
  4.2197500000e+008   1.3330832478e-004  -3.9988456003e-005   9.9526050326e-001  -7.5000786820e-003   1.0007229542e+000  -1.4971336577e-003   1.7714143472e-004   6.9830324144e-004
  4.3056250000e+008   3.4305831172e-004  -9.1171922181e-005   9.9539940962e-001  -7.3451300521e-003   1.0004273685e+000  -8.7203695542e-004   4.2822051071e-004   1.7033561251e-004
  4.3915000000e+008   4.7805800996e-005  -3.8993106406e-004   9.9295312774e-001  -7.7558387914e-003   1.0005190027e+000  -1.3671472180e-003   4.2537509680e-004   5.7445396372e-005
  4.4773750000e+008  -2.4731785999e-005  -4.3270798609e-004   9.9150749377e-001  -7.7176069814e-003   1.0006183358e+000  -1.4738691535e-003   4.9105387546e-004   1.9050044712e-005
  4.5632500000e+008  -1.1968658179e-004  -4.5232094575e-004   9.9067557070e-001  -7.3056136294e-003   1.0003389853e+000  -1.2757838164e-003   4.7495817603e-004   1.9283654168e-005
  4.6491250000e+008  -3.3427954313e-004  -3.5665929505e-004   9.9124845687e-001  -8.6391109051e-003   1.0001606626e+000  -1.1960050116e-003   6.5320280716e-004   1.3834011816e-004
  4.7350000000e+008  -5.1130436373e-004  -3.6467765553e-004   9.9129076890e-001  -8.4820261305e-003   1.0002690472e+000  -9.5031984540e-004   5.5351290008e-004  -2.5792834691e-005
  4.8208750000e+008  -5.1800386048e-004   5.7771291174e-005   9.8854779913e-001  -8.6769312083e-003   9.9993914021e-001  -9.5607029597e-004   6.5937086511e-004   3.5808664555e-006
  4.9067500000e+008  -2.5655298368e-004  -3.0608752849e-004   9.8863655804e-001  -8.7846522433e-003   9.9994427457e-001  -1.4242580653e-003   2.0003559271e-004  -6.6139778431e-005
  4.9926250000e+008  -6.2617764718e-005  -1.3177623495e-004   9.8908843636e-001  -7.8907556011e-003   9.9999615086e-001  -1.0075822417e-003   4.0851419707e-004   2.4617414159e-005
  5.0785000000e+008  -3.2191829770e-004  -8.0467331675e-005   9.8863066612e-001  -8.6842090267e-003   9.9987930455e-001  -9.5515843355e-004   2.4527871650e-004   1.8744343115e-004
  5.1643750000e+008  -2.7689518443e-004   2.8786964518e-004   9.8842808169e-001  -7.8963228977e-003   1.0004266835e+000  -4.2972072051e-004   5.3733530627e-004   2.6438423399e-005
  5.2502500000e+008  -1.5648407152e-004   5.0880170221e-004   9.8921126491e-001  -6.6641041295e-003   1.0006334957e+000  -2.4533376955e-004   1.2349422231e-004  -2.1933163907e-004
  5.3361250000e+008   4.5376012408e-004   1.4229833404e-004   9.9052589013e-001  -8.9807917129e-003   1.0007811266e+000  -1.1546846192e-003  -3.0844821090e-005  -5.4797042458e-004
  5.4220000000e+008   5.9458010230e-004   8.8140031111e-006   9.8924518213e-001  -8.6502744070e-003   1.0003758800e+000  -1.3114661062e-003  -8.5852187863e-004  -2.2620002175e-004
  5.5078750000e+008   7.7052559434e-004  -6.8537554927e-004   9.9023965192e-001  -1.0640211693e-002   1.0001477370e+000  -1.5406003319e-003  -6.8846422940e-004  -1.7649698691e-004
  5.5937500000e+008   3.5641878917e-004  -8.1567480110e-004   9.9201873534e-001  -7.9640802567e-003   1.0006007707e+000  -1.8924980212e-003  -8.7367542603e-004   1.2975291758e-004
  5.6796250000e+008   4.6808429810e-005  -1.0069027399e-003   9.9403344736e-001  -7.9134378746e-003   9.9971887629e-001  -1.4485562842e-003  -1.0120358328e-003   5.0321784758e-004
  5.7655000000e+008  -3.4330855464e-004  -1.1170068221e-003   9.9444326398e-001  -8.8980374803e-003   1.0003716557e+000  -1.9999503603e-003  -9.0181749468e-004   7.6121307262e-004
  5.8513750000e+008  -5.3478132828e-004  -9.0006981980e-004   9.9386010421e-001  -7.3660569589e-003   9.9994151248e-001  -1.0295100928e-003  -7.0724225935e-004   6.9596811379e-004
  5.9372500000e+008  -6.5666852390e-004  -7.9994860042e-004   9.9379053296e-001  -7.5949416429e-003   1.0002051115e+000  -2.2253150378e-003  -5.7582884151e-004   9.5261153069e-004
  6.0231250000e+008  -9.8526786564e-004  -5.7027932561e-004   9.9290297487e-001  -8.0940291318e-003   9.9978943498e-001  -1.9933769371e-003  -4.2514910482e-004   9.5704568725e-004
  6.1090000000e+008  -9.8930979988e-004  -2.5645872960e-004   9.9223453106e-001  -9.1107984335e-003   1.0000479258e+000  -1.0096014789e-003  -4.3165579490e-004   9.2958792667e-004
  6.1948750000e+008  -9.6558254811e-004  -1.1544721147e-005   9.9223819104e-001  -7.1404619557e-003   1.0001197453e+000  -1.6049582790e-003  -3.2110597462e-004   5.7344710636e-004
  6.2807500000e+008  -7.3349855144e-004  -2.5616072982e-005   9.9300463491e-001  -8.7650919994e-003   1.0000613017e+000  -1.6359503099e-003   1.7005969496e-005   4.2948597174e-004
  6.3666250000e+008  -4.7228761040e-004   4.8740589483e-004   9.9349140244e-001  -6.5156527699e-003   1.0005502900e+000  -1.0854819811e-003   6.3171468456e-005   4.4691623941e-004
  6.4525000000e+008  -5.7169244659e-005   4.1587653492e-004   9.9301368958e-001  -8.0583028257e-003   1.0004268655e+000  -1.5541546677e-003   1.3903896356e-004  -5.8371832485e-005
  6.5383750000e+008   2.1712469728e-004   3.2743959601e-004   9.9392599147e-001  -7.2258690654e-003   9.9946000003e-001  -1.0988588942e-003   2.6689264891e-004  -2.7142485624e-004
  6.6242500000e+008   3.3728599420e-004   2.9221391743e-004   9.9221392277e-001  -7.4959990330e-003   1.0005731121e+000  -2.2871930414e-003   2.2353982486e-004  -3.0172225243e-004
  6.7101250000e+008   5.2391712512e-004  -1.9942839067e-004   9.9194891986e-001  -5.5295919992e-003   9.9994320530e-001  -1.1119282095e-003   3.5363522492e-004  -5.7879672930e-004
  6.7960000000e+008   5.5158957898e-004  -5.2081553681e-004   9.9372302159e-001  -7.9170111793e-003   1.0001467521e+000  -1.9166129132e-003   2.4470487713e-004  -1.0072744197e-003
  6.8818750000e+008   3.1533754197e-004  -8.6663051780e-004   9.9174672827e-001  -6.7789831555e-003   9.9998687675e-001  -2.0783928640e-003   1.1561289495e-004  -1.0076882566e-003
  6.9677500000e+008   8.4938578075e-005  -1.1077424627e-003   9.9366138694e-001  -6.1589718194e-003   9.9996070851e-001  -1.9367970480e-003  -5.4512319650e-005  -1.0756088363e-003
  7.0536250000e+008  -3.1995776606e-004  -1.0855162547e-003   9.9385695072e-001  -8.3659055868e-003   9.9983921807e-001  -1.8279582137e-003  -3.8364253580e-004  -1.3422316825e-003
  7.1395000000e+008  -7.3883591077e-004  -1.0227852609e-003   9.9292359322e-001  -6.9638834730e-003   1.0000699118e+000  -1.5979638958e-003  -5.0785122873e-004  -1.3437274662e-003
  7.2253750000e+008  -1.1326638859e-003  -8.9842451285e-004   9.9195229706e-001  -6.8902757917e-003   9.9968532245e-001  -2.2003258149e-003  -7.6603999290e-004  -1.2811111119e-003
  7.3112500000e+008  -1.1354059434e-003  -4.7397605612e-004   9.9367421779e-001  -7.2948396219e-003   1.0002319222e+000  -1.2815105359e-003  -9.5194799341e-004  -9.2725264274e-004
  7.3971250000e+008  -1.1514211308e-003   1.1013866842e-005   9.9387898787e-001  -8.9868767115e-003   9.9968516132e-001  -2.3320027914e-003  -1.1241646899e-003  -7.6377462605e-004
  7.4830000000e+008  -9.3336689516e-004   4.5366128431e-004   9.9250223612e-001  -7.2010547408e-003   9.9931033010e-001  -1.5001871512e-003  -9.1737611371e-004  -6.9412696441e-004
  7.5688750000e+008  -8.0649410918e-004   6.8915550029e-004   9.9097589496e-001  -8.4444912930e-003   9.9910572867e-001  -1.8942822507e-003  -1.2077608109e-003  -2.4817785320e-004
  7.6547500000e+008  -2.3496443193e-004   8.2291225801e-004   9.9306402685e-001  -8.8455218013e-003   1.0000065988e+000  -2.7294295184e-003  -1.1858875530e-003  -1.0253663030e-004
  7.7406250000e+008  -5.0821346975e-005   9.0063091358e-004   9.9117541444e-001  -8.9406620215e-003   1.0003562075e+000  -1.4910972979e-003  -8.0303619689e-004   2.1975371517e-004
  7.8265000000e+008   2.0461331466e-004   7.1399636901e-004   9.9184996233e-001  -7.3419997883e-003   1.0001103765e+000  -1.8846906409e-003  -7.8594598516e-004   5.7995227743e-004
  7.9123750000e+008   8.5658606410e-004   3.8463134568e-004   9.9192476117e-001  -8.0582767964e-003   9.9941909011e-001  -1.2324047988e-003  -8.3316422538e-004   5.5626721023e-004
  7.9982500000e+008   7.9448941682e-004   2.3339721831e-004   9.9270129864e-001  -8.0821948430e-003   1.0004144907e+000  -1.3927376672e-003  -6.5167844171e-004   7.7796905244e-004
  8.0841250000e+008   1.1111557281e-003   7.2229602477e-005   9.9260245566e-001  -8.2218926489e-003   9.9948325253e-001  -2.2545927362e-003  -3.7379003370e-004   9.0007934936e-004
  8.1700000000e+008   1.0929097016e-003  -4.2783119523e-004   9.9390324975e-001  -7.5039514693e-003   9.9990117194e-001  -2.2622499398e-003  -3.7434193215e-004   9.6931328552e-004
  8.2558750000e+008   9.3629572957e-004  -5.7512237569e-004   9.9430245791e-001  -6.6536097452e-003   1.0004329969e+000  -2.3406102752e-003  -4.5312884489e-004   1.0885118548e-003
  8.3417500000e+008   7.2980169240e-004  -1.2443350500e-003   9.9376918961e-001  -7.9339133435e-003   1.0006987758e+000  -2.3000335833e-003  -1.9153316212e-004   1.3380729561e-003
  8.4276250000e+008   4.4627775121e-004  -1.2846123636e-003   9.9273671056e-001  -8.0261750650e-003   9.9961757706e-001  -2.1567374166e-003   3.8411454564e-005   1.1903386164e-003
  8.5135000000e+008  -3.4353922876e-005  -1.1619927783e-003   9.9391232573e-001  -7.6634185462e-003   1.0005236708e+000  -2.1780799581e-003   2.1594419769e-004   1.2594938994e-003
  8.5993750000e+008  -3.0021550974e-004  -1.1898667064e-003   9.9353315542e-001  -7.0110157987e-003   9.9966790048e-001  -2.6880966823e-003   3.3313009940e-004   1.0208598374e-003
  8.6852500000e+008  -5.2318292558e-004  -8.5150991181e-004   9.9159300495e-001  -8.2942084003e-003   9.9945794263e-001  -2.3972209410e-003   6.1100048667e-004   7.3358905804e-004
  8.7711250000e+008  -3.9022934899e-004  -5.9778055994e-004   9.9267863592e-001  -8.0065665279e-003   9.9980059864e-001  -2.3668798150e-003   3.8433127873e-004   3.0033656500e-004
  8.8570000000e+008  -3.2197080288e-004  -3.4965556563e-004   9.9473278893e-001  -6.2949386754e-003   9.9966238470e-001  -3.1557389641e-003   2.9814636825e-004   1.8070522802e-004
  8.9428750000e+008  -2.7033683693e-004  -1.6765676557e-004   9.9228282759e-001  -7.5654442641e-003   1.0001793354e+000  -3.4659327697e-003   5.3432802228e-005  -2.3826056907e-004
  9.0287500000e+008   1.5879002291e-004  -2.5464820561e-004   9.9418026401e-001  -7.6083264570e-003   9.9986879179e-001  -3.5239174187e-003  -1.5466724777e-005  -3.2170765935e-004
  9.1146250000e+008   3.6306250904e-004  -2.3930891174e-004   9.9206295405e-001  -8.8397703780e-003   9.9784107614e-001  -3.2134515155e-003  -3.9300141388e-004  -2.8801486950e-004
  9.2005000000e+008   3.8105219410e-004  -5.7548578785e-004   9.9318379695e-001  -7.0958815400e-003   9.9821443214e-001  -1.5955396581e-003  -4.9087783785e-004  -4.7603660228e-004
  9.2863750000e+008   5.1800058032e-004  -7.0009968607e-004   9.9495785512e-001  -7.0007432160e-003   1.0000040371e+000  -2.9640663198e-003  -8.5778055824e-004  -4.9588833809e-004
  9.3722500000e+008   2.7967554922e-004  -1.0088647736e-003   9.9450706305e-001  -6.4173585800e-003   9.9823583990e-001  -2.2080249013e-003  -9.6643823267e-004  -7.7806629137e-004
  9.4581250000e+008   2.0579073860e-004  -1.1659789432e-003   9.9497261960e-001  -6.9715242971e-003   9.9965426225e-001  -2.4289474112e-003  -1.3011910550e-003  -5.9849389953e-004
  9.5440000000e+008  -8.6169087669e-005  -1.3079671463e-003   9.9175100928e-001  -7.9943077179e-003   1.0005499414e+000  -2.1162893650e-003  -1.4844113935e-003  -3.9377615426e-004
  9.6298750000e+008  -5.0463611278e-004  -1.3592652378e-003   9.9407267198e-001  -7.8625397041e-003   9.9971493015e-001  -1.6379242801e-003  -1.4667979555e-003  -1.2650811556e-004
  9.7157500000e+008  -8.5503113074e-004  -1.1739748719e-003   9.9263654554e-001  -8.6729881306e-003   1.0002463766e+000  -2.3492532280e-003  -1.3786965452e-003  -1.5782869933e-004
  9.8016250000e+008  -9.3882082277e-004  -9.4741411998e-004   9.9424413670e-001  -7.6731752780e-003   9.9938032149e-001  -2.9344198873e-003  -1.5098307469e-003  -3.1044802481e-005
  9.8875000000e+008  -1.1721307475e-003  -6.5215534898e-004   9.9246034055e-001  -5.9527228506e-003   9.9912141771e-001  -2.2388508495e-003  -1.2310677998e-003   1.6332464230e-004
  9.9733750000e+008  -1.0453184828e-003  -2.9133944579e-004   9.9272790321e-001  -8.7335992010e-003   9.9937350584e-001  -1.6269826299e-003  -1.0172384870e-003   1.0417754587e-004
  1.0059250000e+009  -8.9533193315e-004   1.0353531704e-004   9.9245221738e-001  -7.5466907221e-003   9.9968787850e-001  -2.4336146842e-003  -6.4628378589e-004   2.9566982710e-004
  1.0145125000e+009  -9.3368486332e-004   4.0970647737e-004   9.9403541380e-001  -9.3685976159e-003   9.9927326669e-001  -2.5755979895e-003  -4.1868435588e-004   1.5604452280e-004
  1.0231000000e+009  -4.8679975650e-004   5.3956353604e-004   9.9290209862e-001  -7.3082902446e-003   9.9947721032e-001  -2.1533414076e-003  -3.3826231565e-004   1.6360723846e-004
  1.0316875000e+009  -2.3557046941e-004   7.1261178133e-004   9.9371611320e-001  -9.0503293518e-003   9.9909452041e-001  -2.4963431975e-003  -2.6889945904e-005  -5.3497258519e-005
  1.0402750000e+009   2.7317950949e-004   6.9359553563e-004   9.9355114128e-001  -8.4651664221e-003   1.0000262077e+000  -1.9172097333e-003   3.2407354115e-004  -6.3514380445e-005
  1.0488625000e+009   4.6759160419e-004   4.1320973956e-004   9.9275865774e-001  -7.6374689190e-003   9.9912696384e-001  -2.3981167136e-003   5.1017403482e-004  -2.4042818383e-004
  1.0574500000e+009   6.7887604137e-004   7.2531999466e-005   9.9262909528e-001  -8.2280870896e-003   9.9905109827e-001  -2.4828076124e-003   6.7003026776e-004  -5.7209767387e-004
