# Hz S RI R 50.000000
! Metas.Vna.Tools, 2.8.8664.20301
! Metas.Vna.Data, 2.8.8664.20285
! Created: UTC 2024.02.11 10:08:35
! FREQ                re:S1,1             im:S1,1             re:S2,1             im:S2,1             re:S1,2             im:S1,2             re:S2,2             im:S2,2          
  1.3000000000e+008   4.7523396179e-004  -1.5382409491e-003   9.9242894152e-001  -6.9366714174e-003   1.0007986071e+000  -2.0964035616e-004   1.4899565127e-003   1.1221903014e-003
  1.3858750000e+008  -9.1170447733e-004  -1.3066401658e-003   9.9336142867e-001  -5.0635087347e-003   1.0010481237e+000   7.2656809201e-004   1.2152761721e-003   1.4653319641e-004
  1.4717500000e+008  -1.4412044234e-003  -6.8417624648e-004   9.9359578817e-001  -6.4611995134e-003   1.0006682298e+000   6.0167043155e-005   1.0616676702e-003  -4.2062535816e-004
  1.5576250000e+008  -1.2572610416e-003   2.4896345495e-004   9.9317187863e-001  -5.6656144441e-003   1.0004279418e+000   1.3536948999e-004   1.6811305156e-003  -7.3487741593e-004
  1.6435000000e+008  -5.4436671153e-004   6.6202628025e-004   9.9436053124e-001  -5.4223556488e-003   1.0004293343e+000  -4.3645963519e-004   1.2777062010e-003  -2.7885781918e-004
  1.7293750000e+008  -8.4452561164e-004   7.8083190572e-004   9.9259345146e-001  -4.7667659815e-003   1.0006360701e+000  -1.1441327503e-004   6.3338857553e-004  -5.5799675188e-004
  1.8152500000e+008  -3.0930969958e-004   8.8112967818e-004   9.9345037465e-001  -6.4775182872e-003   1.0001626726e+000  -1.5622249857e-004   5.3311765071e-004  -7.4615467003e-004
  1.9011250000e+008  -6.9873763821e-004   6.6560666947e-004   9.9331485674e-001  -7.5568006755e-003   1.0011605186e+000  -4.4873276866e-004   2.9516918240e-004  -1.4413517409e-003
  1.9870000000e+008   6.6398205414e-005   8.1020127429e-004   9.9278364661e-001  -6.7145647009e-003   1.0006580286e+000  -6.6010373855e-004   6.6642093424e-004  -3.5774298987e-004
  2.0728750000e+008   1.4685309840e-004   2.5753900808e-004   9.9267064230e-001  -6.8674179859e-003   1.0007448547e+000  -3.8702979473e-004   1.0886109515e-004  -3.3335994839e-004
  2.1587500000e+008   3.1522347692e-004  -2.8935452244e-004   9.9469226294e-001  -6.2556380195e-003   1.0000902447e+000  -7.7793223365e-004  -6.8086250406e-004   1.8255838676e-004
  2.2446250000e+008   2.1737621006e-004   1.3180247466e-005   9.9488192244e-001  -6.5457951649e-003   1.0007653183e+000  -1.7774287972e-004  -2.7286486319e-004  -1.4810236758e-004
  2.3305000000e+008   2.3927136294e-004  -3.2592901924e-005   9.9488585505e-001  -6.3848859875e-003   1.0006308506e+000  -5.5878086080e-004  -3.3388225141e-004  -4.8768097304e-005
  2.4163750000e+008  -1.2391954033e-005  -2.1824287704e-004   9.9422695011e-001  -7.7597258041e-003   1.0002748626e+000  -1.5335890220e-003  -5.8072795507e-004   3.0138017920e-004
  2.5022500000e+008  -2.9161745724e-004  -5.8081558041e-004   9.9266777030e-001  -6.2763909952e-003   1.0002295519e+000  -3.5294038608e-004  -1.0867730194e-003   6.5007109097e-004
  2.5881250000e+008  -3.8927890953e-004  -3.5684235145e-004   9.9092189676e-001  -5.6726133118e-003   1.0011483919e+000  -7.8762876706e-004  -6.2251524167e-004   3.1102936780e-004
  2.6740000000e+008  -9.6365114214e-004  -2.0544680026e-004   9.9378229349e-001  -7.7859541442e-003   1.0007977949e+000  -9.9097372180e-004  -6.0790564070e-004   3.1862566342e-004
  2.7598750000e+008   3.9673967676e-005  -2.1886240266e-004   9.9293913564e-001  -7.1617807397e-003   1.0006873104e+000  -7.3147267331e-004  -2.3291836535e-004   5.4129857949e-004
  2.8457500000e+008  -9.1299402874e-004  -5.6181503453e-004   9.9318534737e-001  -7.0159934708e-003   1.0006263059e+000  -5.9751155032e-005  -4.9281256325e-004   8.0204397008e-004
  2.9316250000e+008  -6.7035673908e-004  -4.1406297069e-004   9.9288311438e-001  -6.6924210391e-003   1.0007001359e+000  -7.4461359633e-004  -3.1753757302e-004   2.9792439760e-004
  3.0175000000e+008  -8.8127627349e-004   3.1485433691e-004   9.9375556353e-001  -8.4839349703e-003   1.0001876382e+000  -3.5652728259e-004  -5.1313789969e-004   3.1047955386e-004
  3.1033750000e+008  -8.6151812276e-004  -1.9200882994e-005   9.9458089242e-001  -4.9690043127e-003   1.0005244132e+000  -6.4235480517e-004  -6.1367743647e-004   4.0785929409e-004
  3.1892500000e+008  -7.8599836374e-004   2.1163855378e-004   9.9110747349e-001  -9.4613276719e-003   1.0001158370e+000  -3.2118197911e-004  -6.8533515067e-004   1.0698824617e-004
  3.2751250000e+008  -6.8740378325e-004   1.5599531491e-004   9.9398948865e-001  -7.6771167205e-003   1.0004459608e+000  -1.5833784340e-003  -4.7704685302e-004   8.1795245617e-005
  3.3610000000e+008  -8.7054142102e-004   1.1870278377e-004   9.9367912378e-001  -6.4253449060e-003   1.0012054579e+000  -1.5220227351e-003  -3.4525091106e-004   1.7016789750e-004
  3.4468750000e+008  -4.4926085759e-004   1.1397056090e-004   9.9258739473e-001  -7.5784888192e-003   1.0010087924e+000  -1.2572849366e-003  -5.3622982944e-004   2.0209842053e-004
  3.5327500000e+008  -4.7550919600e-004   1.2426402935e-004   9.9376140605e-001  -7.5442740779e-003   9.9945806569e-001  -1.8491691970e-003  -4.7626505975e-004   1.4893821849e-004
  3.6186250000e+008  -5.5255139202e-004   2.4846415861e-004   9.9415185737e-001  -6.5426282534e-003   1.0000202849e+000  -1.0177935315e-003  -6.3378341356e-004   4.6536670557e-004
  3.7045000000e+008  -4.9136613362e-004   4.7907504829e-004   9.9307134104e-001  -7.1288878110e-003   1.0009477793e+000  -1.5192699224e-003  -6.2207656535e-004   2.8214782961e-004
  3.7903750000e+008  -3.8166766881e-004   7.5161727171e-004   9.9387319599e-001  -6.3498114278e-003   1.0002139618e+000  -7.9948506713e-004  -6.1054144958e-004   1.8801139208e-004
  3.8762500000e+008  -1.9207873742e-004   7.2581681354e-004   9.9527917097e-001  -5.7857182560e-003   1.0003576411e+000  -1.3047248573e-003  -5.2164621307e-004   4.9264851017e-004
  3.9621250000e+008   1.2780686769e-004   4.2421419457e-004   9.9273727762e-001  -8.0399215176e-003   1.0007059991e+000  -1.7190269780e-003  -5.1566986309e-004   6.1009694977e-004
  4.0480000000e+008   1.4724529581e-004   4.2158179645e-004   9.9519097920e-001  -7.6494155277e-003   1.0001628511e+000  -8.5354902926e-004  -5.4857039954e-005   2.1753382485e-004
  4.1338750000e+008   3.9228480609e-004   3.2717547180e-005   9.9470218801e-001  -5.4526466583e-003   1.0010644882e+000  -1.1115921791e-003   1.2964741600e-004   6.1491888017e-004
  4.2197500000e+008  -3.8667797251e-005  -4.0877716344e-005   9.9271897856e-001  -7.3012419599e-003   1.0006682289e+000  -1.4718378049e-003   1.8712953357e-004   5.6441626518e-004
  4.3056250000e+008   3.0602466049e-004   6.9085454874e-005   9.9473639594e-001  -6.7004497983e-003   1.0009034425e+000  -1.1982747347e-003   4.5468566917e-004   8.0537933274e-005
  4.3915000000e+008   1.7719697592e-004  -1.9207825098e-004   9.9645074266e-001  -6.1038507787e-003   1.0002098147e+000  -1.9703226386e-003   5.0234612467e-004   2.0875773593e-004
  4.4773750000e+008   1.0584507933e-006  -3.0820231349e-004   9.9728700531e-001  -6.1929304502e-003   1.0006871914e+000  -1.4835213134e-003   6.6160952029e-004  -1.8927142630e-004
  4.5632500000e+008  -1.1689286502e-004  -4.9879013830e-004   9.9466312432e-001  -6.7463441867e-003   1.0003331430e+000  -1.7382992898e-003   6.0835428530e-004   5.6028787159e-005
  4.6491250000e+008  -3.4443856719e-004  -2.6287820142e-004   9.9508854554e-001  -7.4610166038e-003   1.0000081428e+000  -1.5441476902e-003   5.7081053315e-004   2.3591544306e-004
  4.7350000000e+008  -4.3068731591e-004  -3.3582208820e-004   9.9452972471e-001  -6.5630360963e-003   1.0002272477e+000  -1.4037440039e-003   4.2053540471e-004   1.3770470289e-004
  4.8208750000e+008  -2.8659909790e-004   2.2629852275e-006   9.9211014429e-001  -7.2696530333e-003   9.9977000624e-001  -1.3942041341e-003   5.6475854006e-004   1.3996280727e-004
  4.9067500000e+008  -1.0697607950e-004  -2.5915675666e-004   9.9222738733e-001  -7.7212897647e-003   9.9989285728e-001  -1.6243589597e-003   5.7763036126e-004   1.0196496946e-004
  4.9926250000e+008  -8.3082093719e-005  -4.2601688325e-004   9.9165668158e-001  -6.8762238705e-003   9.9963242069e-001  -1.8155489484e-003   5.7165556883e-004  -1.5154724551e-004
  5.0785000000e+008  -5.5799335329e-004  -1.6861918004e-004   9.9213641158e-001  -6.3926275522e-003   9.9982889559e-001  -7.7990893063e-004   7.8224954560e-004   2.3818827147e-004
  5.1643750000e+008  -4.3400581435e-004   9.2063860685e-005   9.9288426636e-001  -6.9773923802e-003   1.0002622992e+000  -1.3454026503e-003   7.9747740754e-004  -1.1248256344e-004
  5.2502500000e+008  -2.5607474720e-004   6.7146525893e-004   9.9348995584e-001  -5.6420513432e-003   1.0012187944e+000  -7.9588875767e-004   2.7900610870e-004  -7.5245576345e-004
  5.3361250000e+008   4.6768248701e-004   3.7192464722e-004   9.9356257948e-001  -7.5313852643e-003   1.0004877926e+000  -1.3648015610e-003  -3.5925621766e-005  -7.0296757227e-004
  5.4220000000e+008   7.4942085291e-004  -7.5604578714e-006   9.9411219015e-001  -8.0650466592e-003   1.0008597258e+000  -1.7672617020e-003  -9.1224048870e-004  -4.8361383751e-004
  5.5078750000e+008   5.6726890361e-004  -5.7103252114e-004   9.9398873673e-001  -8.4994584980e-003   1.0004598997e+000  -2.1033179466e-003  -1.0542936711e-003  -2.9224938288e-004
  5.5937500000e+008   3.2406174964e-004  -6.6754635126e-004   9.9176164491e-001  -7.1285777938e-003   1.0004256759e+000  -2.5992310267e-003  -1.1595544558e-003  -1.4967885217e-005
  5.6796250000e+008   2.2072049181e-004  -9.8030292665e-004   9.9323548756e-001  -6.9106734444e-003   1.0002900265e+000  -1.7002590824e-003  -9.9276410632e-004   3.2459383199e-004
  5.7655000000e+008  -4.6857881627e-004  -1.0843225565e-003   9.9338847035e-001  -8.2971622534e-003   1.0004761983e+000  -2.2490754274e-003  -1.0674739044e-003   7.6915354875e-004
  5.8513750000e+008  -4.8443830527e-004  -9.2935145995e-004   9.9257133006e-001  -7.7939015980e-003   9.9993997278e-001  -2.2673119126e-003  -9.2171134619e-004   8.6401401372e-004
  5.9372500000e+008  -6.8311608801e-004  -7.8871089127e-004   9.9171028605e-001  -6.9391251660e-003   1.0006042662e+000  -2.7545966975e-003  -6.8061644946e-004   1.2395113313e-003
  6.0231250000e+008  -8.8840386310e-004  -4.5522795987e-004   9.9238563801e-001  -6.5508564451e-003   1.0004795815e+000  -2.0016664327e-003  -5.7093148103e-004   1.1215670565e-003
  6.1090000000e+008  -8.8996420895e-004  -3.0483684680e-004   9.9285830741e-001  -8.7685683748e-003   9.9979579583e-001  -1.4051920371e-003  -5.1720259442e-004   1.0668005970e-003
  6.1948750000e+008  -8.7029588458e-004   6.2724806894e-005   9.9237413606e-001  -7.3086757187e-003   1.0002954704e+000  -1.5493573264e-003  -3.3040168430e-004   7.1843216872e-004
  6.2807500000e+008  -8.9528385745e-004   5.2322114384e-005   9.9351983591e-001  -9.2299129704e-003   9.9993632107e-001  -1.7394769338e-003  -3.6589678861e-005   4.5217076979e-004
  6.3666250000e+008  -4.1797493899e-004   5.7515269593e-004   9.9343082173e-001  -6.7460466036e-003   1.0004650302e+000  -2.1802033010e-003   2.9954694457e-005   3.9157328240e-004
  6.4525000000e+008  -5.6719613673e-005   4.0945532106e-004   9.9439613990e-001  -7.2605393759e-003   1.0005445089e+000  -2.3873042734e-003   3.1961463792e-004   1.3912642811e-005
  6.5383750000e+008   1.5668712494e-004   4.2168334537e-004   9.9236740359e-001  -6.9898471505e-003   9.9959825804e-001  -1.5543605141e-003   2.4017307441e-004  -1.6571554390e-004
  6.6242500000e+008   4.7108956200e-004   8.2248388803e-005   9.9275557305e-001  -8.2298073627e-003   1.0006482840e+000  -2.9214580952e-003   3.7755996340e-004  -3.3734666075e-004
  6.7101250000e+008   5.4655856466e-004  -2.0918193653e-004   9.9326957643e-001  -6.6063760037e-003   9.9992867378e-001  -1.5662004950e-003   3.4394433755e-004  -7.1065606803e-004
  6.7960000000e+008   6.6210554481e-004  -4.1142333081e-004   9.9209706946e-001  -8.0502646047e-003   1.0003430862e+000  -2.2414146510e-003   2.1328051926e-004  -1.1382452480e-003
  6.8818750000e+008   2.0581316847e-004  -8.6448174605e-004   9.9221100059e-001  -7.2352981231e-003   1.0002952988e+000  -2.8566337921e-003   2.0313963262e-004  -1.1568756431e-003
  6.9677500000e+008   1.2204003999e-004  -1.1235992160e-003   9.9182784161e-001  -5.8548450329e-003   1.0000047619e+000  -2.3773226499e-003  -1.7319385403e-004  -1.1829529492e-003
  7.0536250000e+008  -2.8265950284e-004  -1.1554896661e-003   9.9129308382e-001  -7.2328946001e-003   9.9968421765e-001  -2.2804258619e-003  -4.0647311178e-004  -1.2315103451e-003
  7.1395000000e+008  -6.6648395015e-004  -8.7904900316e-004   9.9267070247e-001  -7.8039140944e-003   1.0002489689e+000  -2.4957728187e-003  -6.2170963943e-004  -1.2630153339e-003
  7.2253750000e+008  -1.1190854778e-003  -8.2007242548e-004   9.9117130109e-001  -9.2566009824e-003   9.9985118570e-001  -2.0622538974e-003  -8.7089779297e-004  -1.2619088962e-003
  7.3112500000e+008  -1.0560138951e-003  -4.4547384580e-004   9.9145709295e-001  -9.4158448651e-003   9.9989569508e-001  -1.7480973528e-003  -9.9399200263e-004  -1.0031448416e-003
  7.3971250000e+008  -1.1017359237e-003   9.8279013983e-005   9.9243894232e-001  -8.9989295558e-003   9.9936910349e-001  -2.5154975101e-003  -1.2818813096e-003  -8.4902569328e-004
  7.4830000000e+008  -9.1919511755e-004   5.0380479256e-004   9.9192934415e-001  -7.5438355824e-003   9.9925536409e-001  -1.7263983450e-003  -1.0885007583e-003  -7.4685210486e-004
  7.5688750000e+008  -8.7693689096e-004   7.3323210498e-004   9.9178974397e-001  -8.0747571038e-003   9.9967328047e-001  -2.2981270853e-003  -1.1273226187e-003  -3.3002824176e-004
  7.6547500000e+008  -2.1313481066e-004   8.6170355457e-004   9.9295705166e-001  -9.0248371767e-003   9.9942636328e-001  -2.1461864869e-003  -1.2674199554e-003  -1.2678187357e-004
  7.7406250000e+008   2.1393907344e-004   8.0116331182e-004   9.9209367637e-001  -9.3921840116e-003   9.9967925867e-001  -2.2749212232e-003  -1.0393324001e-003   4.3685629563e-006
  7.8265000000e+008   2.6012468173e-004   6.0390430663e-004   9.9279498956e-001  -8.0332878333e-003   9.9986943370e-001  -2.5320298922e-003  -1.0227964889e-003   6.0013034916e-004
  7.9123750000e+008   7.5379425374e-004   4.3025409926e-004   9.9262687531e-001  -7.6422175885e-003   9.9931017921e-001  -2.2678764024e-003  -8.3943982421e-004   4.4442112245e-004
  7.9982500000e+008   7.7316491160e-004   1.5506392163e-004   9.9210515281e-001  -6.9170825795e-003   9.9979776350e-001  -1.7239751067e-003  -6.5975561724e-004   6.4176807449e-004
  8.0841250000e+008   9.9510823969e-004   6.7647800311e-005   9.9296691900e-001  -9.0090470814e-003   9.9972093704e-001  -2.2558687656e-003  -6.6304764659e-004   8.7188408187e-004
  8.1700000000e+008   1.1505098477e-003  -2.0719677862e-004   9.9460809555e-001  -7.4316707536e-003   1.0004551999e+000  -2.1328531243e-003  -4.4917847367e-004   9.6243087953e-004
  8.2558750000e+008   1.1651108618e-003  -5.9729939673e-004   9.9282720382e-001  -7.0782105390e-003   1.0005002729e+000  -2.7657026406e-003  -4.3454951213e-004   1.0502403127e-003
  8.3417500000e+008   9.2394799636e-004  -1.0651290992e-003   9.9368157225e-001  -7.3330614796e-003   1.0015132478e+000  -2.8521421946e-003  -4.0460012124e-004   1.4282630299e-003
  8.4276250000e+008   6.5401642443e-004  -1.2706989704e-003   9.9283484436e-001  -7.8134607699e-003   9.9972929767e-001  -3.0451064411e-003  -1.6129126591e-005   1.3223807689e-003
  8.5135000000e+008  -6.4877934552e-005  -1.1665956400e-003   9.9249269321e-001  -7.9057096356e-003   1.0006134720e+000  -2.9013582378e-003   3.4660004324e-004   1.4792941535e-003
  8.5993750000e+008  -1.1164064063e-004  -1.1918989763e-003   9.9368477744e-001  -7.8471993505e-003   9.9991396703e-001  -2.8478669874e-003   4.8790108940e-004   1.3300847647e-003
  8.6852500000e+008  -4.9028635280e-004  -1.0245282938e-003   9.9250346303e-001  -8.2598189681e-003   1.0000313555e+000  -1.7565236796e-003   7.5496094973e-004   9.0120374031e-004
  8.7711250000e+008  -5.3136525302e-004  -6.2206211621e-004   9.9370004140e-001  -8.4832885930e-003   9.9942755434e-001  -3.1014235695e-003   6.7996887547e-004   3.8081743941e-004
  8.8570000000e+008  -3.5780755347e-004  -4.0543099251e-004   9.9412672384e-001  -7.0467585939e-003   9.9956374893e-001  -3.3446826260e-003   6.8786661495e-004   1.7358591906e-004
  8.9428750000e+008  -1.5532633638e-004  -2.1513960466e-004   9.9412263825e-001  -7.2671419062e-003   9.9980484040e-001  -3.4655495026e-003   4.1473470439e-004  -1.9672644148e-004
  9.0287500000e+008   8.9534437489e-005  -1.3266607282e-004   9.9339863106e-001  -8.5442807249e-003   9.9907125322e-001  -3.2742539244e-003   6.2308121342e-005  -3.1459532056e-004
  9.1146250000e+008   3.3846097549e-004  -2.0525254026e-004   9.9300078152e-001  -8.6899611905e-003   9.9919470062e-001  -2.1618675635e-003  -2.6778557752e-004  -4.0937037319e-004
  9.2005000000e+008   3.5163153858e-004  -5.0326801302e-004   9.9140141734e-001  -7.3789855052e-003   9.9882752912e-001  -2.2234696715e-003  -6.0925005950e-004  -5.0718032963e-004
  9.2863750000e+008   5.4483742630e-004  -7.3632964212e-004   9.9283496332e-001  -7.2436709687e-003   1.0002670528e+000  -3.2485499767e-003  -7.6833245265e-004  -5.8478520147e-004
  9.3722500000e+008   2.7205767481e-004  -9.8916493744e-004   9.9156650173e-001  -7.7913713282e-003   9.9857568757e-001  -2.2603228640e-003  -1.1408449554e-003  -6.8002686476e-004
  9.4581250000e+008   3.5129484246e-004  -1.2249771157e-003   9.9190573811e-001  -7.6011955064e-003   9.9934432953e-001  -2.6756480369e-003  -1.3193242823e-003  -4.2006664541e-004
  9.5440000000e+008  -7.3965794938e-005  -1.3429938477e-003   9.9111475808e-001  -7.9190794521e-003   9.9993189863e-001  -2.1152256205e-003  -1.3527967535e-003  -3.9080445681e-004
  9.6298750000e+008  -3.6092355490e-004  -1.3470076275e-003   9.9425525928e-001  -7.9539753196e-003   9.9950628578e-001  -3.2381369819e-003  -1.5983437333e-003  -1.4350981164e-004
  9.7157500000e+008  -5.9801262847e-004  -1.2763970206e-003   9.9422875073e-001  -8.0635113782e-003   1.0008484400e+000  -3.6783611262e-003  -1.5562761564e-003  -1.3748329581e-004
  9.8016250000e+008  -9.4867812589e-004  -1.0636774004e-003   9.9436586326e-001  -8.2227076056e-003   9.9976637754e-001  -3.8449487570e-003  -1.4635002679e-003   6.8634987344e-005
  9.8875000000e+008  -1.1407962419e-003  -7.7754346335e-004   9.9302301587e-001  -7.8424577164e-003   9.9981312972e-001  -2.7314796750e-003  -1.3310626725e-003   9.5245802309e-005
  9.9733750000e+008  -1.1209053586e-003  -3.6587438989e-004   9.9210341576e-001  -8.6222347233e-003   9.9951923973e-001  -1.9266312509e-003  -1.1909955915e-003   8.0344986340e-005
  1.0059250000e+009  -9.1655782665e-004   7.6636129480e-005   9.9245240147e-001  -7.5449952241e-003   1.0004608245e+000  -3.4023551523e-003  -9.3957136335e-004   2.2335810645e-004
  1.0145125000e+009  -8.3642936337e-004   3.6770854794e-004   9.9208622765e-001  -1.0730938663e-002   9.9942458930e-001  -3.2113968242e-003  -5.0330536865e-004   2.5320044962e-004
  1.0231000000e+009  -5.5246394109e-004   4.4802386994e-004   9.9192194528e-001  -7.5419546330e-003   9.9981547497e-001  -2.9165396099e-003  -2.6393160539e-004   2.5444030245e-004
  1.0316875000e+009  -2.0997192970e-004   8.1423742224e-004   9.9063079142e-001  -9.4967371863e-003   9.9894927514e-001  -3.1714667108e-003  -2.1946791604e-005   6.2842915369e-005
  1.0402750000e+009   2.5001477279e-004   7.0719194317e-004   9.9100801285e-001  -8.6407014803e-003   9.9951316060e-001  -2.5824491800e-003   3.2259698070e-004  -9.9515850850e-005
  1.0488625000e+009   5.1948073593e-004   4.4290937931e-004   9.9180169635e-001  -8.3177306945e-003   9.9942768048e-001  -2.8126730574e-003   6.7880785536e-004  -2.9492158659e-004
  1.0574500000e+009   5.7949674048e-004   1.5552262525e-004   9.9075415988e-001  -8.6503223016e-003   9.9974405220e-001  -2.9976963905e-003   7.8164440060e-004  -4.5551756821e-004
