# Hz S RI R 50.000000
! Metas.Vna.Tools, 2.8.8664.20301
! Metas.Vna.Data, 2.8.8664.20285
! Created: UTC 2024.02.11 10:08:53
! FREQ                re:S1,1             im:S1,1             re:S2,1             im:S2,1             re:S1,2             im:S1,2             re:S2,2             im:S2,2          
  1.3000000000e+008   2.3644475725e-005  -2.0477820313e-003   9.9433561936e-001  -5.9298433642e-003   1.0004804478e+000   1.4046759252e-004   1.3139241604e-003   8.2154584466e-004
  1.3858750000e+008  -7.2782639716e-004  -6.3000962734e-004   9.9385856967e-001  -6.5941832716e-003   1.0005185023e+000   1.0685254221e-003   1.3736157560e-003   1.4388789734e-004
  1.4717500000e+008  -2.0267423478e-003  -1.2904980471e-003   9.9450936232e-001  -6.8600876164e-003   1.0002861965e+000   2.7893829990e-004   1.3425907444e-003  -4.0519782815e-004
  1.5576250000e+008  -1.0048293638e-003   7.0697101230e-004   9.9268617800e-001  -6.0098612893e-003   1.0007484834e+000   4.6808356358e-004   9.2989631707e-004  -8.2411211952e-004
  1.6435000000e+008  -1.1226254452e-003   7.4308770183e-004   9.9467726110e-001  -5.6656051081e-003   1.0007700239e+000  -8.1559392343e-005   6.6789642764e-004  -5.5692167838e-004
  1.7293750000e+008  -1.1152643522e-003   4.4113137320e-004   9.9606668683e-001  -4.5444051471e-003   1.0002389624e+000   2.9685804205e-005   1.0800901646e-003  -9.6418041188e-004
  1.8152500000e+008  -3.7300538099e-004   4.4659644196e-004   9.9281967545e-001  -5.5261271839e-003   1.0004182212e+000  -7.1127941538e-005   4.8074565054e-004  -8.7134177150e-004
  1.9011250000e+008  -7.4871202171e-004   2.5730286596e-004   9.9502007667e-001  -8.0709279151e-003   1.0008633657e+000  -7.6519974986e-004   4.9611268577e-004  -8.7829749207e-004
  1.9870000000e+008   3.0897941720e-005   7.4343477777e-004   9.9361580140e-001  -6.5338049615e-003   1.0007320378e+000  -4.1566761040e-004   3.4940141652e-004  -6.2770333531e-004
  2.0728750000e+008  -2.5506925572e-004   3.1263089420e-004   9.9541155871e-001  -5.8913588228e-003   1.0005765142e+000   3.9338337601e-006   2.9062802089e-004  -1.3248687943e-004
  2.1587500000e+008   5.5946578204e-004  -2.3289724232e-004   9.9631337865e-001  -6.0616526148e-003   9.9981853241e-001   2.2055229142e-005  -3.9225329665e-004  -3.7669884600e-005
  2.2446250000e+008   2.6369553962e-004  -3.9706331791e-004   9.9516874581e-001  -5.7074907190e-003   9.9996561480e-001  -8.4843786287e-004  -2.0848674066e-004   8.2731489369e-005
  2.3305000000e+008  -1.5704113703e-004  -3.1854644342e-005   9.9353417161e-001  -7.2221796352e-003   1.0003331214e+000  -4.3126439730e-004  -9.6453668810e-005   2.7034812709e-004
  2.4163750000e+008  -2.4013123086e-004  -5.5585855738e-004   9.9411072689e-001  -8.2528857743e-003   1.0001441604e+000  -1.1090992204e-003  -4.1901275866e-004   2.2143663994e-004
  2.5022500000e+008  -5.2304686613e-004  -2.5027817789e-004   9.9455108897e-001  -5.2807876001e-003   1.0004427275e+000  -6.7073057644e-004  -7.9583896721e-004   5.9710482942e-004
  2.5881250000e+008  -6.0288809545e-004  -5.8787253794e-004   9.9366271682e-001  -7.3353278239e-003   1.0008289291e+000  -1.0086759830e-003  -5.6098200940e-004   5.9578760559e-004
  2.6740000000e+008  -1.0965363727e-003  -6.1519464630e-004   9.9472522487e-001  -6.4938163650e-003   1.0002852806e+000  -1.5470042875e-003  -7.9743263891e-004   6.3098213519e-004
  2.7598750000e+008   2.3086523660e-005  -5.4370646094e-004   9.9278951505e-001  -6.9643094916e-003   1.0004213653e+000  -4.0216381740e-005  -6.3247964126e-004   9.1998536796e-004
  2.8457500000e+008  -8.0974616458e-004  -4.5572681024e-004   9.9368703440e-001  -6.7180070692e-003   1.0011548078e+000  -1.1765493840e-004  -3.6519979760e-004   6.7154583574e-004
  2.9316250000e+008  -7.2248022912e-004  -3.8880728070e-004   9.9499666773e-001  -5.8309194404e-003   1.0003788019e+000  -1.2725825609e-003  -4.7906564476e-004   5.7058666923e-004
  3.0175000000e+008  -8.5852016921e-004   2.0237184281e-004   9.9635436453e-001  -7.2177487116e-003   1.0006187904e+000   5.1691944808e-005  -4.9984051243e-004   4.3596263215e-004
  3.1033750000e+008  -1.0922417855e-003   2.2901122234e-005   9.9527808246e-001  -5.7966801814e-003   1.0014453429e+000  -9.9759863258e-004  -7.9743312622e-004   3.3398243269e-004
  3.1892500000e+008  -1.0716451905e-003   1.6532840187e-004   9.9507768810e-001  -6.2983538840e-003   1.0001833819e+000   2.4583899504e-004  -6.2498899947e-004   5.9385636292e-004
  3.2751250000e+008  -8.5687971939e-004   2.1200833073e-004   9.9313145636e-001  -7.7612457816e-003   1.0005926480e+000  -1.5563536322e-003  -8.7890980879e-004   3.5245203081e-004
  3.3610000000e+008  -8.1601354661e-004   1.1533003056e-004   9.9554029588e-001  -5.9009929214e-003   1.0010346741e+000  -1.2625332735e-003  -5.4243255109e-004   3.5886966859e-004
  3.4468750000e+008  -8.4855511495e-004   2.8506880081e-004   9.9402858476e-001  -5.9652657661e-003   1.0003920822e+000  -2.3328316629e-004  -6.2052679617e-004   1.8082474386e-004
  3.5327500000e+008  -6.7316617278e-004   2.7457391090e-004   9.9434702533e-001  -7.2030953351e-003   9.9979060061e-001  -1.2594942053e-003  -6.0787736657e-004  -3.6743204814e-006
  3.6186250000e+008  -3.8148859735e-004   1.9917657472e-004   9.9526091826e-001  -7.3511171266e-003   1.0005800668e+000  -7.7320797214e-004  -7.1465766657e-004   4.8841435228e-004
  3.7045000000e+008  -8.6393082560e-004   4.6554978049e-004   9.9311650771e-001  -6.7588198373e-003   1.0002581690e+000  -1.0479619064e-003  -5.2436648552e-004   3.4336470519e-004
  3.7903750000e+008  -1.1144258256e-004   5.4573822782e-004   9.9386751496e-001  -6.4384325525e-003   9.9998122557e-001  -7.9475208816e-004  -5.3941540660e-004   3.6390420775e-004
  3.8762500000e+008  -2.5741394445e-004   6.0860428866e-004   9.9509998675e-001  -6.4557194163e-003   1.0005135696e+000  -8.2117429579e-004  -6.1301849946e-004   4.4608626020e-004
  3.9621250000e+008  -8.9956738225e-005   3.4630578771e-004   9.9445666216e-001  -7.0871490650e-003   1.0005881821e+000  -9.9023778343e-004  -3.2765267965e-004   5.2668753173e-004
  4.0480000000e+008   2.3207344799e-004   1.8990812787e-004   9.9578092694e-001  -6.5138830338e-003   1.0005810778e+000  -1.0354960964e-003  -5.9075473272e-005   3.0023114904e-004
  4.1338750000e+008   4.2457357217e-004   2.3251063573e-004   9.9556922084e-001  -6.1855637863e-003   1.0008176837e+000  -9.1600708556e-004  -9.1906450320e-005   5.6556513294e-004
  4.2197500000e+008   5.6659763881e-005  -1.6310647406e-004   9.9580579314e-001  -7.3853446984e-003   1.0005282941e+000  -1.4829549191e-003   2.7856008694e-004   6.1040738661e-004
  4.3056250000e+008   2.4229428743e-004  -5.0690340192e-005   9.9620798969e-001  -7.4377218178e-003   1.0008171649e+000  -1.2430863629e-003   4.4520393115e-004   3.8465760912e-004
  4.3915000000e+008   1.1699703352e-005  -4.6228653830e-004   9.9678753641e-001  -5.6275990586e-003   1.0004723658e+000  -1.5402554386e-003   3.9423039982e-004   3.8934806518e-004
  4.4773750000e+008   4.5538287291e-005  -2.1757157779e-004   9.9674785187e-001  -6.0514075560e-003   1.0003760174e+000  -1.5568583779e-003   7.2023522300e-004   9.5528496422e-005
  4.5632500000e+008  -7.8317193881e-005  -2.7015907183e-004   9.9450882511e-001  -6.4193301089e-003   1.0002794194e+000  -1.4345931009e-003   6.3115515783e-004   3.3263768567e-004
  4.6491250000e+008  -2.9883703142e-004  -3.4770516341e-004   9.9556923138e-001  -7.0151599158e-003   1.0001821293e+000  -1.5369528678e-003   6.6106812018e-004   1.8092597560e-004
  4.7350000000e+008  -5.7643538241e-004  -3.7811896629e-004   9.9438744014e-001  -6.6654470498e-003   1.0003538706e+000  -1.5101356509e-003   6.7084770664e-004  -3.5966821429e-005
  4.8208750000e+008  -4.0544865229e-004   7.4160147052e-005   9.9311106569e-001  -6.8970134318e-003   9.9998274392e-001  -1.1203405140e-003   8.3645037955e-004   1.2604289720e-004
  4.9067500000e+008  -1.5414653724e-004  -5.2750914111e-004   9.9209185055e-001  -7.5204917262e-003   1.0002532912e+000  -1.3292426158e-003   5.2393984658e-004  -1.2071578083e-005
  4.9926250000e+008  -2.1171951857e-004  -2.1231223300e-004   9.9365436257e-001  -6.5175872981e-003   1.0002121209e+000  -1.3835482589e-003   6.2321265547e-004  -7.9778473771e-006
  5.0785000000e+008  -6.8945566340e-004  -1.5449067059e-004   9.9169168619e-001  -7.5624483983e-003   9.9994252685e-001  -9.7325479932e-004   3.4421162038e-004   1.7861677501e-004
  5.1643750000e+008  -4.0560693919e-004   2.0955766516e-004   9.9086262454e-001  -5.8846860402e-003   1.0004270179e+000  -1.1921627707e-003   4.9005939013e-004  -2.6201841828e-004
  5.2502500000e+008  -1.6636093152e-004   4.4867882868e-004   9.9302995792e-001  -6.3028941096e-003   1.0001228307e+000  -7.7294823498e-004   2.4591226192e-004  -4.2516260607e-004
  5.3361250000e+008   3.3081652297e-004  -4.9865638804e-005   9.9317285344e-001  -7.6616143662e-003   1.0000748566e+000  -1.3710014991e-003   5.3332786424e-005  -5.1522612377e-004
  5.4220000000e+008   5.6231309081e-004   1.0934065486e-004   9.9293206631e-001  -8.0228330981e-003   1.0004732704e+000  -1.8816354895e-003  -8.6676551869e-004  -2.7050131736e-004
  5.5078750000e+008   5.3710181591e-004  -5.7636971819e-004   9.9345382351e-001  -8.4247769780e-003   1.0001584294e+000  -1.6068454455e-003  -8.1947204157e-004  -1.5590987889e-004
  5.5937500000e+008   3.4235172799e-004  -8.3153201031e-004   9.9120182905e-001  -6.6273926018e-003   9.9975925598e-001  -1.9323909748e-003  -7.3674751539e-004   8.5055998546e-005
  5.6796250000e+008   1.7923687667e-004  -9.1046392315e-004   9.9318562996e-001  -6.9799116413e-003   9.9996070390e-001  -1.1973227338e-003  -9.5159169984e-004   4.7898408634e-004
  5.7655000000e+008  -4.4209244025e-004  -1.0479607880e-003   9.9352932441e-001  -9.5282200413e-003   1.0006326069e+000  -1.7507661815e-003  -8.1902470689e-004   7.4786990557e-004
  5.8513750000e+008  -5.3103935020e-004  -8.1828223970e-004   9.9281791481e-001  -7.9199539710e-003   9.9940985400e-001  -1.1581700033e-003  -8.9068004685e-004   9.1207224510e-004
  5.9372500000e+008  -6.6511270209e-004  -8.0412010995e-004   9.9171346286e-001  -7.1493748813e-003   1.0001885332e+000  -2.0776237234e-003  -4.5403441292e-004   9.9097516975e-004
  6.0231250000e+008  -1.0263255270e-003  -4.0444581695e-004   9.9125953123e-001  -6.9052570888e-003   1.0004789843e+000  -2.0423621609e-003  -3.6827899891e-004   8.6209923877e-004
  6.1090000000e+008  -8.9616288794e-004  -4.4028270436e-004   9.9180104582e-001  -8.5520211681e-003   9.9995812075e-001  -1.0510344877e-003  -4.3600199566e-004   8.7189502130e-004
  6.1948750000e+008  -9.3155197716e-004   1.2137619290e-004   9.9246012722e-001  -7.2399486774e-003   9.9954522060e-001  -1.8433135715e-003  -2.0099626889e-004   6.7721402127e-004
  6.2807500000e+008  -7.6933585122e-004   1.8425554625e-004   9.9132157914e-001  -9.6197831543e-003   9.9949024875e-001  -2.0620624658e-003   1.7396077471e-004   4.1356443320e-004
  6.3666250000e+008  -3.6565491049e-004   7.4060147318e-004   9.9376321509e-001  -7.2554591478e-003   9.9983381859e-001  -1.9565763161e-003   1.5592365926e-004   2.5915314610e-004
  6.4525000000e+008  -5.5845080848e-005   5.3638817834e-004   9.9347215954e-001  -5.5244621943e-003   9.9992999273e-001  -2.1630082999e-003   3.1412236703e-004  -6.0430975184e-006
  6.5383750000e+008   1.9757401672e-004   3.1128012694e-004   9.9475897710e-001  -7.5594040362e-003   1.0000728405e+000  -1.2289448171e-003   2.9036171051e-004  -5.4182000852e-005
  6.6242500000e+008   4.1134576312e-004   1.6901279190e-004   9.9234877486e-001  -7.4489169341e-003   1.0008760650e+000  -2.6123903243e-003   3.5405716474e-004  -3.8416414535e-004
  6.7101250000e+008   4.1079553018e-004  -1.8466785890e-004   9.9229844181e-001  -6.7122693793e-003   9.9994879612e-001  -1.6046514111e-003   3.4454473420e-004  -5.8681584257e-004
  6.7960000000e+008   5.1803500100e-004  -4.7306507716e-004   9.9263684419e-001  -7.8494686565e-003   1.0002222634e+000  -2.2282319394e-003   1.6363472021e-004  -9.9464231543e-004
  6.8818750000e+008   1.1348144058e-004  -8.8321044625e-004   9.9372668980e-001  -7.5627138694e-003   1.0005341078e+000  -1.7571641054e-003   1.1837951198e-004  -1.0347155053e-003
  6.9677500000e+008   2.1352084306e-004  -9.7048700787e-004   9.9340003030e-001  -7.0708905497e-003   9.9982383443e-001  -1.9731672390e-003  -1.1809633102e-004  -1.2680247298e-003
  7.0536250000e+008  -3.2803968778e-004  -1.0766338655e-003   9.9464543506e-001  -7.0684089547e-003   1.0000621851e+000  -2.2656941364e-003  -3.5518131342e-004  -1.2856613241e-003
  7.1395000000e+008  -7.2921306383e-004  -1.0406021384e-003   9.9329594003e-001  -7.6795396661e-003   9.9998978848e-001  -1.9316121568e-003  -5.3444645113e-004  -1.2111665010e-003
  7.2253750000e+008  -1.1729182180e-003  -8.6474676414e-004   9.9161699079e-001  -7.4922905925e-003   9.9990457466e-001  -2.1341965361e-003  -7.6578527228e-004  -1.1974468021e-003
  7.3112500000e+008  -1.1765278523e-003  -5.2501287833e-004   9.9217314179e-001  -7.3879013372e-003   1.0007187261e+000  -1.7574266804e-003  -1.0044686280e-003  -9.9905615516e-004
  7.3971250000e+008  -1.0019558636e-003  -9.0701843253e-005   9.9250413408e-001  -8.2811969227e-003   9.9963240582e-001  -2.4820192057e-003  -1.1465700216e-003  -7.4378293750e-004
  7.4830000000e+008  -9.6761329452e-004   5.0445944856e-004   9.9244162490e-001  -7.1749858521e-003   9.9908478283e-001  -1.7661967265e-003  -1.0421019538e-003  -6.9337089081e-004
  7.5688750000e+008  -7.8267501190e-004   6.6957410430e-004   9.9284206644e-001  -8.6874738724e-003   9.9875952436e-001  -2.0757149255e-003  -1.1931141834e-003  -3.5434912159e-004
  7.6547500000e+008  -2.0187864393e-004   8.6009133010e-004   9.9464268545e-001  -8.1201929424e-003   9.9957826230e-001  -2.1565571080e-003  -1.1665565629e-003  -1.2820138631e-004
  7.7406250000e+008   9.1916989206e-005   8.6613044928e-004   9.9288096930e-001  -8.9717375184e-003   1.0001315854e+000  -1.8804399354e-003  -8.6948201851e-004   1.3231108635e-004
  7.8265000000e+008   4.0794630023e-004   6.7466457356e-004   9.9279616193e-001  -7.8421461246e-003   9.9946552381e-001  -2.4157300474e-003  -8.2229617579e-004   6.4011563427e-004
  7.9123750000e+008   6.8680828339e-004   5.1546243725e-004   9.9384158945e-001  -7.2099017762e-003   1.0001956572e+000  -2.0205811884e-003  -8.0391360938e-004   5.5482293538e-004
  7.9982500000e+008   7.4534360497e-004   2.8916317817e-004   9.9442619742e-001  -6.7614044285e-003   1.0002183756e+000  -1.5271215566e-003  -5.9295703272e-004   6.9161517608e-004
  8.0841250000e+008   1.1201179201e-003   4.4526594671e-005   9.9345966849e-001  -8.5689877104e-003   9.9970637682e-001  -2.6530921835e-003  -4.8009993377e-004   1.0895836821e-003
  8.1700000000e+008   1.2889846508e-003  -3.7259727782e-004   9.9506976507e-001  -6.9513605878e-003   9.9990692088e-001  -1.8362427739e-003  -4.4806776244e-004   1.0571765807e-003
  8.2558750000e+008   1.1314910552e-003  -6.9649735131e-004   9.9453341215e-001  -7.2376627010e-003   1.0003140873e+000  -2.2705037314e-003  -3.8623199348e-004   1.1487173941e-003
  8.3417500000e+008   9.2621468131e-004  -1.2193136940e-003   9.9381878050e-001  -8.4654837846e-003   1.0006311531e+000  -3.0578856145e-003   6.0088804234e-006   1.2457064838e-003
  8.4276250000e+008   3.7049179628e-004  -1.2647223635e-003   9.9155769353e-001  -7.9942890602e-003   9.9918614866e-001  -2.7908675579e-003   1.7251377382e-004   1.2358332474e-003
  8.5135000000e+008  -9.2984418741e-005  -1.2750373774e-003   9.9375806436e-001  -7.5521665674e-003   1.0002180710e+000  -2.1761480143e-003   3.2479898260e-004   1.1580362171e-003
  8.5993750000e+008  -3.5607464857e-004  -1.2328811608e-003   9.9295994909e-001  -7.5741175635e-003   1.0003216789e+000  -3.3644156029e-003   3.1876364466e-004   1.0063475742e-003
  8.6852500000e+008  -5.1517365105e-004  -8.1460354739e-004   9.9150304550e-001  -8.9817004470e-003   9.9920690935e-001  -2.2539327570e-003   5.4155792235e-004   7.0342210180e-004
  8.7711250000e+008  -4.5538537150e-004  -5.5677711563e-004   9.9295368792e-001  -7.2119711763e-003   1.0006515554e+000  -2.6017054382e-003   5.6703766868e-004   3.8496340609e-004
  8.8570000000e+008  -3.5359558529e-004  -3.0252001956e-004   9.9458593840e-001  -6.7059171001e-003   9.9937769643e-001  -3.0890709666e-003   4.8443117966e-004   4.1912364471e-005
  8.9428750000e+008  -3.1262694973e-004  -2.9892441246e-005   9.9393068773e-001  -8.0487717591e-003   1.0003200527e+000  -3.6681542633e-003   2.6630136738e-004  -1.8891936457e-004
  9.0287500000e+008   2.1010709286e-004  -2.9310747050e-004   9.9349278180e-001  -7.6740598059e-003   9.9958431440e-001  -3.5107314314e-003  -4.3687196812e-005  -3.5970753841e-004
  9.1146250000e+008   2.8760735196e-004  -2.8201157655e-004   9.9260677196e-001  -8.2279605168e-003   9.9875941556e-001  -3.1985534848e-003  -3.7531410341e-004  -4.3558007386e-004
  9.2005000000e+008   2.0633302120e-004  -3.6621777298e-004   9.9322948221e-001  -8.4371021617e-003   9.9873526267e-001  -2.4139708354e-003  -6.7400749809e-004  -6.1544585430e-004
  9.2863750000e+008   4.4905921971e-004  -6.2813836769e-004   9.9505918677e-001  -8.3212425291e-003   9.9900669312e-001  -4.0801595639e-003  -8.8211264486e-004  -5.4647961607e-004
  9.3722500000e+008   3.2486227327e-004  -8.8969373092e-004   9.9405932169e-001  -6.8361515087e-003   9.9861030965e-001  -2.9359742391e-003  -1.0218923046e-003  -6.5400354906e-004
  9.4581250000e+008   2.7267583887e-004  -1.2006834077e-003   9.9416051948e-001  -7.1865230901e-003   9.9890028749e-001  -2.3915088310e-003  -1.3321493885e-003  -4.4420336998e-004
  9.5440000000e+008  -1.7735846577e-004  -1.3550368488e-003   9.9228254783e-001  -8.2438324997e-003   1.0004144337e+000  -1.8010516182e-003  -1.3528552915e-003  -3.7698482749e-004
  9.6298750000e+008  -4.3514583306e-004  -1.3864261480e-003   9.9409728974e-001  -5.7282134276e-003   1.0002933486e+000  -2.1588544851e-003  -1.3605243210e-003  -7.6017241909e-005
  9.7157500000e+008  -7.4388043656e-004  -1.1950200012e-003   9.9407217623e-001  -7.8689793871e-003   1.0002853910e+000  -3.3361967779e-003  -1.3902932690e-003  -6.4315873910e-005
  9.8016250000e+008  -9.5849466119e-004  -9.6833688980e-004   9.9444129525e-001  -7.5483784778e-003   9.9982868653e-001  -4.1116638362e-003  -1.5197271665e-003   1.2879109223e-004
  9.8875000000e+008  -1.0958736261e-003  -6.2847456794e-004   9.9742762337e-001  -6.4550684049e-003   9.9962694109e-001  -2.3119951569e-003  -1.3567117733e-003   2.0326696562e-004
  9.9733750000e+008  -1.0557431643e-003  -3.0655214772e-004   9.9687633086e-001  -6.9100907357e-003   9.9938581741e-001  -1.8618467329e-003  -1.0952228085e-003   1.0262406887e-004
  1.0059250000e+009  -9.3094816187e-004   6.8834340828e-005   9.9321890987e-001  -7.9117961095e-003   9.9990061699e-001  -3.1128921272e-003  -5.9376605453e-004   3.3541750227e-004
  1.0145125000e+009  -7.9588988060e-004   4.6899853661e-004   9.9190519427e-001  -1.0591751192e-002   9.9958224258e-001  -3.1386318506e-003  -3.0948184038e-004   2.0898301179e-004
  1.0231000000e+009  -4.3394723428e-004   4.2357676843e-004   9.9177207487e-001  -7.3791639001e-003   9.9892960982e-001  -2.9898232054e-003  -2.5501113481e-004   2.6080280361e-004
  1.0316875000e+009  -2.1493115540e-004   7.4732195150e-004   9.9336160768e-001  -9.8435908872e-003   9.9953668774e-001  -3.5653572373e-003   1.0124246677e-004   1.3202118060e-005
  1.0402750000e+009   1.4977395013e-004   6.2450892190e-004   9.9329797545e-001  -8.6141847115e-003   9.9972988412e-001  -2.1932600632e-003   4.0890977319e-004  -1.5071512120e-004
  1.0488625000e+009   4.9341118068e-004   4.6541705742e-004   9.9176664208e-001  -8.8747706949e-003   9.9920789752e-001  -2.3657034943e-003   6.3185983802e-004  -3.9723633176e-004
  1.0574500000e+009   6.0655823835e-004   9.4729084702e-005   9.9340413006e-001  -8.1496217609e-003   9.9927763605e-001  -3.3705701461e-003   7.8967568093e-004  -5.2882271469e-004
