# Hz S RI R 50.000000
! Metas.Vna.Tools, 2.8.8664.20301
! Metas.Vna.Data, 2.8.8664.20285
! Created: UTC 2024.02.11 10:08:08
! FREQ                re:S1,1             im:S1,1             re:S2,1             im:S2,1             re:S1,2             im:S1,2             re:S2,2             im:S2,2          
  1.3000000000e+008   3.8758003071e-004  -1.2495908129e-003   1.0039862420e+000  -5.0980002375e-004   1.0002565232e+000  -1.7600193830e-003   6.9979159155e-004   7.1986443959e-004
  1.3858750000e+008  -3.7569570819e-004  -1.0208868853e-003   1.0054588971e+000   3.7036896638e-004   1.0001663278e+000  -1.3798843919e-003   9.8649625636e-004  -3.4162920962e-006
  1.4717500000e+008  -8.5915357969e-004  -3.4581857846e-004   1.0031461419e+000  -1.4563386090e-003   1.0003769023e+000  -1.8830164722e-003  -1.1037269858e-004   1.1830489338e-004
  1.5576250000e+008  -9.8079228753e-004   3.7913018447e-004   1.0023125073e+000  -1.4116884219e-003   1.0003777975e+000  -1.5262536862e-003   7.0119105754e-004  -8.6327614171e-004
  1.6435000000e+008  -4.7800029462e-005   4.0442746156e-004   1.0000540168e+000  -9.4371343030e-004   1.0002667656e+000  -1.9186312578e-003   3.6281535344e-004  -6.2271721314e-006
  1.7293750000e+008  -6.9396205534e-004   6.1744818517e-004   9.9876071710e-001  -1.8147223660e-003   1.0000006887e+000  -1.7945884644e-003   6.6649048143e-004  -6.8315951978e-004
  1.8152500000e+008   2.2935261830e-004  -1.8739516748e-004   9.9757691023e-001  -2.3236785054e-003   9.9944382601e-001  -2.0415483873e-003  -1.3189709290e-004  -1.2342986561e-004
  1.9011250000e+008  -2.8782047219e-004   3.2609676336e-004   9.9921940274e-001  -3.0396832096e-003   1.0003182828e+000  -1.8614911147e-003  -3.3715621334e-004  -7.9495552094e-004
  1.9870000000e+008  -4.7113073405e-006   7.4336835971e-004   9.9991335233e-001  -6.6616989489e-004   1.0003890786e+000  -2.5575807925e-003   3.1918692313e-005  -8.5553321957e-005
  2.0728750000e+008   1.7694559078e-004   3.4853976320e-004   9.9752025280e-001  -2.3728738761e-003   1.0009949004e+000  -2.0802095128e-003   6.1441641362e-005  -3.7743148135e-004
  2.1587500000e+008   7.6378115626e-005  -4.0492306092e-004   1.0047939214e+000  -4.4926383209e-004   9.9953529789e-001  -1.8110966694e-003  -2.4601551324e-004   2.9877115574e-004
  2.2446250000e+008   2.6167558214e-004  -5.4440944568e-004   1.0047841799e+000  -3.2155498568e-004   9.9991407583e-001  -2.6461242950e-003  -1.7470602343e-004   1.1543334036e-004
  2.3305000000e+008   1.5001345031e-004  -2.0557714283e-004   1.0046095889e+000  -4.6234332253e-004   1.0000621985e+000  -1.7632875639e-003  -3.4508921815e-004   1.1422143193e-004
  2.4163750000e+008  -2.0002933267e-004  -4.8249110257e-004   1.0043226349e+000  -1.6302141470e-003   1.0001759632e+000  -2.3560894716e-003  -5.9983016127e-004   2.1255421591e-004
  2.5022500000e+008  -4.1423369468e-004  -5.2341491993e-004   1.0045423051e+000  -3.1274191339e-004   9.9928208423e-001  -2.1736967698e-003  -7.5742533854e-004   3.7748665728e-004
  2.5881250000e+008  -4.2282007421e-004  -6.5043323194e-004   1.0032432351e+000   5.4134049992e-004   9.9942158604e-001  -2.4089835221e-003  -4.3660768053e-004   4.4639218087e-004
  2.6740000000e+008  -5.1577458557e-004  -2.6697282545e-004   1.0057882382e+000  -1.2787184433e-003   9.9998792983e-001  -3.2829493108e-003  -4.4000423698e-004   3.5442909676e-004
  2.7598750000e+008  -1.2569570074e-004   1.0980858294e-004   1.0043140815e+000  -7.8209366455e-004   1.0002416338e+000  -2.8816177065e-003  -1.8690328550e-004   4.4576946961e-004
  2.8457500000e+008  -7.7528090474e-004  -2.9527543246e-004   1.0046332726e+000  -1.8852589262e-004   1.0007847499e+000  -1.9335501040e-003  -3.6243593681e-005   1.0508687864e-003
  2.9316250000e+008  -4.5726278603e-004  -7.4558661601e-005   1.0040971609e+000  -1.0250879085e-003   1.0000985239e+000  -2.5760820548e-003  -2.1035301298e-004   3.7180562070e-004
  3.0175000000e+008  -6.4501692319e-004   6.6302825554e-004   1.0039491691e+000  -4.0914168489e-003   1.0002199561e+000  -2.2759664710e-003   2.3342469566e-004   2.5200843306e-004
  3.1033750000e+008  -6.4580752761e-004   3.1073749368e-004   1.0042089048e+000  -3.1279885599e-004   1.0009793921e+000  -2.7336504401e-003  -4.2022665869e-004   4.8876753349e-004
  3.1892500000e+008  -4.1251447393e-004   3.0785775299e-004   1.0039080378e+000  -1.5626635817e-003   9.9954606553e-001  -1.8435871732e-003  -1.9657299940e-004   6.8803907204e-005
  3.2751250000e+008  -3.9682144833e-004   3.7980208736e-004   1.0042468286e+000  -1.0992393037e-003   9.9997928611e-001  -3.6023671126e-003  -2.2469669014e-004   1.3701186575e-004
  3.3610000000e+008  -3.0222044273e-004   2.8685244693e-005   1.0049287007e+000  -1.3607857813e-003   1.0008840498e+000  -2.6725475868e-003  -3.6399117257e-004   2.4500677743e-004
  3.4468750000e+008  -5.7183876344e-004  -2.1360120262e-006   1.0049606406e+000  -3.7505540465e-004   1.0003144205e+000  -2.0472221702e-003  -3.1080996049e-005   4.2586643093e-005
  3.5327500000e+008  -1.8818421125e-005   1.6693533913e-005   1.0050517577e+000  -2.6110661507e-003   9.9892838114e-001  -3.0519710196e-003  -2.6058788908e-004   4.5539494982e-005
  3.6186250000e+008  -2.0382483472e-004   1.5623251103e-004   1.0044158042e+000  -1.2453018015e-003   1.0000814729e+000  -2.4820369238e-003   1.7616672501e-004   3.7610803290e-004
  3.7045000000e+008  -3.6465972878e-004   1.5477173511e-004   1.0036581238e+000  -1.8624151563e-003   9.9982262007e-001  -2.3902927673e-003  -2.4473051286e-004   2.2365408794e-004
  3.7903750000e+008  -2.4805392496e-004   4.3823000925e-004   1.0041803035e+000  -6.1449235694e-004   9.9984378894e-001  -2.4379489712e-003  -9.7335065142e-005   9.9005320765e-005
  3.8762500000e+008  -3.4100853012e-004   3.0070494795e-004   1.0062152277e+000  -1.2553046970e-003   9.9907930613e-001  -2.7648916667e-003  -2.2063882496e-004   4.2951322808e-004
  3.9621250000e+008  -2.2801749395e-004   8.1781922905e-005   1.0039396276e+000  -1.2390217403e-003   9.9950682712e-001  -2.7892440602e-003  -4.3009156064e-004   4.7136481755e-004
  4.0480000000e+008   9.1697492234e-006   2.3348192428e-004   1.0052151581e+000  -1.0106425007e-003   9.9991079878e-001  -2.5032562426e-003  -4.9137462184e-005   2.5781430669e-004
  4.1338750000e+008   7.9536133365e-005   1.2247088495e-004   1.0047585116e+000  -1.5007098633e-003   1.0004586738e+000  -2.6242064380e-003   5.1919043367e-005   2.5960560110e-004
  4.2197500000e+008  -7.4584207055e-005  -1.0533759824e-004   1.0052385167e+000  -1.8081898199e-003   1.0000077740e+000  -3.0063579324e-003   1.2371447308e-004   5.9051083528e-004
  4.3056250000e+008  -1.5171193363e-005   3.1615746210e-004   1.0042789547e+000  -1.5330538321e-003   9.9986324642e-001  -2.9965907952e-003   2.7594232636e-004   4.1212959174e-004
  4.3915000000e+008   1.2986576332e-004   1.8368520429e-004   1.0065601425e+000  -4.7147732315e-004   9.9990395178e-001  -3.1370740606e-003   2.4005094940e-004   4.5667534394e-004
  4.4773750000e+008   1.4475065473e-004  -2.4784171938e-005   1.0067724015e+000  -9.5583269275e-004   9.9976254280e-001  -3.2161069407e-003   2.5552918454e-004   2.2374155366e-004
  4.5632500000e+008   1.2942702945e-004  -3.3229877513e-007   1.0043309107e+000  -8.8544473406e-004   1.0000650977e+000  -3.1097459444e-003   5.9676443979e-004   3.3938343110e-004
  4.6491250000e+008   2.5573008841e-005   1.7207647403e-005   1.0040035559e+000  -2.0876449618e-003   9.9957007942e-001  -2.8267067837e-003   4.4498345749e-004   1.7282886816e-004
  4.7350000000e+008  -1.7019468516e-004  -3.6758532384e-004   1.0047814745e+000  -2.1956117631e-003   9.9965049841e-001  -2.8490174734e-003   2.5828343168e-004   1.7670202538e-004
  4.8208750000e+008  -8.6527842473e-005   1.6010350216e-005   1.0023269279e+000  -2.2438763724e-003   9.9940510093e-001  -2.4481300790e-003   5.3772429717e-004   2.4620864734e-004
  4.9067500000e+008   2.9681707582e-004  -5.5426765630e-004   1.0024409086e+000  -2.5160577987e-003   1.0000912329e+000  -3.0043623898e-003   2.9671738414e-004   1.4686794801e-004
  4.9926250000e+008  -1.1278629991e-004  -5.5980932936e-004   1.0021283377e+000  -2.1609552249e-003   9.9983246115e-001  -2.8130103895e-003   6.2727222344e-004   3.0659514775e-004
  5.0785000000e+008  -6.0593922070e-004  -4.0459669381e-004   1.0028657544e+000  -2.4256695172e-003   9.9934364350e-001  -1.9229823802e-003   5.3516797419e-004   4.5521701444e-004
  5.1643750000e+008  -7.0231017211e-004   9.5166122346e-005   1.0024275877e+000  -1.3081954868e-003   9.9982160108e-001  -2.6420049677e-003   8.5991865788e-004   1.5592060890e-004
  5.2502500000e+008  -5.6043268676e-004   4.2077931777e-004   1.0033313829e+000  -9.6575953844e-004   1.0002797780e+000  -2.0117917102e-003   4.3853495741e-004  -2.3735524869e-004
  5.3361250000e+008   8.9341887000e-005   4.8995764069e-004   1.0032848659e+000  -2.1987789031e-003   9.9988245238e-001  -2.7373571786e-003   2.1497198573e-004  -6.3334887781e-004
  5.4220000000e+008   4.4722959455e-004   3.5263629518e-004   1.0033356902e+000  -2.1455370509e-003   1.0001985841e+000  -2.7872596198e-003  -7.0540664612e-004  -4.3872908012e-004
  5.5078750000e+008   4.7303782961e-004  -3.4032691095e-004   1.0034678689e+000  -2.6306293220e-003   1.0001439355e+000  -3.4340823533e-003  -6.2119801490e-004  -5.2731574644e-004
  5.5937500000e+008   2.8680760840e-004  -2.7303992556e-004   1.0022637263e+000  -1.4419941025e-003   1.0004013113e+000  -2.9448883122e-003  -6.2176036899e-004  -2.8585439860e-005
  5.6796250000e+008   2.7081263122e-004  -5.1911601333e-004   1.0039869755e+000  -1.8628776307e-003   9.9983816568e-001  -3.1717820789e-003  -7.0487703012e-004   2.3002375798e-004
  5.7655000000e+008  -1.1881979817e-004  -6.9689173733e-004   1.0038832253e+000  -5.0122011466e-003   9.9983945754e-001  -3.3354429607e-003  -4.8741862579e-004   4.0385268750e-004
  5.8513750000e+008  -2.1552788778e-004  -3.4004768075e-004   1.0030210854e+000  -2.8318473333e-003   9.9993127718e-001  -3.0039577151e-003  -5.4678322100e-004   6.7451391850e-004
  5.9372500000e+008  -3.8737431700e-004  -4.4376731022e-004   1.0030851930e+000  -2.3975736728e-003   9.9945991620e-001  -3.5673604709e-003  -3.2475806368e-004   7.2853596146e-004
  6.0231250000e+008  -7.4474553786e-004  -1.9855341422e-004   1.0035175060e+000  -9.8516964776e-004   9.9956568358e-001  -3.2913508796e-003  -4.1710670854e-005   6.4043180721e-004
  6.1090000000e+008  -4.2190035269e-004  -2.0789968401e-004   1.0029303025e+000  -2.5044333767e-003   9.9938017433e-001  -3.5168059512e-003  -3.1325545873e-004   7.4205145900e-004
  6.1948750000e+008  -4.7997515785e-004  -2.3314521190e-005   1.0030259643e+000  -2.2613888419e-003   9.9954143654e-001  -2.8831945364e-003  -2.3228997935e-004   4.7698069375e-004
  6.2807500000e+008  -5.0189740913e-004  -8.5888116632e-005   1.0035394467e+000  -2.8149532208e-003   1.0004324661e+000  -2.8487544830e-003   5.0254670444e-005   3.1031739773e-004
  6.3666250000e+008  -3.2873698154e-004   2.7744785168e-004   1.0048100127e+000  -1.2910116991e-003   9.9933810807e-001  -3.4535160794e-003   5.0484538229e-005   3.5750024553e-004
  6.4525000000e+008  -9.8410967214e-005   1.9730828433e-004   1.0032055529e+000  -1.9366527318e-003   9.9979192135e-001  -3.6623753708e-003   3.6082931518e-004   3.2411819270e-005
  6.5383750000e+008  -1.0282759146e-005   1.6988784957e-004   1.0032355874e+000  -1.2830749113e-003   9.9977754317e-001  -2.6930480062e-003   3.0886128076e-004   5.1372542378e-005
  6.6242500000e+008   3.3046368174e-005   6.6278810681e-005   1.0017596722e+000  -3.3147334834e-003   1.0003232412e+000  -3.9919454033e-003   4.4626928432e-004  -2.5113751944e-004
  6.7101250000e+008   1.0757152005e-004  -2.8114722153e-005   1.0012494342e+000  -1.1023361892e-003   9.9943781779e-001  -2.8717685112e-003   2.7419624698e-004  -3.0225649501e-004
  6.7960000000e+008   2.8322782046e-004  -8.3887582725e-005   1.0023991158e+000  -2.8306915905e-003   1.0003949042e+000  -3.2514419993e-003   1.8993418606e-004  -5.5444271677e-004
  6.8818750000e+008  -2.2933149313e-005  -3.2289601456e-004   1.0023613032e+000  -3.0997437589e-003   1.0002775538e+000  -3.4761650489e-003   1.8041168156e-004  -7.5384014926e-004
  6.9677500000e+008   5.4573412468e-005  -4.4916501004e-004   1.0027491023e+000  -2.3171266201e-003   9.9925494383e-001  -3.2591886965e-003  -3.0625933952e-005  -5.6506555092e-004
  7.0536250000e+008  -4.7638671593e-005  -4.3958906877e-004   1.0030882550e+000  -3.1304255857e-003   9.9987939681e-001  -3.2003575113e-003  -6.6467861688e-005  -8.3844791782e-004
  7.1395000000e+008  -3.7014043814e-004  -4.6818437180e-004   1.0033946526e+000  -2.7832760486e-003   9.9965093438e-001  -3.5339897433e-003  -2.5096753544e-004  -7.0003014863e-004
  7.2253750000e+008  -7.2722479410e-004  -5.6416085021e-004   9.9750090059e-001  -3.5218741036e-003   9.9976635253e-001  -3.3248628583e-003  -4.2028241690e-004  -6.5146008936e-004
  7.3112500000e+008  -5.2319781222e-004  -1.4247635565e-004   1.0004341951e+000  -2.8386758241e-003   1.0000234268e+000  -2.8911940208e-003  -5.7290787898e-004  -5.6300591742e-004
  7.3971250000e+008  -5.1091631731e-004   8.7272172970e-005   1.0003813168e+000  -4.4997974668e-003   9.9889243559e-001  -4.5846511705e-003  -7.3575300947e-004  -2.4220531053e-004
  7.4830000000e+008  -5.2747025634e-004   2.7704182899e-004   9.9923105832e-001  -2.4076402337e-003   9.9893467263e-001  -3.3625769744e-003  -6.2448746289e-004  -3.5629307430e-004
  7.5688750000e+008  -4.2222123174e-004   5.8803139703e-004   9.9704506887e-001  -4.8188461822e-003   9.9857250534e-001  -3.7191635640e-003  -7.4715865760e-004  -1.5940992503e-005
  7.6547500000e+008  -8.0712821294e-005   5.5039241213e-004   9.9787037672e-001  -4.1857976910e-003   9.9976606699e-001  -3.7245977544e-003  -6.6723187495e-004   7.1343076555e-005
  7.7406250000e+008   6.3733469835e-005   4.3423944790e-004   9.9806910374e-001  -4.6391374934e-003   9.9960734165e-001  -3.4985733712e-003  -4.2359367021e-004   2.3298233095e-004
  7.8265000000e+008  -1.5539049878e-005   3.9369674209e-004   9.9707579028e-001  -4.2483702936e-003   9.9966492821e-001  -3.5357817826e-003  -4.2875018026e-004   5.5735797640e-004
  7.9123750000e+008   2.1837183201e-004   2.9660419897e-004   9.9695427108e-001  -3.5083808416e-003   9.9955980758e-001  -2.6716372949e-003  -3.6691362976e-004   3.0614739703e-004
  7.9982500000e+008   2.3269305250e-004   2.5299279114e-004   9.9944980892e-001  -2.4922916690e-003   9.9953936421e-001  -2.9857364766e-003  -4.0158716024e-004   4.0904305167e-004
  8.0841250000e+008   5.7725902597e-004   3.1208289439e-004   9.9783386343e-001  -4.2589647809e-003   9.9969126659e-001  -2.7669321811e-003  -2.2812523365e-004   5.0176396676e-004
  8.1700000000e+008   6.0441408337e-004   2.5417744617e-004   1.0000277399e+000  -2.9181597034e-003   9.9964919914e-001  -3.6227195229e-003  -3.4272551677e-004   5.1507777641e-004
  8.2558750000e+008   9.1824999996e-004   4.3055638041e-005   1.0007825145e+000  -3.1373558776e-003   1.0005492222e+000  -3.5831702231e-003  -3.7432482612e-004   6.5914671690e-004
  8.3417500000e+008   9.6185398633e-004  -5.0635783390e-004   9.9907579940e-001  -2.9919052624e-003   1.0007863754e+000  -3.7523222992e-003  -4.0495096479e-004   7.2552817592e-004
  8.4276250000e+008   7.7445540905e-004  -7.4012109562e-004   9.9779783062e-001  -2.7179364481e-003   1.0001996058e+000  -4.4319277851e-003  -2.8588162501e-004   7.2037091716e-004
  8.5135000000e+008   3.7066242159e-004  -9.0484997865e-004   9.9995390653e-001  -3.3100418306e-003   1.0005093441e+000  -3.4711916047e-003  -9.6704824359e-006   1.1126550791e-003
  8.5993750000e+008   1.1102222790e-004  -9.7880205566e-004   9.9967761766e-001  -3.1230739403e-003   9.9975000156e-001  -4.4233994570e-003   1.2402422564e-004   9.2366852882e-004
  8.6852500000e+008  -2.6253565354e-004  -9.2110850640e-004   9.9856042794e-001  -3.3645928299e-003   1.0005174482e+000  -3.7949328329e-003   4.6271724059e-004   8.3866783473e-004
  8.7711250000e+008  -3.8521967061e-004  -6.3711925138e-004   9.9780140233e-001  -3.5530777215e-003   1.0000289325e+000  -4.2973148763e-003   3.3170293457e-004   3.3157903130e-004
  8.8570000000e+008  -3.8495356543e-004  -3.9317539297e-004   9.9949684313e-001  -2.6840099859e-003   9.9997363906e-001  -3.4719355787e-003   5.0373593869e-004   2.4738308639e-004
  8.9428750000e+008  -3.1210885010e-004  -1.8902672045e-004   9.9716262869e-001  -4.5647314799e-003   9.9908564900e-001  -4.3088347390e-003   2.4249775446e-004  -3.6752208410e-005
  9.0287500000e+008  -1.9498145740e-004  -1.1008595102e-004   9.9881038731e-001  -4.1040409429e-003   9.9878456121e-001  -4.4195119288e-003   1.9288581040e-004  -2.8447309464e-004
  9.1146250000e+008  -1.1359083771e-004   5.7286597100e-006   9.9934689364e-001  -4.5358409226e-003   9.9906587841e-001  -4.0262754912e-003  -1.8006897893e-004  -2.4610201996e-004
  9.2005000000e+008  -4.8540217707e-005  -6.4176676346e-005   9.9898547709e-001  -3.7884459075e-003   9.9839624675e-001  -2.9099496145e-003  -4.0115248451e-004  -4.5785028303e-004
  9.2863750000e+008   8.2062010911e-005  -1.5021764454e-004   9.9940134379e-001  -3.3883417260e-003   9.9954348350e-001  -4.5604493013e-003  -4.4502705271e-004  -5.6892198508e-004
  9.3722500000e+008   1.1271045491e-004  -3.4227743153e-004   9.9810679349e-001  -3.9963709942e-003   9.9897338413e-001  -4.5354568092e-003  -6.4595167629e-004  -6.2549403603e-004
  9.4581250000e+008   2.5823676000e-004  -5.4043671286e-004   9.9737103983e-001  -3.5181394774e-003   9.9911272584e-001  -4.3373026012e-003  -8.5183503058e-004  -3.1370220083e-004
  9.5440000000e+008  -1.1581419853e-005  -6.5851535281e-004   9.9793476968e-001  -4.8723427370e-003   1.0004295557e+000  -3.6670860133e-003  -9.9206278183e-004  -3.1700727001e-004
  9.6298750000e+008  -2.5641283729e-004  -7.4807297303e-004   1.0005683090e+000  -2.7111578115e-003   9.9995965478e-001  -4.4469914121e-003  -9.4158982168e-004  -2.2147701569e-004
  9.7157500000e+008  -4.4051890388e-004  -8.5823487991e-004   9.9880107051e-001  -4.2650449424e-003   1.0000158812e+000  -3.7470261378e-003  -1.0096451897e-003  -1.2680735117e-004
  9.8016250000e+008  -6.5527715648e-004  -6.8315083378e-004   9.9912592697e-001  -3.0532454545e-003   9.9988245882e-001  -4.5386930079e-003  -9.3240872315e-004   3.5162663472e-005
  9.8875000000e+008  -8.6234524754e-004  -4.7352993931e-004   9.9825167614e-001  -3.1185463028e-003   9.9971420923e-001  -4.3396141086e-003  -9.4717597702e-004   2.4851977873e-004
  9.9733750000e+008  -8.5581366768e-004  -2.4718821474e-004   9.9835936913e-001  -4.4792166326e-003   9.9886677930e-001  -2.8130014256e-003  -7.8091362041e-004   1.3052409008e-004
  1.0059250000e+009  -8.2869613519e-004   7.0130087142e-005   9.9943901666e-001  -3.8208968124e-003   9.9993793646e-001  -3.5965904630e-003  -5.3284422392e-004   3.0218380742e-004
  1.0145125000e+009  -8.3655684288e-004   3.5402643221e-004   9.9868619141e-001  -5.0809574329e-003   9.9999096423e-001  -3.8806968192e-003  -3.6769171754e-004   3.0299368155e-004
  1.0231000000e+009  -5.9575468923e-004   4.7467289031e-004   9.9904498417e-001  -3.5889413712e-003   9.9984609966e-001  -4.0118427171e-003  -1.8852391507e-004   4.2311187863e-004
  1.0316875000e+009  -4.2699239931e-004   7.5920680600e-004   9.9831675698e-001  -5.9049293928e-003   9.9868238006e-001  -4.6143655958e-003   7.1881377995e-005   2.6459491940e-004
  1.0402750000e+009  -4.4260868109e-005   8.0480507423e-004   9.9812187302e-001  -4.4144810893e-003   9.9948657010e-001  -3.2990682295e-003   1.8051286924e-004   2.3958184081e-004
  1.0488625000e+009   3.6692843272e-004   8.3226301607e-004   9.9865136614e-001  -3.8032156959e-003   9.9959901035e-001  -4.1452584409e-003   4.4658617573e-004   5.5539447042e-005
  1.0574500000e+009   4.0076713060e-004   4.8448811807e-004   9.9911251024e-001  -3.1579110968e-003   9.9917067431e-001  -3.8795379888e-003   6.6896646453e-004   2.0702224013e-005
