# Hz S RI R 50.000000
! Metas.Vna.Tools, 2.8.8664.20301
! Metas.Vna.Data, 2.8.8664.20285
! Created: UTC 2024.02.11 10:08:22
! FREQ                re:S1,1             im:S1,1             re:S2,1             im:S2,1             re:S1,2             im:S1,2             re:S2,2             im:S2,2          
  1.3000000000e+008  -3.0948568433e-004  -1.1669445645e-003   9.8613571603e-001  -8.8260104632e-003   1.0005647967e+000  -9.6839448180e-004   1.0012391041e-003   5.7981209303e-004
  1.3858750000e+008  -7.7072062829e-004  -1.6096216519e-003   9.8620095705e-001  -8.7015539515e-003   1.0008046935e+000   2.2212645008e-004   8.3091729890e-004  -1.2925941843e-004
  1.4717500000e+008  -1.8484712278e-003  -8.5531006939e-004   9.8675621510e-001  -9.3894430459e-003   1.0003515734e+000   2.8176123170e-004   1.8262479237e-004   1.5585738840e-004
  1.5576250000e+008  -1.4515383778e-003   2.3847344958e-004   9.8662203697e-001  -8.9647135237e-003   1.0002003812e+000   4.5779747292e-005   1.2308480117e-003  -5.8190272165e-004
  1.6435000000e+008  -9.9862038429e-004   8.1384938290e-004   9.8674155355e-001  -7.9266960138e-003   1.0004130029e+000  -8.1114256392e-004   9.0520032668e-004  -2.6884091271e-004
  1.7293750000e+008  -5.6422538235e-004   4.6454690389e-004   9.8483041371e-001  -8.3358407670e-003   1.0001901118e+000  -4.3278427041e-004   8.9823450441e-004  -3.7657817652e-004
  1.8152500000e+008  -3.3648775459e-004   3.2521885357e-004   9.8643918351e-001  -8.6129277984e-003   9.9976196262e-001  -5.0013888635e-004   2.6389192111e-004  -5.2026018236e-004
  1.9011250000e+008  -3.7150114470e-004   2.7426711587e-004   9.8541342084e-001  -1.0214809485e-002   1.0009357810e+000  -1.0979821988e-003   5.4554149343e-004  -1.0768808684e-003
  1.9870000000e+008  -3.0143258237e-004   7.0503730332e-004   9.8727129799e-001  -8.3292290460e-003   1.0004728989e+000  -9.7066731117e-004   4.9684663474e-004  -3.6425323285e-004
  2.0728750000e+008   2.6874262864e-004   1.8615032262e-004   9.8661763490e-001  -7.3989470790e-003   1.0009373499e+000  -1.1112179471e-003   3.3733638833e-004   1.1764464203e-005
  2.1587500000e+008   2.3070935813e-004  -5.1020624532e-004   9.8730327244e-001  -8.7165061012e-003   9.9999158236e-001  -9.2697130113e-004  -5.1733910386e-004   1.9402641526e-004
  2.2446250000e+008   2.9413911400e-004  -4.6927614438e-004   9.8681296869e-001  -8.4535438879e-003   1.0003438119e+000  -1.1718605924e-003  -1.4246619980e-004   1.5744895193e-005
  2.3305000000e+008   1.3772733287e-004  -2.9458247549e-004   9.8652156805e-001  -8.2495071214e-003   1.0007002052e+000  -1.0386764447e-003  -3.7265873098e-004  -2.0673793317e-005
  2.4163750000e+008  -1.3489084229e-004  -4.9645969564e-004   9.8702577002e-001  -9.2773650867e-003   9.9973081052e-001  -1.0578997250e-003  -3.5324637982e-004   1.7748538881e-004
  2.5022500000e+008  -3.2395867223e-004  -1.7661636811e-004   9.8573909346e-001  -8.6973661425e-003   1.0007452296e+000  -1.0288063496e-003  -7.3727399133e-004   4.4980833042e-004
  2.5881250000e+008  -2.0215320848e-004  -5.7851322557e-004   9.8686720875e-001  -7.2724387231e-003   1.0002016860e+000  -1.6102207902e-003  -6.6711967796e-004   4.8087052581e-004
  2.6740000000e+008  -6.5504086055e-004  -3.3746572656e-004   9.8695262443e-001  -8.6510884025e-003   1.0006205607e+000  -1.8211713824e-003  -5.2259112090e-004   1.2172784654e-004
  2.7598750000e+008  -1.1526600044e-004  -2.0069420524e-004   9.8464243245e-001  -9.7492084903e-003   1.0009758045e+000  -1.0607827786e-003  -5.3309115909e-004   3.1194818847e-004
  2.8457500000e+008  -8.2569288387e-004  -5.0852182357e-004   9.8512656854e-001  -8.3884616836e-003   1.0006361105e+000  -1.1405185554e-003  -2.2546248779e-004   3.3990933299e-004
  2.9316250000e+008  -5.4416238650e-004  -2.9369537008e-004   9.8604916785e-001  -8.3335777706e-003   1.0012090553e+000  -1.5783090961e-003  -3.8174891354e-004   2.7340332451e-004
  3.0175000000e+008  -6.6636779906e-004   2.8235173353e-004   9.8512290341e-001  -1.0909727056e-002   1.0005424347e+000  -1.3664818452e-003  -6.3725771758e-004   4.2836466367e-005
  3.1033750000e+008  -6.4932475630e-004   5.7476322546e-005   9.8470356489e-001  -8.4253747150e-003   1.0011995206e+000  -2.2344207475e-003  -9.0774507697e-004   3.9274457160e-004
  3.1892500000e+008  -8.4700521428e-004  -7.8418000914e-005   9.8377000011e-001  -1.0070869274e-002   1.0003435396e+000  -1.2593548810e-003  -9.7003557013e-004  -6.9549103503e-005
  3.2751250000e+008  -6.4922976417e-004  -3.8992030992e-005   9.8574823204e-001  -1.0113253730e-002   1.0006490153e+000  -2.4212190757e-003  -8.2974990475e-004   1.0364002227e-004
  3.3610000000e+008  -9.5792506831e-004   7.4645641056e-006   9.8567061366e-001  -9.4798546284e-003   1.0010653689e+000  -2.2978833930e-003  -7.0633295530e-004  -7.2987626209e-005
  3.4468750000e+008  -7.2557131040e-004   2.0110924036e-004   9.8646062362e-001  -8.7705029150e-003   1.0012517127e+000  -1.4800341734e-003  -1.0860121809e-003   2.3989138582e-004
  3.5327500000e+008  -4.5497917864e-004   7.2588716639e-005   9.8765374224e-001  -1.0344467865e-002   9.9901254501e-001  -2.1806593336e-003  -8.5592967610e-004  -7.2081921972e-005
  3.6186250000e+008  -5.3023035512e-004   4.0937718555e-004   9.8738697345e-001  -8.3623165445e-003   1.0008281619e+000  -9.4819857473e-004  -6.2017537301e-004   3.9715630276e-004
  3.7045000000e+008  -8.5509507209e-004   3.7245548214e-004   9.8570801641e-001  -8.9692281538e-003   1.0009942369e+000  -1.7456743846e-003  -6.7747066342e-004   3.7452264848e-004
  3.7903750000e+008  -3.0376478817e-004   7.8423345548e-004   9.8550405078e-001  -8.7590417713e-003   1.0000723349e+000  -1.9284105330e-003  -4.8267410718e-004   2.1514936085e-004
  3.8762500000e+008  -2.8163361109e-004   7.0827817242e-004   9.8771346854e-001  -8.7930388823e-003   9.9972904035e-001  -1.6838288982e-003  -2.9598218236e-004   8.1846141289e-004
  3.9621250000e+008   8.2522270004e-006   2.7367021695e-004   9.8735020067e-001  -8.6440971432e-003   1.0005334093e+000  -1.5089388132e-003  -6.4523293092e-004   5.3037221622e-004
  4.0480000000e+008   2.4373708689e-004   3.7891707247e-004   9.8676052420e-001  -9.6510661498e-003   1.0006045720e+000  -2.1106535303e-003   4.8358914630e-005   5.3557696350e-004
  4.1338750000e+008   4.3334981221e-004   2.3263997500e-004   9.8576329470e-001  -8.2775218817e-003   1.0009534204e+000  -1.7588982660e-003   1.3941661667e-004   5.9381705456e-004
  4.2197500000e+008  -3.9484026259e-005  -1.7388557534e-004   9.8761900920e-001  -8.5982270340e-003   1.0003685925e+000  -1.8867390020e-003   2.9414788142e-004   6.3572288326e-004
  4.3056250000e+008   3.1929170320e-004  -1.9300636620e-004   9.8613104056e-001  -8.6197114730e-003   1.0006220062e+000  -1.6862629559e-003   5.9095915318e-004   3.3533164742e-004
  4.3915000000e+008   1.9180879542e-006  -4.2091851194e-004   9.8915860058e-001  -7.9578983166e-003   1.0000936175e+000  -1.9472047876e-003   5.2665102335e-004   1.6495949084e-004
  4.4773750000e+008  -7.9578781223e-005  -4.5338872336e-004   9.8780131399e-001  -8.6493209380e-003   1.0005418855e+000  -2.2329768313e-003   6.5787541432e-004  -1.2196869003e-004
  4.5632500000e+008  -1.5146601515e-004  -6.7197004072e-004   9.8642930327e-001  -8.5602606121e-003   1.0002764174e+000  -2.2004553456e-003   8.2484380497e-004  -4.9445479815e-005
  4.6491250000e+008  -4.5335555242e-004  -2.8379472524e-004   9.8751926915e-001  -1.0126120354e-002   1.0000832993e+000  -1.9488738949e-003   4.4580542637e-004  -1.5566286049e-004
  4.7350000000e+008  -5.3788262409e-004  -1.6917276969e-004   9.8694479400e-001  -9.4443595527e-003   9.9999966215e-001  -2.2422009044e-003   4.1349577680e-004  -4.0290291928e-004
  4.8208750000e+008  -5.4103223661e-004   1.4473083542e-004   9.8489619885e-001  -1.0085911726e-002   9.9970387778e-001  -1.8610808814e-003   3.8546034533e-004  -1.1259860961e-004
  4.9067500000e+008  -1.1572695922e-005  -2.4943240657e-004   9.8496574486e-001  -9.8165609667e-003   1.0002475212e+000  -2.1340965122e-003   1.7112599372e-004  -6.6776584670e-005
  4.9926250000e+008  -1.6459360680e-004  -3.5464328849e-004   9.8565652641e-001  -9.4848533955e-003   1.0002919772e+000  -1.8243157724e-003   2.6703684884e-004  -1.1076877648e-004
  5.0785000000e+008  -4.1857548504e-004  -2.3452210113e-004   9.8488662077e-001  -9.3113135869e-003   9.9977219354e-001  -1.5588371306e-003   2.2626095090e-004   2.2555286691e-004
  5.1643750000e+008  -3.7964037852e-004   1.2780096524e-004   9.8339226382e-001  -8.6666682220e-003   1.0003785989e+000  -1.9111001913e-003   4.6895867269e-004   5.0012644237e-005
  5.2502500000e+008  -1.6552343183e-004   3.5925147439e-004   9.8417709160e-001  -7.9536636639e-003   1.0004500197e+000  -1.1179114136e-003   5.6720458512e-005  -2.2453838803e-004
  5.3361250000e+008   3.4615379709e-004   3.2031895230e-004   9.8623254786e-001  -1.0188430001e-002   1.0004430769e+000  -2.2370741554e-003  -2.1897513871e-004  -4.4263322492e-004
  5.4220000000e+008   5.9259983164e-004   3.9011639354e-005   9.8538663144e-001  -1.0578521391e-002   1.0009335597e+000  -1.9718793710e-003  -1.0362738521e-003  -1.1266166921e-004
  5.5078750000e+008   5.5801629114e-004  -6.2655062543e-004   9.8541135945e-001  -1.1196924283e-002   1.0009743499e+000  -1.9313885865e-003  -8.7873900223e-004  -1.2184847841e-004
  5.5937500000e+008   4.5663441672e-004  -7.6897993123e-004   9.8433175711e-001  -9.6048934708e-003   1.0005511932e+000  -2.3197233462e-003  -1.0479359403e-003   3.9333150457e-004
  5.6796250000e+008   2.9071634980e-004  -7.9848352401e-004   9.8479438560e-001  -1.0834009074e-002   1.0009370143e+000  -2.0404710581e-003  -1.0130884103e-003   7.2175474367e-004
  5.7655000000e+008  -2.5975309116e-004  -1.1118205627e-003   9.8498851240e-001  -1.2156419500e-002   1.0005753627e+000  -3.2295822278e-003  -6.8987050280e-004   9.3667323461e-004
  5.8513750000e+008  -4.3793473391e-004  -9.2181372160e-004   9.8424002183e-001  -1.0813305121e-002   1.0000231451e+000  -2.1541192854e-003  -6.9620929129e-004   1.1646318295e-003
  5.9372500000e+008  -6.3844552772e-004  -9.0091512674e-004   9.8306313481e-001  -9.8691374903e-003   1.0001140280e+000  -3.0147023913e-003  -4.1320248945e-004   9.8122389319e-004
  6.0231250000e+008  -1.0377015240e-003  -5.4086733703e-004   9.8388377590e-001  -8.9371273915e-003   1.0003101932e+000  -2.5716195528e-003  -2.1056036014e-004   8.5017965233e-004
  6.1090000000e+008  -9.7328496359e-004  -4.4467840847e-004   9.8504221093e-001  -1.1085821226e-002   9.9968480949e-001  -1.8940554939e-003  -2.4739920732e-004   9.4852426526e-004
  6.1948750000e+008  -9.8734686398e-004   1.9539343624e-005   9.8280578679e-001  -1.1031096077e-002   9.9961965219e-001  -2.5582818057e-003  -5.1394632665e-005   5.6801052052e-004
  6.2807500000e+008  -9.7110325740e-004   8.7863811969e-005   9.8464979459e-001  -1.0172832729e-002   9.9963854977e-001  -2.1841273372e-003   1.7754636215e-004   2.3323841639e-004
  6.3666250000e+008  -4.2702891048e-004   5.8286228055e-004   9.8691383628e-001  -1.0799755313e-002   9.9986487001e-001  -2.3159070033e-003   2.5941605284e-004   1.1966566012e-004
  6.4525000000e+008  -1.3736085859e-005   4.3404223945e-004   9.8567904604e-001  -9.1245679399e-003   1.0001834556e+000  -2.8625389498e-003   3.1192627179e-004  -2.0927388378e-004
  6.5383750000e+008   1.5808977911e-004   3.7858884665e-004   9.8549914092e-001  -1.0476959065e-002   9.9934502939e-001  -2.4468865149e-003   3.9478936448e-004  -3.6302618462e-004
  6.6242500000e+008   5.3258948277e-004   2.0040270658e-004   9.8290327672e-001  -1.0525949516e-002   1.0006854732e+000  -3.1807174906e-003   2.3095339155e-004  -6.1187462995e-004
  6.7101250000e+008   6.0695370076e-004  -1.9307873583e-004   9.8379043617e-001  -8.7714413299e-003   1.0000663005e+000  -1.7752379879e-003   1.4842156969e-004  -9.4504369541e-004
  6.7960000000e+008   7.9164480104e-004  -5.9246954644e-004   9.8441530316e-001  -1.0155463820e-002   1.0003499910e+000  -2.8179400386e-003   1.8975666437e-005  -1.0492387207e-003
  6.8818750000e+008   3.7043329069e-004  -9.5773696385e-004   9.8320255154e-001  -9.9609849847e-003   1.0001000391e+000  -2.8254199925e-003  -2.1012306698e-004  -1.2551972550e-003
  6.9677500000e+008   2.2623613109e-004  -1.2308867865e-003   9.8394854428e-001  -1.0176155176e-002   1.0000176212e+000  -2.9168709502e-003  -6.8400486501e-004  -1.2069718447e-003
  7.0536250000e+008  -3.0527162298e-004  -1.1491702613e-003   9.8401020961e-001  -1.0367473741e-002   1.0002195462e+000  -2.6632875947e-003  -6.7801535225e-004  -1.3207884168e-003
  7.1395000000e+008  -6.0629531152e-004  -1.1501731887e-003   9.8206822842e-001  -1.1255036904e-002   1.0004312528e+000  -2.5771398865e-003  -8.9196185159e-004  -1.1546875090e-003
  7.2253750000e+008  -1.1588139220e-003  -8.6937399618e-004   9.8115031648e-001  -1.1727616790e-002   9.9986569370e-001  -2.9392493047e-003  -1.1470480434e-003  -1.0417459583e-003
  7.3112500000e+008  -1.2380442488e-003  -5.7789876963e-004   9.8268177431e-001  -1.0111721704e-002   1.0001533895e+000  -2.2487500922e-003  -1.0476972208e-003  -8.2042922897e-004
  7.3971250000e+008  -1.2232945495e-003  -8.3576849832e-005   9.8264591882e-001  -1.2391434827e-002   9.9934764350e-001  -3.3397009385e-003  -1.2500031543e-003  -2.8948475239e-004
  7.4830000000e+008  -1.0944329984e-003   5.7479634386e-004   9.8368824440e-001  -1.0924220133e-002   9.9915257430e-001  -2.8346936728e-003  -1.0702700049e-003  -3.3388012784e-004
  7.5688750000e+008  -7.1461993466e-004   8.6677933670e-004   9.8251804539e-001  -1.0848990149e-002   9.9878512777e-001  -2.9577881281e-003  -1.1410543670e-003   1.3696540062e-004
  7.6547500000e+008  -5.6185972149e-005   9.7583855461e-004   9.8251468090e-001  -1.1696833128e-002   1.0000986684e+000  -3.6001629872e-003  -9.8868543913e-004   2.9151534385e-004
  7.7406250000e+008   2.4199857767e-004   9.4809651687e-004   9.8216190726e-001  -1.1637250911e-002   9.9999082596e-001  -3.2038468063e-003  -6.4973955920e-004   6.4498810798e-004
  7.8265000000e+008   5.8689004804e-004   5.5168733347e-004   9.8331138484e-001  -9.8117233792e-003   9.9979471782e-001  -2.7574429023e-003  -2.8008667349e-004   1.0370257029e-003
  7.9123750000e+008   9.2614916671e-004   3.8743149408e-004   9.8390096692e-001  -1.0379880843e-002   9.9997774956e-001  -2.1267284211e-003  -2.8186032033e-004   6.6641647335e-004
  7.9982500000e+008   7.2819562090e-004  -3.1479658685e-005   9.8411786532e-001  -9.7217236280e-003   1.0002148992e+000  -2.0638205133e-003  -1.4882626050e-005   9.1318696557e-004
  8.0841250000e+008   8.2691761682e-004  -4.3078785942e-005   9.8314570506e-001  -1.0982569873e-002   9.9971828930e-001  -2.4153868580e-003   5.8170135174e-005   7.4155018004e-004
  8.1700000000e+008   1.0084471657e-003  -4.5023495530e-004   9.8572047620e-001  -9.8581097006e-003   1.0005400432e+000  -2.7249085122e-003   1.2850733238e-004   6.1537964029e-004
  8.2558750000e+008   9.7725779998e-004  -5.4292350889e-004   9.8600898322e-001  -9.0371139519e-003   1.0004268881e+000  -2.7788729995e-003   7.6040298940e-005   7.8463450712e-004
  8.3417500000e+008   7.8078927513e-004  -1.1497253473e-003   9.8528111520e-001  -1.0410882832e-002   1.0010289583e+000  -3.0658591180e-003   1.4668088141e-004   7.3094695537e-004
  8.4276250000e+008   3.5197023461e-004  -1.2743033108e-003   9.8243405954e-001  -1.0375872859e-002   9.9988758680e-001  -3.4949774721e-003   1.3572929624e-004   6.5245814564e-004
  8.5135000000e+008  -1.1565656119e-005  -1.1719424730e-003   9.8356734830e-001  -1.0857464539e-002   1.0011802953e+000  -2.7590772441e-003   3.2999455127e-004   9.1107524120e-004
  8.5993750000e+008  -2.6316647594e-004  -1.2021474329e-003   9.8372011395e-001  -1.0387087662e-002   1.0002913873e+000  -3.2863112703e-003   2.3858303441e-004   5.2815257003e-004
  8.6852500000e+008  -5.0884266072e-004  -9.4536478207e-004   9.8306925392e-001  -1.1511653471e-002   9.9989554781e-001  -2.2328145961e-003   4.2885015059e-004   3.9889735842e-004
  8.7711250000e+008  -4.4400983295e-004  -6.0690879249e-004   9.8224205874e-001  -1.0969133768e-002   1.0007829691e+000  -3.4733245921e-003   1.4274658122e-004  -2.8536601100e-005
  8.8570000000e+008  -3.1111005235e-004  -5.1265696921e-004   9.8466056385e-001  -9.0955076716e-003   9.9978862112e-001  -3.5376076893e-003  -5.2159352059e-005  -1.1547142847e-004
  8.9428750000e+008  -2.2294091409e-004  -1.7190237710e-004   9.8481996172e-001  -1.0842659991e-002   1.0003762633e+000  -4.2966033714e-003  -2.5755137661e-004  -5.1763471701e-004
  9.0287500000e+008   6.0228070077e-005  -1.8899639204e-004   9.8524888741e-001  -1.1539510351e-002   9.9969524767e-001  -3.6136710004e-003  -4.4397131262e-004  -4.4713815866e-004
  9.1146250000e+008   2.3106336000e-004  -1.7731721601e-004   9.8574837145e-001  -1.1038580005e-002   9.9912127833e-001  -3.4869394913e-003  -8.5876028624e-004  -3.7271556051e-004
  9.2005000000e+008   3.7790278670e-004  -4.8218522390e-004   9.8411888146e-001  -1.0547073428e-002   9.9938756807e-001  -2.7112151088e-003  -1.0678085348e-003  -3.8745010398e-004
  9.2863750000e+008   5.6981674951e-004  -6.5498574828e-004   9.8269754989e-001  -1.0618728707e-002   9.9960198374e-001  -4.5190572522e-003  -1.2597226599e-003  -2.9122608433e-004
  9.3722500000e+008   3.6735965802e-004  -9.3548056521e-004   9.8239660218e-001  -9.7261913690e-003   9.9848571651e-001  -3.2806825551e-003  -1.3409536761e-003  -1.8880143014e-004
  9.4581250000e+008   2.5721612212e-004  -1.2153343268e-003   9.8377345679e-001  -8.4592891865e-003   9.9943630423e-001  -2.8607779292e-003  -1.4586526801e-003   4.8171874417e-005
  9.5440000000e+008  -5.1552545509e-005  -1.2775781696e-003   9.8348582032e-001  -1.1434001089e-002   1.0002649035e+000  -3.6195142815e-003  -1.4013913743e-003   1.5718315824e-004
  9.6298750000e+008  -3.9047404508e-004  -1.3850921934e-003   9.8402974078e-001  -1.0456890777e-002   9.9924997655e-001  -3.5259474775e-003  -1.3818274977e-003   3.6798604713e-004
  9.7157500000e+008  -6.8203795026e-004  -1.3177108136e-003   9.8593443807e-001  -1.1124271902e-002   1.0002588461e+000  -3.2731612304e-003  -1.3459158840e-003   2.3713956963e-004
  9.8016250000e+008  -9.3870816589e-004  -1.0123049000e-003   9.8385594605e-001  -1.0547535489e-002   9.9985662561e-001  -4.0255262145e-003  -1.1086900522e-003   4.5650918960e-004
  9.8875000000e+008  -1.1976011096e-003  -5.7815094889e-004   9.8411824548e-001  -1.0550323677e-002   9.9896164921e-001  -3.7274690291e-003  -9.3638645405e-004   4.4710214792e-004
  9.9733750000e+008  -1.1379101994e-003  -2.7700126815e-004   9.8165473167e-001  -1.0951763351e-002   9.9961634204e-001  -3.1555224217e-003  -6.6073185053e-004   3.5347645155e-004
  1.0059250000e+009  -9.5813075908e-004   1.7980036450e-004   9.8309120828e-001  -1.1288703363e-002   9.9977537422e-001  -3.6587559030e-003  -2.6395342040e-004   3.5822365697e-004
  1.0145125000e+009  -7.8093828625e-004   5.6558522430e-004   9.8368515587e-001  -1.3514911801e-002   9.9963078432e-001  -4.1668502028e-003   2.6103274614e-007   1.7986737894e-004
  1.0231000000e+009  -5.0245969115e-004   5.7710483756e-004   9.8343680003e-001  -1.0433218198e-002   9.9948361389e-001  -3.2296547658e-003   9.7504381974e-005  -3.2460167272e-005
  1.0316875000e+009  -6.7721110064e-005   8.8018114599e-004   9.8361142164e-001  -1.2440850757e-002   9.9903381969e-001  -4.0804327576e-003   2.7433591806e-004  -2.6003027196e-004
  1.0402750000e+009   3.3149096001e-004   7.7772925547e-004   9.8353666989e-001  -1.0115458855e-002   9.9967084051e-001  -2.8177835173e-003   4.2411335094e-004  -4.8490154268e-004
  1.0488625000e+009   5.9686032870e-004   5.5060839255e-004   9.8444867776e-001  -1.1411165564e-002   9.9968726273e-001  -3.6227468240e-003   6.3714559767e-004  -6.6436055616e-004
  1.0574500000e+009   7.1670357313e-004   1.7965878593e-004   9.8422863050e-001  -1.0216665963e-002   1.0002575589e+000  -3.4374538835e-003   7.4416823089e-004  -8.9435456295e-004
