# Hz S RI R 50.000000
! Metas.Vna.Tools, 2.8.8664.20301
! Metas.Vna.Data, 2.8.8664.20285
! Created: UTC 2024.02.11 10:08:10
! FREQ                re:S1,1             im:S1,1             re:S2,1             im:S2,1             re:S1,2             im:S1,2             re:S2,2             im:S2,2          
  1.3000000000e+008   7.5551084755e-004  -1.3823146688e-003   9.9948892439e-001  -4.0989876392e-003   1.0003595578e+000  -2.2169950661e-003   8.3457734996e-004   1.0914139712e-003
  1.3858750000e+008  -3.2423921934e-004  -9.0820176372e-004   1.0002874160e+000  -3.9059753568e-003   1.0002921010e+000  -1.0810462398e-003   8.2402827905e-004  -2.9985243664e-004
  1.4717500000e+008  -1.6992874522e-003  -1.1069512292e-003   9.9959428844e-001  -5.0135810267e-003   1.0007419542e+000  -1.5165100277e-003  -4.9601735178e-005  -4.4221239670e-004
  1.5576250000e+008  -1.4990986169e-003  -3.5401828182e-004   1.0005652162e+000  -3.3206556944e-003   1.0006614479e+000  -1.2715774543e-003   9.2344145969e-004  -9.7409493577e-004
  1.6435000000e+008  -1.0489216173e-003   7.3576041315e-004   1.0007719223e+000  -3.5238146227e-003   1.0003441138e+000  -1.4318175270e-003   8.9661653419e-004  -4.8061675025e-005
  1.7293750000e+008  -1.0922485315e-003   1.0152495970e-003   1.0010019017e+000  -2.5939038606e-003   1.0001771916e+000  -1.8922761284e-003   7.4791406361e-004  -7.6127196253e-004
  1.8152500000e+008  -5.2685861904e-004   4.9709806523e-004   1.0011682453e+000  -4.5044366168e-003   1.0002967179e+000  -2.1046202110e-003   6.5373689917e-004  -1.1717897796e-003
  1.9011250000e+008  -4.6604765550e-004   5.0297794628e-004   1.0021298044e+000  -5.0544580350e-003   1.0006346032e+000  -2.6991731173e-003   6.7313148702e-004  -1.0109768223e-003
  1.9870000000e+008  -4.1807898880e-004   9.8153016718e-004   1.0004867327e+000  -2.8620219665e-003   1.0000006295e+000  -1.9215851557e-003   5.4063249740e-004  -1.4205950377e-004
  2.0728750000e+008   2.7563563407e-004   2.7176031603e-004   1.0002988499e+000  -4.4399237000e-003   1.0006652104e+000  -2.0090040136e-003   1.5786507385e-004  -3.1282642758e-004
  2.1587500000e+008   4.2090065240e-004  -1.4923561925e-004   1.0003170891e+000  -4.6274050228e-003   1.0000778565e+000  -1.5973444773e-003  -5.8531839589e-004   1.6696060785e-004
  2.2446250000e+008   5.5763540448e-004  -4.3810588505e-004   9.9585835742e-001  -6.1299178379e-003   1.0005308929e+000  -1.7640141855e-003   9.9781011911e-005   6.4354721884e-004
  2.3305000000e+008   4.4327673133e-004  -1.0609113168e-004   1.0002281132e+000  -4.5414802737e-003   1.0007598691e+000  -2.8163417528e-003  -4.5220055734e-004   2.4688157602e-004
  2.4163750000e+008  -3.9886904527e-005  -6.0239761997e-004   1.0007126517e+000  -5.0542354549e-003   9.9975713585e-001  -2.7450606789e-003  -6.5395181036e-004   4.1213278308e-004
  2.5022500000e+008  -3.7939824785e-004  -7.9570325200e-004   1.0000630764e+000  -3.4309415849e-003   1.0004191562e+000  -2.6262385346e-003  -1.1379234028e-003   7.0329176638e-004
  2.5881250000e+008  -6.9436648051e-004  -6.5533790007e-004   9.9933159769e-001  -3.8617147238e-003   9.9994635306e-001  -2.5687262569e-003  -5.3207605086e-004   7.0732223219e-004
  2.6740000000e+008  -1.0152441164e-003  -2.9607373856e-004   1.0003075439e+000  -5.5445540543e-003   9.9998793467e-001  -3.4467897037e-003  -7.9125563342e-004   4.3719009380e-004
  2.7598750000e+008  -4.4363753885e-004  -3.5641181595e-004   9.9809826887e-001  -5.0241697904e-003   1.0001786758e+000  -2.8191900945e-003  -2.5738427230e-004   3.8329493939e-004
  2.8457500000e+008  -8.3543253115e-004  -3.0940027413e-004   9.9751001181e-001  -4.2801720880e-003   1.0004149193e+000  -2.4518576255e-003  -4.1646749756e-004   4.6575176548e-004
  2.9316250000e+008  -6.2847615881e-004  -3.2923723128e-004   9.9916170933e-001  -4.6049736303e-003   1.0000483591e+000  -3.0520307267e-003  -4.9900527235e-004   4.6693003175e-004
  3.0175000000e+008  -9.1795110632e-004   6.4902460335e-004   1.0002355770e+000  -6.0363145352e-003   1.0009264811e+000  -2.4256641480e-003  -5.9377333954e-004   3.9577606405e-004
  3.1033750000e+008  -9.4269721954e-004   4.8711002260e-004   1.0006363744e+000  -3.1403956809e-003   1.0013467438e+000  -2.1430558951e-003  -8.2739625720e-004   6.1216079924e-004
  3.1892500000e+008  -7.8015706459e-004   4.4356120031e-004   9.9945892729e-001  -6.4354405679e-003   9.9952256689e-001  -2.2617043559e-003  -8.8198101874e-004   3.3864915446e-004
  3.2751250000e+008  -4.7291335291e-004   4.5299817313e-004   1.0004177175e+000  -6.4572374042e-003   1.0004893888e+000  -3.4034052502e-003  -4.7614503322e-004   1.8368438684e-005
  3.3610000000e+008  -3.5960770306e-004   2.3868533473e-005   1.0004593830e+000  -3.7917101728e-003   1.0013174642e+000  -3.2581477457e-003  -9.1205484409e-004   1.0859221004e-004
  3.4468750000e+008  -4.6762249651e-004   1.6650529183e-004   9.9969908887e-001  -5.0271414950e-003   1.0004666198e+000  -2.7896041021e-003  -4.9499267329e-004   1.4647420088e-004
  3.5327500000e+008  -2.5964561500e-004  -4.0948542325e-005   1.0008303571e+000  -5.0570834130e-003   9.9987869526e-001  -3.7735079415e-003  -7.5197995519e-004   1.6536636684e-005
  3.6186250000e+008  -2.8550531822e-004   1.5839394035e-004   1.0009052081e+000  -5.3892758153e-003   1.0007097588e+000  -2.3085303046e-003  -5.5252105599e-004   3.9645215196e-004
  3.7045000000e+008  -6.3602828642e-004   2.0886585697e-004   1.0004440504e+000  -5.6959008201e-003   1.0002693478e+000  -3.3576094097e-003  -6.1334138465e-004  -7.1774864002e-005
  3.7903750000e+008  -3.9439635247e-004   6.3647600338e-005   1.0002650947e+000  -4.6563112286e-003   1.0000169431e+000  -2.9636525607e-003  -6.0196955826e-004   1.5608065016e-004
  3.8762500000e+008  -5.5794360569e-004   4.3298976020e-004   1.0024733731e+000  -4.2010758883e-003   9.9956694423e-001  -3.0124276922e-003  -3.6506369146e-004   4.4760575894e-004
  3.9621250000e+008  -2.4360965976e-004   9.3729579763e-005   1.0007334775e+000  -5.8850882097e-003   1.0000997707e+000  -2.9771211804e-003  -5.8525836825e-004   4.5717053054e-004
  4.0480000000e+008  -2.4005167834e-006   3.2559693314e-004   1.0024003322e+000  -4.6346406568e-003   1.0000583140e+000  -3.1182121682e-003   7.4125232270e-006   1.6400312057e-004
  4.1338750000e+008  -2.6623136211e-004   2.8731760684e-004   1.0009025433e+000  -3.2969945128e-003   1.0007401239e+000  -2.9061441437e-003   2.8414924404e-005   2.8607665029e-004
  4.2197500000e+008  -2.5691247826e-004   1.6743380328e-004   1.0020485147e+000  -4.3227934102e-003   1.0002333194e+000  -3.0913831754e-003   2.7517922868e-004   5.7036729030e-004
  4.3056250000e+008  -1.0805315743e-004   2.6887409524e-004   1.0028699069e+000  -4.3334655045e-003   1.0003635000e+000  -3.4460764756e-003   6.0796304906e-004   2.7890194550e-004
  4.3915000000e+008   1.6987840418e-006   2.6232213685e-005   1.0038031772e+000  -3.5153798737e-003   1.0000733739e+000  -3.2855149549e-003   5.2182991891e-004   9.6196238809e-005
  4.4773750000e+008   2.5563628754e-004  -9.9627248850e-005   1.0030443988e+000  -4.3036267311e-003   1.0002230202e+000  -3.4351548709e-003   6.0711989531e-004   1.4590209429e-004
  4.5632500000e+008   1.3909841813e-004  -4.6760269915e-005   1.0005737000e+000  -4.7737816682e-003   1.0000632549e+000  -3.3527623130e-003   6.2984125202e-004  -1.2700526317e-005
  4.6491250000e+008   2.6294589022e-004  -1.1521508429e-005   1.0018100758e+000  -5.0542782613e-003   9.9980221814e-001  -3.7325388863e-003   5.3915841931e-004  -9.6579338475e-005
  4.7350000000e+008  -3.0104834535e-005  -1.8178794796e-004   1.0007337300e+000  -4.9152774348e-003   1.0001014678e+000  -3.1836378771e-003   4.7101749779e-004   1.3313135008e-006
  4.8208750000e+008  -8.1811190729e-005  -2.0032148704e-004   9.9903478622e-001  -4.9550338920e-003   9.9989627335e-001  -3.3034258604e-003   5.7220817852e-004   5.5688385152e-005
  4.9067500000e+008   1.9820342600e-004  -6.5394683195e-004   9.9843437817e-001  -4.9334818910e-003   9.9989500720e-001  -3.4776332541e-003   3.8892097877e-004  -5.8280492237e-006
  4.9926250000e+008  -2.0276781962e-004  -7.4927492968e-004   9.9880974017e-001  -5.0551394660e-003   9.9971736227e-001  -3.0991856472e-003   5.2847818559e-004   1.6998836727e-004
  5.0785000000e+008  -7.3307206075e-004  -6.9223799639e-004   9.9875043437e-001  -4.5888841268e-003   9.9968142172e-001  -2.4640870729e-003   6.7132248445e-004   5.0061752897e-004
  5.1643750000e+008  -9.5475104114e-004  -1.7356588248e-004   9.9847710520e-001  -5.4227677956e-003   1.0000533858e+000  -2.7981971690e-003   7.7557688778e-004  -5.6420049818e-005
  5.2502500000e+008  -7.0083895044e-004   5.6662413606e-004   1.0003716972e+000  -4.5582042979e-003   1.0008731143e+000  -1.8931884692e-003   4.1666185144e-004  -5.7382582722e-004
  5.3361250000e+008   3.2446868575e-007   6.6399135061e-004   1.0007225743e+000  -5.1953323976e-003   1.0006112562e+000  -2.9181480669e-003   1.2540832207e-004  -7.1015189533e-004
  5.4220000000e+008   3.9684941875e-004   3.0794262349e-004   1.0007534951e+000  -6.3564004105e-003   1.0010607512e+000  -2.9018378603e-003  -8.7236848907e-004  -5.0167686204e-004
  5.5078750000e+008   4.6516737199e-004  -3.1007847098e-004   1.0007650963e+000  -6.1799994880e-003   1.0008503395e+000  -3.4854105698e-003  -9.7119149215e-004  -5.0368030979e-004
  5.5937500000e+008   4.0615135829e-004  -2.4856500827e-004   9.9787259804e-001  -5.4477682513e-003   1.0006340278e+000  -3.7357694308e-003  -9.9477204106e-004   3.0692998751e-005
  5.6796250000e+008   4.4290410991e-004  -4.6330427926e-004   9.9835007037e-001  -5.8657848362e-003   1.0004222870e+000  -3.3087987141e-003  -9.9001314010e-004   5.0380896655e-004
  5.7655000000e+008  -4.8969970472e-005  -8.2947535640e-004   9.9845631840e-001  -8.0904435143e-003   1.0007204815e+000  -3.6018437572e-003  -8.0471014300e-004   7.6747683339e-004
  5.8513750000e+008  -1.4212664199e-004  -6.4161176293e-004   9.9928043093e-001  -5.6504304203e-003   9.9993802153e-001  -3.7494168380e-003  -5.0435053915e-004   8.5811654112e-004
  5.9372500000e+008  -3.2376500597e-004  -7.7412276047e-004   9.9692296773e-001  -5.3916412079e-003   1.0006101658e+000  -4.3695413933e-003  -5.6336646994e-004   1.1239436709e-003
  6.0231250000e+008  -7.3252891624e-004  -6.0319034450e-004   9.9735820266e-001  -5.7557182547e-003   1.0002047785e+000  -3.6245430419e-003  -2.9618525707e-004   1.1255334960e-003
  6.1090000000e+008  -5.7568834565e-004  -5.4833883586e-004   9.9821690670e-001  -8.0741029296e-003   9.9962771326e-001  -3.0718545424e-003  -2.0124761632e-004   9.4940555278e-004
  6.1948750000e+008  -8.9783832323e-004  -2.1956626514e-004   9.9554555159e-001  -5.7610369743e-003   1.0001359183e+000  -3.3040993949e-003  -1.2545487567e-004   7.9850090517e-004
  6.2807500000e+008  -7.8283142447e-004  -3.8920820035e-004   9.9753285340e-001  -8.7518938376e-003   1.0002607616e+000  -3.2712787257e-003   6.6850597597e-005   4.1364841458e-004
  6.3666250000e+008  -6.4832546482e-004   1.3713264659e-004   9.9852405646e-001  -6.7473049741e-003   1.0001240409e+000  -4.1922519807e-003   2.4055504944e-004   3.4686246643e-004
  6.4525000000e+008  -2.8861378577e-004   2.4475589066e-004   9.9975097113e-001  -7.0037226141e-003   1.0001971377e+000  -3.9513340627e-003   4.5264176443e-004   2.7260204810e-005
  6.5383750000e+008  -2.9451390955e-004   2.5993261677e-004   9.9904477312e-001  -4.5986635841e-003   9.9963447691e-001  -3.1688009315e-003   5.0496076500e-004  -6.5368173318e-005
  6.6242500000e+008   2.3886180053e-005   2.2131654086e-004   9.9605065174e-001  -6.8562456055e-003   1.0006857029e+000  -4.2370275750e-003   4.1367572715e-004  -3.1888550143e-004
  6.7101250000e+008   1.3176050205e-004   5.2460164792e-005   9.9838529433e-001  -5.2141168213e-003   9.9988593530e-001  -3.0277236776e-003   4.3725107433e-004  -7.0379676867e-004
  6.7960000000e+008   3.8009895517e-004  -3.1588500876e-005   9.9899918900e-001  -6.0026264598e-003   1.0002512212e+000  -3.8754276613e-003   1.9351658624e-004  -1.0644402576e-003
  6.8818750000e+008   7.7110353892e-005  -3.4777252191e-004   9.9782973402e-001  -5.9093112364e-003   9.9987090302e-001  -4.0702832929e-003   3.1171343764e-006  -1.0578142721e-003
  6.9677500000e+008   2.2633674517e-004  -4.8821208259e-004   9.9956291189e-001  -4.7110805063e-003   1.0007555231e+000  -4.1622266456e-003  -1.9934754922e-004  -1.2126394278e-003
  7.0536250000e+008   2.2147754094e-006  -7.5906319353e-004   9.9830482572e-001  -6.0976918986e-003   9.9997325359e-001  -4.0181725438e-003  -2.9419321297e-004  -1.2204837081e-003
  7.1395000000e+008  -3.0656058239e-004  -6.0474512568e-004   1.0002889710e+000  -5.6420019376e-003   1.0001876364e+000  -3.7624922563e-003  -4.9374614564e-004  -1.1436467503e-003
  7.2253750000e+008  -6.6806531548e-004  -7.9920817693e-004   9.9895336865e-001  -5.8502776270e-003   9.9975715390e-001  -3.6598551259e-003  -8.0648466677e-004  -1.1788026800e-003
  7.3112500000e+008  -5.5855742275e-004  -5.1189584167e-004   9.9821774335e-001  -6.3371317696e-003   9.9958056135e-001  -3.9660314043e-003  -9.8532843179e-004  -8.3964131392e-004
  7.3971250000e+008  -7.4559451372e-004  -1.6353801766e-004   9.9869489450e-001  -8.0193401641e-003   9.9988559964e-001  -4.3267455413e-003  -1.2066413155e-003  -6.3905764283e-004
  7.4830000000e+008  -7.1589771918e-004   1.1958727716e-004   9.9864476975e-001  -5.9132655905e-003   1.0000262147e+000  -4.1853905370e-003  -1.0595525163e-003  -5.2931274230e-004
  7.5688750000e+008  -7.5945758978e-004   3.2922157910e-004   9.9815034416e-001  -7.2332554721e-003   9.9893300171e-001  -4.4796922248e-003  -9.9447841761e-004   5.8849753728e-005
  7.6547500000e+008  -4.3823190648e-004   3.5508318658e-004   9.9890316830e-001  -6.2191665186e-003   9.9940002623e-001  -4.7074836605e-003  -1.0822469193e-003   1.2378446193e-004
  7.7406250000e+008  -2.9178895553e-004   5.6044795463e-004   9.9682444346e-001  -7.1746798487e-003   9.9962593511e-001  -4.0486997631e-003  -7.3992023438e-004   4.7780255670e-004
  7.8265000000e+008  -1.2726974679e-004   4.3565489522e-004   9.9712528316e-001  -6.0785617658e-003   9.9915706994e-001  -3.8995433618e-003  -3.9422335148e-004   8.3832489386e-004
  7.9123750000e+008   1.1394492269e-004   2.8751742978e-004   9.9817665533e-001  -4.8926624266e-003   9.9965114102e-001  -3.1982379774e-003  -4.0074151393e-004   7.2756800283e-004
  7.9982500000e+008   1.8278747483e-004   5.1114768467e-004   9.9591297545e-001  -5.5430639679e-003   9.9969011223e-001  -3.2554176001e-003  -3.6016286247e-005   7.1336073972e-004
  8.0841250000e+008   5.9618559633e-004   6.6511934527e-004   9.9729733939e-001  -6.4768713246e-003   1.0001157743e+000  -3.4987091772e-003  -3.2781011460e-005   7.4482865736e-004
  8.1700000000e+008   1.0313853814e-003   6.3123036979e-004   9.9896499817e-001  -4.8208367501e-003   1.0003260775e+000  -3.5866550239e-003  -1.2378973186e-004   7.3075358020e-004
  8.2558750000e+008   1.3529685813e-003   2.6108409275e-004   9.9924486120e-001  -4.6713556344e-003   1.0006311662e+000  -3.9042329529e-003  -4.4589778404e-004   6.5879736319e-004
  8.3417500000e+008   1.6230575340e-003  -5.0397021987e-004   9.9862071392e-001  -6.5460315629e-003   1.0010225854e+000  -4.4116038228e-003  -2.6424848690e-004   1.0037447150e-003
  8.4276250000e+008   1.2482601807e-003  -1.0865225259e-003   9.9847130866e-001  -5.7941605738e-003   1.0000214873e+000  -3.8178346395e-003  -8.2047859060e-005   1.0206019481e-003
  8.5135000000e+008   6.8415613826e-004  -1.5030443033e-003   9.9751720252e-001  -6.4849582576e-003   1.0013946199e+000  -4.2589890063e-003   2.8530905855e-004   1.3119827607e-003
  8.5993750000e+008   3.0470228604e-004  -1.7111271155e-003   9.9908062252e-001  -7.2691303512e-003   1.0004919262e+000  -5.2576552312e-003   3.5339767024e-004   1.0997817275e-003
  8.6852500000e+008  -3.9993110795e-004  -1.4907856346e-003   9.9661407064e-001  -6.8655517101e-003   9.9954140978e-001  -4.2408031220e-003   5.9327006348e-004   7.3876480640e-004
  8.7711250000e+008  -6.7827279398e-004  -1.2029243722e-003   9.9758599261e-001  -7.7535413800e-003   1.0005233439e+000  -5.3349329429e-003   7.5777810396e-004   2.7020045333e-004
  8.8570000000e+008  -9.5325135571e-004  -8.8259223357e-004   9.9898441149e-001  -6.1029228091e-003   9.9935671730e-001  -4.0546048688e-003   5.3529188999e-004   2.4360930089e-004
  8.9428750000e+008  -8.4960117258e-004  -4.4179302198e-004   9.9676686004e-001  -7.3221664097e-003   9.9953362286e-001  -5.4032238256e-003   2.6351755521e-004  -2.7712755552e-004
  9.0287500000e+008  -6.8419075023e-004  -1.6248494731e-004   9.9924286311e-001  -7.2753651903e-003   9.9955745454e-001  -5.1647189453e-003   5.3359012371e-005  -3.9399091277e-004
  9.1146250000e+008  -3.4164425285e-004   1.0856881183e-004   9.9901706997e-001  -7.0490784187e-003   9.9876511943e-001  -5.0847668755e-003  -4.0516350080e-004  -3.6013634127e-004
  9.2005000000e+008  -2.5041750051e-004   1.3171132785e-004   1.0004189445e+000  -4.3059282742e-003   9.9855974354e-001  -4.9245966002e-003  -4.9590548239e-004  -6.1189304624e-004
  9.2863750000e+008   2.6517221324e-004   4.5358790584e-005   1.0011012162e+000  -5.3798382929e-003   9.9930237512e-001  -5.5779217799e-003  -7.5308853927e-004  -5.6245980752e-004
  9.3722500000e+008   4.1109562808e-004  -1.4844751184e-004   1.0019537558e+000  -6.2218616890e-003   9.9897433651e-001  -4.5459812234e-003  -1.0932948280e-003  -7.7578327899e-004
  9.4581250000e+008   6.0297565598e-004  -4.9836323908e-004   1.0013282390e+000  -4.1341962204e-003   9.9933070913e-001  -3.9777736958e-003  -1.2207532189e-003  -4.6674131438e-004
  9.5440000000e+008   4.4607776736e-004  -8.9205696788e-004   9.9901440779e-001  -6.8203759628e-003   9.9924716794e-001  -4.6139320604e-003  -1.4782029731e-003  -2.7702090585e-004
  9.6298750000e+008   1.7485780808e-004  -1.0953979257e-003   1.0023632025e+000  -5.6110235448e-003   9.9913142346e-001  -4.0668427148e-003  -1.4864245540e-003  -2.4043948043e-005
  9.7157500000e+008   1.3349845937e-005  -1.2681566539e-003   1.0011142781e+000  -7.4919235586e-003   1.0005084738e+000  -3.7545027709e-003  -1.4278876889e-003   4.4147854983e-005
  9.8016250000e+008  -4.7678276745e-004  -1.3119993204e-003   1.0019708716e+000  -6.1321932476e-003   9.9935099487e-001  -6.1182349264e-003  -1.4116996385e-003   9.7623803213e-005
  9.8875000000e+008  -9.0745339281e-004  -1.0821958380e-003   1.0007320794e+000  -4.4814796653e-003   9.9855264379e-001  -4.8154797726e-003  -1.2750357426e-003   3.5653908734e-004
  9.9733750000e+008  -1.1682379181e-003  -8.5253475538e-004   1.0019033946e+000  -7.0743782824e-003   9.9911877199e-001  -4.0038438149e-003  -1.1233097608e-003   2.6829200611e-004
  1.0059250000e+009  -1.2236477525e-003  -3.2451881709e-004   1.0011430303e+000  -5.1043305545e-003   1.0001859701e+000  -4.9867231422e-003  -5.9749642738e-004   2.8414292612e-004
  1.0145125000e+009  -1.3071755860e-003   1.1732654784e-004   1.0000076596e+000  -8.0493583768e-003   9.9947859732e-001  -4.1003532400e-003  -4.2946474104e-004   4.4949592215e-004
  1.0231000000e+009  -1.1669057892e-003   3.7837863829e-004   1.0002238812e+000  -5.3522889724e-003   9.9932126502e-001  -5.4048269739e-003  -5.6024379731e-005   3.0921611649e-004
  1.0316875000e+009  -9.8417513944e-004   9.3747362311e-004   1.0005285677e+000  -7.6385547384e-003   9.9973253890e-001  -5.4805273946e-003   2.1332842487e-004   3.0665080056e-004
  1.0402750000e+009  -4.4982070158e-004   1.0768356368e-003   9.9968687593e-001  -7.2068649887e-003   9.9963824161e-001  -3.6868203871e-003   5.1202869576e-004   1.3487056356e-005
  1.0488625000e+009  -5.2687974149e-005   1.1634658320e-003   1.0001963651e+000  -5.1196758291e-003   9.9873093376e-001  -4.6722806934e-003   6.4433366689e-004  -1.7508906247e-004
  1.0574500000e+009   4.9411806186e-004   1.0980932750e-003   9.9987776187e-001  -5.5231761668e-003   9.9900804755e-001  -4.6911336563e-003   7.9976579339e-004  -3.4682784959e-004
