# Hz S RI R 50.000000
! Metas.Vna.Tools, 2.8.8664.20301
! Metas.Vna.Data, 2.8.8664.20285
! Created: UTC 2024.02.11 10:08:24
! FREQ                re:S1,1             im:S1,1             re:S2,1             im:S2,1             re:S1,2             im:S1,2             re:S2,2             im:S2,2          
  1.3000000000e+008   1.9068447065e-004  -1.6660482722e-003   9.9799768928e-001  -4.2200534507e-003   1.0011119133e+000  -2.7686831697e-004   1.1236112351e-003   9.5220583579e-004
  1.3858750000e+008  -5.0583912425e-004  -9.9949026580e-004   9.9846405877e-001  -4.8747146799e-003   1.0010488555e+000  -2.9812814536e-005   1.4496221967e-003   2.2651655208e-004
  1.4717500000e+008  -1.7740766964e-003  -1.5905338539e-003   9.9732801917e-001  -5.2510472376e-003   1.0004222734e+000   3.0717879276e-004   8.9880244302e-004   9.1505380716e-005
  1.5576250000e+008  -1.5589160422e-003  -9.6531354807e-005   9.9828664732e-001  -4.6960153481e-003   1.0002250478e+000  -4.2126619185e-004   1.0291473689e-003  -1.0547928327e-003
  1.6435000000e+008  -7.4134570215e-004   8.5095419994e-004   9.9778638753e-001  -4.7533202756e-003   1.0006462463e+000  -3.2376621939e-004   1.2671260212e-003  -5.8792646700e-004
  1.7293750000e+008  -1.4212181822e-003   8.3897368465e-004   9.9914017803e-001  -3.5109850714e-003   1.0007070444e+000  -6.6776335702e-004   7.1322025710e-004  -1.2822551845e-003
  1.8152500000e+008  -6.9366001367e-004   4.6502742563e-004   9.9829554224e-001  -4.7946994215e-003   1.0006033162e+000  -6.3862549490e-004   8.7821131539e-004  -7.9889892886e-004
  1.9011250000e+008  -1.4953707908e-004   5.5119389330e-004   9.9947560981e-001  -6.4342153004e-003   1.0004628241e+000  -6.7251158470e-004   2.1564531711e-004  -1.1035225879e-003
  1.9870000000e+008   2.6269631679e-005   8.5688458593e-004   9.9883641894e-001  -4.8545494816e-003   1.0007983754e+000  -8.0641177868e-004   1.9442940917e-004  -7.3008512604e-004
  2.0728750000e+008   5.3097787720e-004   1.4174753530e-004   9.9825771872e-001  -4.1427297138e-003   1.0004868365e+000  -5.4494499162e-004   2.2748922841e-005  -1.0173988733e-004
  2.1587500000e+008   4.2853933567e-004  -4.3348946523e-004   9.9925168487e-001  -4.3251826035e-003   1.0003179738e+000  -5.9534033451e-004  -6.0541382800e-004   3.5016354762e-004
  2.2446250000e+008   6.0849385221e-004  -3.6965528817e-004   9.9921198534e-001  -5.6400044351e-003   1.0004770560e+000  -5.8646813793e-004  -4.4524648652e-004   2.5152471930e-004
  2.3305000000e+008   1.8910025190e-004  -3.7526921170e-004   9.9943276241e-001  -3.9169797098e-003   1.0012506775e+000  -7.5013571042e-004  -1.3842201969e-004   8.0079673235e-005
  2.4163750000e+008   1.0369019003e-004  -4.0710510070e-005   9.9880882678e-001  -5.4480337364e-003   1.0001977945e+000  -5.1214902869e-004  -9.0360847713e-004   1.5492776705e-004
  2.5022500000e+008  -6.2603058995e-004  -7.0613369992e-004   9.9891450945e-001  -5.3379759261e-003   1.0002165664e+000  -5.7823274123e-004  -1.1337357898e-003   7.4594658995e-004
  2.5881250000e+008  -6.1648038095e-004  -7.6091198106e-004   9.9844456808e-001  -4.6351422079e-003   9.9998933127e-001  -2.0487827988e-003  -5.6039388941e-004   7.8684340435e-004
  2.6740000000e+008  -9.2664667660e-004  -8.1425999053e-004   9.9888081264e-001  -6.5970822435e-003   1.0012175587e+000  -2.2548264763e-003  -6.4438487457e-004   4.0108232394e-004
  2.7598750000e+008  -5.2764245538e-004  -8.9477523771e-005   9.9644943385e-001  -4.7271333978e-003   1.0014465691e+000  -1.3924345437e-003  -1.7694515654e-004   4.9582202342e-004
  2.8457500000e+008  -7.6369153418e-004  -1.6706645044e-004   9.9794295861e-001  -5.7144559145e-003   1.0001852474e+000  -8.6915516652e-004  -2.4025031377e-004   7.4856577180e-004
  2.9316250000e+008  -6.7565442355e-004  -3.3596217159e-004   9.9728156998e-001  -5.1567899614e-003   1.0002605633e+000  -1.1715484490e-003  -3.7770874069e-004   4.0559569180e-004
  3.0175000000e+008  -1.1579875162e-003   3.2590724546e-004   9.9651489316e-001  -7.1027528843e-003   1.0007173700e+000  -8.7718960032e-004  -2.3361713652e-004   4.9538563338e-004
  3.1033750000e+008  -9.8004971299e-004   3.5624805044e-004   9.9748053955e-001  -4.3204809088e-003   1.0016277498e+000  -1.3896347102e-003  -6.0348585843e-004   4.6637488300e-004
  3.1892500000e+008  -5.7576148897e-004   1.2356385739e-004   9.9609033864e-001  -5.8191766689e-003   1.0003716489e+000  -9.2543325755e-004  -6.6218954731e-004   3.5854804888e-004
  3.2751250000e+008  -7.3423239830e-004   9.7100635731e-005   9.9911695426e-001  -7.4370695303e-003   1.0004230343e+000  -2.1564238256e-003  -7.8212738197e-004   3.1754884420e-004
  3.3610000000e+008  -7.3046616169e-004   2.1539497787e-004   9.9826364678e-001  -5.4209557745e-003   1.0013054902e+000  -1.5725113477e-003  -5.6523991895e-004   9.7415855510e-005
  3.4468750000e+008  -7.7545859751e-004   2.4284217112e-004   9.9877775325e-001  -5.0158641386e-003   1.0006946637e+000  -7.4513682802e-004  -5.4079881522e-004   3.9928941553e-004
  3.5327500000e+008  -5.1619557848e-004   5.4726790263e-004   9.9770216305e-001  -5.6515896748e-003   9.9994356385e-001  -2.5282086249e-003  -6.7687652514e-004   1.4468349383e-004
  3.6186250000e+008  -2.2945896453e-004   3.7625446111e-004   9.9996780067e-001  -5.2223312668e-003   1.0003265452e+000  -1.4119541485e-003  -6.3975043701e-004   3.8442484387e-004
  3.7045000000e+008  -4.2698337406e-004   5.5434082826e-004   9.9809687552e-001  -6.3043214564e-003   1.0009018955e+000  -1.6825067823e-003  -7.2406484225e-004   3.8998224843e-004
  3.7903750000e+008  -3.5519448652e-004   4.4874926816e-004   9.9787443489e-001  -5.1472832003e-003   1.0006982153e+000  -1.7589472015e-003  -2.6811330456e-004   6.8668209117e-005
  3.8762500000e+008  -4.0344437934e-004   3.2873917948e-004   1.0009557127e+000  -4.6053318409e-003   1.0002770146e+000  -1.5037176723e-003  -4.0707120521e-004   6.1758851173e-004
  3.9621250000e+008  -1.0557357821e-004   5.0164049884e-005   9.9928022610e-001  -6.0132587896e-003   1.0005829857e+000  -1.5519592804e-003  -4.3232018131e-004   5.4706662492e-004
  4.0480000000e+008   1.2227495379e-004   3.5639848794e-004   9.9956193416e-001  -5.8238224127e-003   1.0006205371e+000  -1.5841919914e-003  -3.6480407448e-005   2.6888019348e-004
  4.1338750000e+008   1.9890590969e-004   1.8849720531e-004   9.9916691906e-001  -5.0369425360e-003   1.0007598894e+000  -1.4445373482e-003   8.1790439467e-005   4.0718737750e-004
  4.2197500000e+008  -1.7931350284e-004  -2.6718748396e-005   1.0002383577e+000  -5.5761770962e-003   1.0009882598e+000  -1.8603746601e-003   7.2197211421e-005   4.5788117317e-004
  4.3056250000e+008   1.5582490947e-004   1.9749494254e-004   9.9974921514e-001  -5.6741265429e-003   1.0008267250e+000  -1.4317081635e-003   5.0672906962e-004   2.9539007671e-004
  4.3915000000e+008   6.6718953361e-005  -1.9387305774e-004   1.0012189343e+000  -4.0946802437e-003   1.0006641965e+000  -2.1253116341e-003   4.4582828363e-004   2.8380757143e-004
  4.4773750000e+008   1.4175239952e-004  -1.3739094090e-004   1.0007755443e+000  -5.4630331081e-003   1.0005067022e+000  -2.4589446362e-003   6.2023407332e-004   2.1160804320e-004
  4.5632500000e+008  -1.0047259479e-004  -1.2291045624e-004   9.9888435074e-001  -5.0349162899e-003   1.0003808699e+000  -2.0215800989e-003   6.3426802994e-004   2.1538252401e-004
  4.6491250000e+008  -1.7147689400e-004  -1.5846365357e-004   9.9857368349e-001  -6.4926948585e-003   1.0003757090e+000  -2.0360982924e-003   4.5381298215e-004   7.8557792371e-005
  4.7350000000e+008  -2.5717297652e-004  -3.4384199931e-004   9.9772967985e-001  -5.5049187997e-003   1.0002459898e+000  -1.9176988811e-003   5.3122855820e-004  -5.2119287383e-005
  4.8208750000e+008  -1.4200409136e-004   2.8277821503e-005   9.9642724496e-001  -5.8907755181e-003   9.9982031066e-001  -1.6147944947e-003   8.3460450918e-004   4.1599419501e-005
  4.9067500000e+008   2.5478165922e-005  -4.5219792753e-004   9.9573044627e-001  -6.7265729329e-003   9.9998588637e-001  -1.8792677445e-003   4.0546945385e-004  -1.7687787634e-005
  4.9926250000e+008  -1.8926904764e-005  -4.1983685442e-004   9.9670352537e-001  -6.1851201573e-003   9.9973476227e-001  -1.7764008335e-003   6.6143278708e-004  -4.3385765729e-005
  5.0785000000e+008  -5.8397855114e-004  -3.1986092111e-004   9.9573877248e-001  -5.8185722095e-003   1.0000400908e+000  -1.2858046091e-003   6.4861574745e-004   2.4894331301e-004
  5.1643750000e+008  -7.1201307099e-004   2.0050788398e-005   9.9514342262e-001  -5.2362219186e-003   1.0007367581e+000  -1.5979812897e-003   8.3265931445e-004  -6.7618747418e-005
  5.2502500000e+008  -4.8654931434e-004   5.9991129168e-004   9.9692092288e-001  -4.3154673529e-003   1.0003832875e+000  -1.3561178283e-003   3.0545147854e-004  -4.5793385205e-004
  5.3361250000e+008   4.1319004960e-004   5.6442260870e-004   9.9722080880e-001  -6.7661565158e-003   1.0006298791e+000  -1.5867065611e-003   2.5392195191e-005  -7.7432080725e-004
  5.4220000000e+008   7.4571271888e-004   1.1625212649e-004   9.9735652682e-001  -6.4704319827e-003   1.0007828459e+000  -2.3040126158e-003  -7.0260635152e-004  -4.3511303950e-004
  5.5078750000e+008   4.1427727467e-004  -3.5310179003e-004   9.9646589766e-001  -6.8681471125e-003   1.0004120088e+000  -2.2568860981e-003  -1.0210028410e-003  -4.1805240277e-004
  5.5937500000e+008   3.8393507303e-004  -5.9592681318e-004   9.9549739764e-001  -6.5527773892e-003   1.0000029078e+000  -2.0931017921e-003  -9.4461279391e-004   4.6754082819e-005
  5.6796250000e+008   4.3795038666e-004  -7.9570744367e-004   9.9797179777e-001  -5.8283926728e-003   1.0004981456e+000  -2.1365983299e-003  -1.1776959762e-003   5.7955352715e-004
  5.7655000000e+008  -1.7593733035e-004  -9.6388982231e-004   9.9754948344e-001  -8.7201422566e-003   1.0008951534e+000  -2.5844403467e-003  -9.2788461170e-004   6.5572577837e-004
  5.8513750000e+008  -3.5998379626e-004  -9.7141203872e-004   9.9243053043e-001  -7.0923516079e-003   9.9996580006e-001  -2.1781342614e-003  -7.9920493363e-004   9.4885062313e-004
  5.9372500000e+008  -3.2869133843e-004  -8.1603784102e-004   9.9093675850e-001  -8.3633430920e-003   1.0002529879e+000  -2.4230592938e-003  -5.0421263014e-004   9.0691203326e-004
  6.0231250000e+008  -8.3528122197e-004  -3.9131475878e-004   9.9128111259e-001  -6.7063833901e-003   1.0003534799e+000  -1.9333239544e-003  -4.7226171171e-004   9.4705320989e-004
  6.1090000000e+008  -8.6138395898e-004  -4.6699245924e-004   9.9057882999e-001  -9.8747573426e-003   1.0002787938e+000  -2.6582864487e-003  -4.5305217131e-004   9.7843017014e-004
  6.1948750000e+008  -8.6779697547e-004  -4.3801436592e-005   9.9215122253e-001  -7.8986902742e-003   9.9965211869e-001  -2.3798384982e-003  -2.8052863570e-004   6.8974359256e-004
  6.2807500000e+008  -6.7064294831e-004  -9.2702735605e-005   9.9496625553e-001  -8.9013442572e-003   1.0006590724e+000  -2.1004384653e-003   1.7201886378e-004   4.6721688361e-004
  6.3666250000e+008  -4.2888600680e-004   4.4347397396e-004   9.9654914046e-001  -4.9162854623e-003   1.0001090464e+000  -2.3943498655e-003   2.1574926918e-004   4.4308318131e-004
  6.4525000000e+008  -1.5306792397e-004   2.9301972172e-004   9.9787605210e-001  -7.5019411118e-003   9.9977158367e-001  -2.5326310528e-003   3.8161125476e-004   1.2570404231e-004
  6.5383750000e+008   3.9863741232e-005   1.7730450449e-004   9.9760990970e-001  -7.1911713788e-003   1.0004746682e+000  -1.9025054787e-003   4.2070733862e-004  -2.2103800620e-004
  6.6242500000e+008   2.2684955273e-004   8.6259440202e-005   9.9419135832e-001  -6.7730327754e-003   1.0001888292e+000  -3.3438522906e-003   4.0287573655e-004  -2.6253695637e-004
  6.7101250000e+008   2.7486613403e-004  -1.7898186636e-004   9.9593924911e-001  -5.1581589311e-003   9.9995498548e-001  -2.0931934481e-003   3.7316092731e-004  -7.2978416085e-004
  6.7960000000e+008   4.8428770470e-004  -5.4987944202e-004   9.9639083109e-001  -6.0957156370e-003   1.0006408503e+000  -2.0195991695e-003   2.6636470542e-004  -1.0183435158e-003
  6.8818750000e+008   2.2115482272e-004  -7.0517490686e-004   9.9623138567e-001  -8.0426012794e-003   1.0001198806e+000  -2.9111499072e-003  -2.3669354263e-005  -1.2015931252e-003
  6.9677500000e+008   2.0083508195e-004  -9.4183403173e-004   9.9602325595e-001  -6.2745696318e-003   9.9977952298e-001  -2.6155259344e-003  -1.4694700274e-004  -1.1982816000e-003
  7.0536250000e+008  -2.2366691446e-004  -9.6271006063e-004   9.9623924711e-001  -6.6862952119e-003   1.0002830885e+000  -3.1752373993e-003  -4.2813666571e-004  -1.4052215929e-003
  7.1395000000e+008  -6.2525992953e-004  -1.0380929607e-003   9.9629194306e-001  -5.9325786115e-003   1.0001470000e+000  -2.7188448023e-003  -5.5537697417e-004  -1.2237117913e-003
  7.2253750000e+008  -1.0398288919e-003  -8.1624988292e-004   9.9514893182e-001  -7.4904333049e-003   1.0000219502e+000  -2.3381193196e-003  -8.1646372799e-004  -1.2551237328e-003
  7.3112500000e+008  -1.1827379826e-003  -3.7994413522e-004   9.9551966433e-001  -7.4164964639e-003   1.0000535282e+000  -2.6873264755e-003  -9.4334804036e-004  -1.0117220746e-003
  7.3971250000e+008  -9.3892572843e-004  -1.2931766882e-004   9.9478562032e-001  -8.2561815382e-003   9.9944305723e-001  -3.0435384211e-003  -1.2263679509e-003  -6.3710233716e-004
  7.4830000000e+008  -9.8904386053e-004   3.7576978250e-004   9.9552872922e-001  -6.4959059618e-003   9.9952545690e-001  -2.2798068670e-003  -1.0140682201e-003  -6.1883147465e-004
  7.5688750000e+008  -7.5225185699e-004   5.3846701038e-004   9.9403727039e-001  -7.7446442362e-003   9.9872004724e-001  -3.3349569316e-003  -1.1755800843e-003  -2.3006353604e-004
  7.6547500000e+008  -3.2626421632e-004   8.3226254217e-004   9.9643199223e-001  -7.9745369855e-003   9.9976558185e-001  -2.8714426184e-003  -1.2804944399e-003   1.2133089194e-005
  7.7406250000e+008  -8.8720779736e-005   9.0915869446e-004   9.9460472405e-001  -7.4861321956e-003   9.9984102200e-001  -2.9676830852e-003  -7.8521946892e-004   2.6927465787e-004
  7.8265000000e+008   2.0206377481e-004   5.2303070516e-004   9.9533570628e-001  -6.5857332310e-003   9.9947451463e-001  -2.4869401934e-003  -7.6441572587e-004   6.7246105589e-004
  7.9123750000e+008   5.5980877270e-004   3.5470390989e-004   9.9530312750e-001  -6.3046135694e-003   9.9939508556e-001  -2.7143756916e-003  -7.8445552814e-004   6.0749613610e-004
  7.9982500000e+008   4.7838658088e-004   3.4574093584e-004   9.9576997142e-001  -6.5354336281e-003   1.0003033934e+000  -1.8197415558e-003  -5.2228596909e-004   8.4012019718e-004
  8.0841250000e+008   8.6447468892e-004   3.1606613791e-004   9.9554803754e-001  -7.5589920044e-003   9.9997228565e-001  -1.8432385789e-003  -6.2645847212e-004   9.7259692425e-004
  8.1700000000e+008   1.2047502134e-003   7.0692215457e-005   9.9615508627e-001  -6.3736708805e-003   1.0005459026e+000  -2.7969659963e-003  -4.5833327223e-004   1.0480070647e-003
  8.2558750000e+008   1.1530022011e-003  -2.9496798673e-004   9.9695644183e-001  -6.3037647468e-003   1.0005951199e+000  -2.8011078442e-003  -4.7266193875e-004   1.1166482172e-003
  8.3417500000e+008   1.2010026964e-003  -9.3714724737e-004   9.9657326128e-001  -6.4918953936e-003   1.0014170146e+000  -3.1761520926e-003  -3.4167852402e-004   1.4184930591e-003
  8.4276250000e+008   8.1593378292e-004  -1.1840950459e-003   9.9513531968e-001  -7.0354350760e-003   9.9977329292e-001  -3.5647783838e-003  -6.9441076004e-005   1.4324938505e-003
  8.5135000000e+008   2.8344508197e-004  -1.3270730366e-003   9.9578823663e-001  -5.8849624574e-003   1.0014446893e+000  -2.8587375019e-003   2.9548594857e-004   1.4808805563e-003
  8.5993750000e+008   9.8764464521e-006  -1.3646701514e-003   9.9536359423e-001  -6.6844626495e-003   9.9981866018e-001  -4.1026547573e-003   4.1249995357e-004   1.1736133059e-003
  8.6852500000e+008  -4.7078476796e-004  -1.0285904680e-003   9.9077872810e-001  -8.5525538428e-003   9.9854573096e-001  -3.2774953097e-003   5.6247328100e-004   7.7165847481e-004
  8.7711250000e+008  -6.1242999733e-004  -6.9606197036e-004   9.8986769591e-001  -9.3596677891e-003   1.0004314995e+000  -3.4326849872e-003   5.6082639514e-004   2.8505453052e-004
  8.8570000000e+008  -5.6066967050e-004  -5.1239281381e-004   9.9098378212e-001  -7.8441827503e-003   9.9946381630e-001  -3.6944169671e-003   3.6735153017e-004   3.4128507254e-005
  8.9428750000e+008  -4.3853063838e-004  -2.8121794448e-004   9.9017338772e-001  -7.8507086895e-003   9.9960103216e-001  -3.3879269445e-003   2.6455825557e-004  -2.0415431459e-004
  9.0287500000e+008  -1.5222148706e-004  -2.6030529492e-004   9.9104334527e-001  -9.4575483923e-003   9.9945616962e-001  -3.1766501240e-003   6.9499008055e-007  -3.6961640058e-004
  9.1146250000e+008   5.4746240689e-005  -2.5431779435e-004   9.9177757255e-001  -9.2323657510e-003   9.9877872461e-001  -3.4112126368e-003  -5.3792315487e-004  -4.4860712841e-004
  9.2005000000e+008   2.3618037227e-004  -3.2175769304e-004   9.9495713053e-001  -7.2836502631e-003   9.9807482183e-001  -2.1939174632e-003  -6.6027780820e-004  -6.7892470300e-004
  9.2863750000e+008   4.4924641305e-004  -4.8018166685e-004   9.9612633220e-001  -6.5086752988e-003   9.9881453444e-001  -3.9359153820e-003  -7.7456755214e-004  -7.6492047418e-004
  9.3722500000e+008   4.8400772047e-004  -6.7143120475e-004   9.9600269353e-001  -7.8047182782e-003   9.9891113737e-001  -3.4035422764e-003  -9.8225220241e-004  -9.2096751321e-004
  9.4581250000e+008   3.9436011663e-004  -1.0160804594e-003   9.9569418686e-001  -5.7288223937e-003   1.0002711203e+000  -1.9476559264e-003  -1.3915691679e-003  -7.4748046060e-004
  9.5440000000e+008   8.4765270080e-005  -1.2077962076e-003   9.9481197857e-001  -7.4666125120e-003   1.0002375522e+000  -2.2587837162e-003  -1.4910708691e-003  -4.7961834555e-004
  9.6298750000e+008  -2.7541257387e-004  -1.3045080463e-003   9.9737363509e-001  -6.8582116330e-003   9.9964208340e-001  -3.6873107364e-003  -1.6251913159e-003  -3.2225166862e-004
  9.7157500000e+008  -4.4300788270e-004  -1.3093588059e-003   9.9561082630e-001  -7.0394546156e-003   1.0003255532e+000  -2.7457797018e-003  -1.5654488958e-003  -1.4374924857e-004
  9.8016250000e+008  -7.3065964704e-004  -1.0712292645e-003   9.9607056740e-001  -8.1963152709e-003   9.9967777760e-001  -4.7017504013e-003  -1.5611094260e-003   8.8073644383e-005
  9.8875000000e+008  -1.1094490268e-003  -8.0541309751e-004   9.9643199412e-001  -7.5451778961e-003   9.9874940321e-001  -3.0057609401e-003  -1.4749796721e-003   2.3196133473e-004
  9.9733750000e+008  -1.0515601548e-003  -5.9945667919e-004   9.9466861598e-001  -7.3801989004e-003   9.9950156450e-001  -2.9930806530e-003  -1.3237942729e-003   1.6379508403e-004
  1.0059250000e+009  -1.1000066986e-003  -1.2465843193e-004   9.9689842319e-001  -7.4508238926e-003   1.0005691569e+000  -3.5662873585e-003  -9.1926526006e-004   2.9704573666e-004
  1.0145125000e+009  -8.9784876642e-004   2.2443081292e-004   9.9591725829e-001  -8.5447006232e-003   1.0002022712e+000  -3.1426650187e-003  -4.1217519175e-004   3.7439058780e-004
  1.0231000000e+009  -7.0214765109e-004   3.0129547982e-004   9.9565354894e-001  -6.7182289425e-003   9.9925534780e-001  -3.8263879084e-003  -3.2376789387e-004   2.5215056104e-004
  1.0316875000e+009  -3.8836255425e-004   7.3348156987e-004   9.9514387493e-001  -7.9046843023e-003   9.9928774023e-001  -4.1701510844e-003  -1.0709476084e-005   2.1484030242e-004
  1.0402750000e+009   5.8525277969e-005   7.0062746883e-004   9.9502723032e-001  -7.2645633765e-003   9.9952809411e-001  -2.9591045302e-003   4.9161172047e-004  -9.1687547021e-006
  1.0488625000e+009   2.7280453758e-004   6.2249056645e-004   9.9574303108e-001  -6.7140813972e-003   9.9930241734e-001  -3.2482604354e-003   6.3807543232e-004  -2.1767801581e-004
  1.0574500000e+009   5.1722553680e-004   3.2312202808e-004   9.9552730915e-001  -6.3360159783e-003   9.9923857247e-001  -3.0901375064e-003   7.7817710653e-004  -4.7435055435e-004
