# Hz S RI R 50.000000
! Metas.Vna.Tools, 2.8.8664.20301
! Metas.Vna.Data, 2.8.8664.20285
! Created: UTC 2024.02.11 10:08:22
! FREQ                re:S1,1             im:S1,1             re:S2,1             im:S2,1             re:S1,2             im:S1,2             re:S2,2             im:S2,2          
  1.3000000000e+008   9.2951627196e-005  -1.8118915443e-003   9.8966904146e-001  -7.0401686696e-003   1.0009507346e+000  -3.4777026947e-004   1.6463298384e-003   6.3637836275e-004
  1.3858750000e+008  -9.5602337117e-004  -1.1835806039e-003   9.9023425061e-001  -6.5087458675e-003   1.0007213584e+000  -7.8697565563e-005   1.4668500994e-003   1.2244474953e-004
  1.4717500000e+008  -1.6288462642e-003  -9.4532558718e-004   9.9101107014e-001  -7.2659797814e-003   9.9978917914e-001   7.3049414018e-006   1.0057527068e-003  -2.6278008723e-004
  1.5576250000e+008  -1.3197252842e-003  -2.6859912914e-004   9.9142240817e-001  -6.3685895784e-003   1.0009508968e+000   5.5576610117e-004   1.6742891335e-003  -8.8506137129e-004
  1.6435000000e+008  -1.3527781028e-003   4.0933551780e-004   9.8851421028e-001  -7.1193480197e-003   1.0003598848e+000  -4.3632700482e-004   7.0527453304e-004  -4.9529888248e-004
  1.7293750000e+008  -8.8505076033e-004   5.4319795064e-004   9.8888988920e-001  -6.9214507485e-003   1.0002835585e+000  -4.7811260528e-004   8.8987836407e-004  -7.8575565513e-004
  1.8152500000e+008  -2.1524125772e-004   1.2792751842e-004   9.8782521915e-001  -7.5088425459e-003   1.0002459542e+000  -1.3351623986e-003   6.3027265643e-004  -6.2339016083e-004
  1.9011250000e+008  -3.1529936857e-004   5.5928356039e-004   9.8870299691e-001  -9.0948354729e-003   1.0008894408e+000  -8.4296772022e-004   1.9071655888e-004  -9.4828206954e-004
  1.9870000000e+008  -6.7493428315e-005   7.5543853005e-004   9.8688433199e-001  -8.3577495839e-003   1.0010904014e+000  -1.2048098076e-003   5.9478487401e-004  -3.4146064147e-004
  2.0728750000e+008   1.7787146548e-004   3.9081697199e-004   9.9038798010e-001  -6.7436795907e-003   1.0008568164e+000  -1.3171833304e-003   3.1052147810e-004  -2.7840887984e-004
  2.1587500000e+008  -3.1057102883e-005  -1.3733099202e-005   9.9191828466e-001  -7.1775004426e-003   1.0001713684e+000  -1.1608890112e-003  -7.4772773439e-004   3.4831473304e-005
  2.2446250000e+008   1.6351134850e-004  -5.2696134344e-004   9.9062598179e-001  -6.7916213758e-003   1.0004401361e+000  -7.0373585339e-004  -1.9502726069e-004   5.9228953917e-005
  2.3305000000e+008   1.0041785516e-006  -4.2022827568e-004   9.9191210246e-001  -6.0317328315e-003   1.0003361134e+000  -1.2909338464e-003  -7.0142743218e-005  -1.7890369198e-004
  2.4163750000e+008  -4.7948302433e-004  -1.6242151788e-004   9.9119821173e-001  -8.5499841787e-003   9.9980692564e-001  -1.5653257709e-003  -6.7155491823e-004  -2.2873097076e-005
  2.5022500000e+008  -3.9284941569e-004  -8.5397606571e-004   9.9062521731e-001  -6.1592359962e-003   1.0000132069e+000  -1.0908072233e-003  -9.5991364295e-004   5.2756659042e-004
  2.5881250000e+008  -5.4338795209e-004  -4.0519327156e-004   9.9031148168e-001  -5.8422117853e-003   1.0000538982e+000  -1.7063234860e-003  -8.7409630316e-004   5.6757824196e-004
  2.6740000000e+008  -8.9195737328e-004  -4.5142990897e-004   9.9070815251e-001  -8.9905765574e-003   1.0008410441e+000  -2.1650461309e-003  -4.7155375012e-004   4.7340884563e-004
  2.7598750000e+008  -1.8670344231e-004  -4.0001253232e-004   9.8949154967e-001  -7.3811718254e-003   1.0004195466e+000  -1.1846136843e-003  -7.0276120280e-004   6.6763391465e-004
  2.8457500000e+008  -4.4882806994e-004  -3.7709035897e-004   9.8885631104e-001  -7.7505994923e-003   9.9971256841e-001  -7.6643812349e-004  -1.9961005661e-004   5.6539745706e-004
  2.9316250000e+008  -4.5039361407e-004  -4.5531270280e-004   9.8840096546e-001  -6.8533000457e-003   1.0010508528e+000  -1.8616126373e-003  -3.9711477441e-004   3.5530816634e-004
  3.0175000000e+008  -7.3119740724e-004   4.8554210168e-005   9.8911763666e-001  -9.4641277468e-003   1.0006031798e+000  -7.4232589602e-004  -5.4950427066e-004   5.3950467111e-004
  3.1033750000e+008  -9.8790622764e-004  -2.6459622108e-004   9.8938544927e-001  -6.4716892829e-003   1.0010637852e+000  -1.3529487191e-003  -9.0173774123e-004   6.7343442111e-004
  3.1892500000e+008  -1.0084635988e-003  -2.4904454821e-004   9.8861964141e-001  -8.1168591734e-003   1.0007231730e+000  -1.1270183631e-003  -8.5443328374e-004   2.7940325077e-004
  3.2751250000e+008  -5.9936326725e-004  -2.5329974798e-004   9.8950940928e-001  -1.0046692031e-002   1.0005409726e+000  -1.9696233452e-003  -6.5688647398e-004   2.5226490936e-004
  3.3610000000e+008  -7.9357579119e-004  -1.3176532647e-004   9.9017220921e-001  -7.2417145988e-003   1.0010637231e+000  -1.8161177437e-003  -5.3205418016e-004   2.2978776822e-004
  3.4468750000e+008  -7.7179194809e-004  -7.2811953744e-005   9.8989705198e-001  -7.7223865302e-003   1.0009709972e+000  -1.9206327920e-003  -4.3337872752e-004   2.1596153436e-004
  3.5327500000e+008  -8.4466098376e-004   4.2017670865e-004   9.9243568067e-001  -7.8892016600e-003   9.9932878148e-001  -2.0761926797e-003  -4.8028242220e-004   1.9024802226e-004
  3.6186250000e+008  -7.0945606479e-004   3.8830403161e-004   9.9205155561e-001  -8.4432126032e-003   1.0006377249e+000  -7.3416860836e-004  -6.3630698402e-004   3.7343284080e-004
  3.7045000000e+008  -8.3577628994e-004   4.6749633040e-004   9.9188550366e-001  -7.6769694027e-003   1.0011152382e+000  -2.1771420196e-003  -7.4970571710e-004   3.7914985320e-004
  3.7903750000e+008  -3.5329851826e-004   7.1635124909e-004   9.9175383646e-001  -6.4431713294e-003   1.0007154314e+000  -1.9175322108e-003  -6.3296921277e-004   1.3676559498e-004
  3.8762500000e+008  -2.7338280672e-004   5.7647874219e-004   9.9343189231e-001  -6.6841883082e-003   9.9949066914e-001  -1.3865004833e-003  -5.0977737392e-004   5.5260229197e-004
  3.9621250000e+008  -5.3591482927e-005   5.5874679244e-004   9.9292884261e-001  -6.4232620439e-003   1.0007696812e+000  -1.8522001641e-003  -3.6120220102e-004   6.5572820173e-004
  4.0480000000e+008   2.6366848755e-004   2.2967379245e-004   9.9482225643e-001  -7.4904573979e-003   1.0004549085e+000  -1.8550939334e-003  -9.7374560536e-005   1.4549227981e-004
  4.1338750000e+008   3.5290155857e-004   1.0812239837e-004   9.9389572077e-001  -5.2099898162e-003   1.0007071740e+000  -1.6983623103e-003   1.4988573337e-005   3.8259969694e-004
  4.2197500000e+008   3.4013004078e-005  -1.5933539918e-004   9.9466768146e-001  -6.8494756170e-003   1.0005936357e+000  -1.5081855411e-003   8.8619579930e-005   4.8875445821e-004
  4.3056250000e+008   1.7961854513e-004  -2.7378790505e-004   9.9441165696e-001  -5.9250583084e-003   1.0005770217e+000  -1.6248511683e-003   2.9133039494e-004   5.4079754475e-004
  4.3915000000e+008  -7.6707131957e-005  -2.0162618416e-004   9.9342184633e-001  -6.7448559150e-003   1.0003090383e+000  -2.3553381582e-003   5.2763651830e-004   3.3855061621e-004
  4.4773750000e+008  -2.0266459432e-005  -4.7546306997e-004   9.9319805635e-001  -7.1785252858e-003   1.0002040679e+000  -2.0097271159e-003   6.7714088104e-004   2.0986960599e-004
  4.5632500000e+008  -1.8058580947e-004  -4.1359880959e-004   9.9071238750e-001  -7.6605333878e-003   1.0002663234e+000  -2.1371546310e-003   6.4432717177e-004   1.2487881188e-004
  4.6491250000e+008  -4.5348430310e-004  -2.0582995397e-004   9.9168665864e-001  -8.0019394987e-003   1.0006733956e+000  -2.1955261624e-003   5.6025203772e-004  -5.6373719351e-005
  4.7350000000e+008  -4.9781413992e-004  -3.4366138668e-004   9.9100381638e-001  -8.0489469396e-003   9.9990615787e-001  -1.8577332786e-003   6.3465303736e-004   2.1561537790e-004
  4.8208750000e+008  -5.4576150145e-004  -7.3001886422e-005   9.8913015223e-001  -9.3823399728e-003   9.9973980984e-001  -1.7461449905e-003   5.1362799805e-004   1.5453115151e-004
  4.9067500000e+008   7.0942030995e-005  -2.4581345923e-004   9.8720757719e-001  -8.6170717787e-003   1.0000555568e+000  -2.2607857808e-003   3.9162064913e-004  -2.3791028740e-005
  4.9926250000e+008  -1.6042287222e-004  -3.2181510647e-004   9.8771943496e-001  -7.7894440003e-003   9.9988903144e-001  -1.4690400444e-003   5.9797171392e-004   4.1704176898e-005
  5.0785000000e+008  -3.3537410985e-004  -3.1582935870e-004   9.8724436482e-001  -7.6937926939e-003   9.9973469073e-001  -1.4003707796e-003   4.1786471273e-004   4.7750062956e-004
  5.1643750000e+008  -4.1897208778e-004  -8.2020406502e-005   9.8726899771e-001  -7.6737666259e-003   1.0004132553e+000  -1.6835280503e-003   8.2991518175e-004   2.9799853085e-005
  5.2502500000e+008  -1.8770750763e-004   4.5548552509e-004   9.8931338615e-001  -8.0239779206e-003   1.0007354694e+000  -1.2077042187e-003   5.3710974908e-004  -2.6111695442e-004
  5.3361250000e+008   3.3457097947e-004   2.7128981854e-004   9.9022892983e-001  -8.4461778043e-003   1.0005021250e+000  -1.8312468589e-003   3.3069220933e-005  -5.4629086596e-004
  5.4220000000e+008   8.3885322435e-004   1.7542338956e-005   9.8978814106e-001  -8.9338612493e-003   1.0004334213e+000  -1.8612973148e-003  -8.5543692699e-004  -5.0517523620e-004
  5.5078750000e+008   6.0408750188e-004  -7.1301515983e-004   9.9040761528e-001  -9.0851895051e-003   1.0003881348e+000  -2.3588781093e-003  -8.7795636913e-004  -1.8631561867e-004
  5.5937500000e+008   5.1717482581e-004  -8.3854051189e-004   9.8805803210e-001  -8.8471905595e-003   1.0005419763e+000  -1.9712451615e-003  -9.9659603964e-004   1.2054857478e-004
  5.6796250000e+008   3.6455518975e-004  -1.0051476501e-003   9.9015004285e-001  -8.0971291068e-003   1.0002280737e+000  -2.4291390455e-003  -1.1060080432e-003   3.6087142699e-004
  5.7655000000e+008  -3.7762043768e-004  -1.2088535440e-003   9.8955852110e-001  -1.1406415202e-002   1.0008447817e+000  -2.3549178671e-003  -9.2515819304e-004   8.2913331612e-004
  5.8513750000e+008  -3.2991668280e-004  -7.7497304492e-004   9.8885957100e-001  -9.6394399891e-003   1.0000235403e+000  -2.1463298715e-003  -7.5192662503e-004   8.2733477393e-004
  5.9372500000e+008  -6.0423347059e-004  -7.2667737768e-004   9.8860532744e-001  -8.7595683998e-003   1.0000475031e+000  -2.2860703614e-003  -6.2592914437e-004   9.6934059946e-004
  6.0231250000e+008  -9.6828347517e-004  -4.2743490251e-004   9.8938223226e-001  -8.1377699140e-003   1.0001924187e+000  -2.7476055598e-003  -4.8585390280e-004   9.2045357986e-004
  6.1090000000e+008  -9.6452930446e-004  -3.6420538011e-004   9.8957965394e-001  -9.7425887392e-003   1.0006206307e+000  -2.2198227342e-003  -3.6355760616e-004   9.6575648183e-004
  6.1948750000e+008  -8.3618652274e-004   8.0242931837e-005   9.8839836326e-001  -7.8441809492e-003   1.0000478127e+000  -2.0948993848e-003  -2.3577389255e-004   6.7545746435e-004
  6.2807500000e+008  -6.6638797465e-004   1.0996392485e-004   9.8938733671e-001  -1.0999518718e-002   1.0006625997e+000  -2.1861845098e-003  -9.3131533050e-005   4.2247472421e-004
  6.3666250000e+008  -4.2372989111e-004   6.4117898327e-004   9.9005277580e-001  -9.2676548026e-003   1.0001912065e+000  -3.0050324836e-003   1.8021457173e-004   3.0828236390e-004
  6.4525000000e+008  -1.9374454308e-005   4.7614814082e-004   9.9098042717e-001  -7.4569166748e-003   9.9992308691e-001  -2.4369665966e-003   2.2208356683e-004  -8.1699690970e-006
  6.5383750000e+008   2.6148086869e-004   4.0630659888e-004   9.9009908312e-001  -8.5747452012e-003   1.0002775398e+000  -1.9799624811e-003   3.2284497106e-004  -2.3318737149e-004
  6.6242500000e+008   6.3913306303e-004   2.2456260608e-004   9.8675990963e-001  -9.7285696552e-003   1.0000041371e+000  -3.7247823805e-003   2.7942086140e-004  -3.1209443709e-004
  6.7101250000e+008   4.9710281255e-004  -1.3655593167e-004   9.8864966234e-001  -7.8785653134e-003   9.9967767293e-001  -1.7255541158e-003   2.3135153469e-004  -5.4591548828e-004
  6.7960000000e+008   7.1755407242e-004  -5.3103167681e-004   9.8879319761e-001  -8.6747132839e-003   1.0002963632e+000  -2.1149683320e-003   3.4193942367e-004  -1.0583257623e-003
  6.8818750000e+008   3.5233242715e-004  -9.2723966790e-004   9.8871934405e-001  -9.1198402681e-003   1.0004289183e+000  -3.1332887045e-003   6.7198089554e-005  -1.1919242508e-003
  6.9677500000e+008   1.3772144554e-004  -1.1691796665e-003   9.8870986362e-001  -8.4162987952e-003   9.9974084494e-001  -3.3747493661e-003  -2.1273318829e-004  -1.2041868739e-003
  7.0536250000e+008  -3.4824111325e-004  -1.1908862405e-003   9.8934036011e-001  -8.7051775412e-003   1.0002766835e+000  -2.8541518095e-003  -3.5543954205e-004  -1.3818846327e-003
  7.1395000000e+008  -7.3854090885e-004  -1.1863125755e-003   9.8890251486e-001  -8.6667380958e-003   9.9986604586e-001  -2.4890974545e-003  -6.0259365290e-004  -1.3914496399e-003
  7.2253750000e+008  -1.1777770263e-003  -8.9410750332e-004   9.8792965013e-001  -9.0527387380e-003   9.9988990120e-001  -2.9091589889e-003  -8.8354104631e-004  -1.2706497415e-003
  7.3112500000e+008  -1.1366007856e-003  -3.9425128815e-004   9.8883085768e-001  -8.6325074795e-003   1.0000724140e+000  -2.4380634618e-003  -9.9275033252e-004  -1.1162150155e-003
  7.3971250000e+008  -1.1348701348e-003   1.1826043851e-004   9.8858885997e-001  -9.4198859243e-003   1.0003906024e+000  -3.7019173602e-003  -1.1352694283e-003  -7.6986052204e-004
  7.4830000000e+008  -9.6937964561e-004   5.7109890729e-004   9.8897159866e-001  -7.5511488946e-003   9.9958328638e-001  -2.3728906358e-003  -1.0914516217e-003  -7.2667291496e-004
  7.5688750000e+008  -7.2675965623e-004   8.1815920853e-004   9.8720342023e-001  -9.4125881630e-003   9.9930906838e-001  -3.1105482077e-003  -1.1374785660e-003  -3.4317122023e-004
  7.6547500000e+008  -2.1410837391e-004   9.5001885253e-004   9.8793099700e-001  -1.0402634322e-002   1.0001098530e+000  -3.5166317920e-003  -1.1689958529e-003  -1.2156622340e-005
  7.7406250000e+008   1.5694988228e-004   9.2659957476e-004   9.8752104631e-001  -9.5767072080e-003   9.9983416678e-001  -2.4309204516e-003  -9.3773968282e-004   2.0432966309e-004
  7.8265000000e+008   5.5501197414e-004   6.0811998382e-004   9.8782917930e-001  -8.0647579866e-003   9.9997072099e-001  -2.8259792226e-003  -7.7268712391e-004   6.1065827911e-004
  7.9123750000e+008   8.4194350198e-004   3.0885411448e-004   9.8853515256e-001  -9.1591569200e-003   9.9941836694e-001  -2.0134978971e-003  -8.3892076765e-004   3.8230797677e-004
  7.9982500000e+008   7.5156089435e-004   1.6480904142e-004   9.8941105586e-001  -8.2932037276e-003   9.9992091921e-001  -2.1624127336e-003  -4.9953347198e-004   6.9834921270e-004
  8.0841250000e+008   9.7669283236e-004  -1.2489353061e-005   9.8754402631e-001  -1.0070498086e-002   1.0002211043e+000  -2.0692046914e-003  -4.7387986755e-004   8.5352860913e-004
  8.1700000000e+008   1.0469778217e-003  -1.3928416359e-004   9.8877855408e-001  -8.2952407128e-003   1.0005653249e+000  -2.8351980623e-003  -4.7670279248e-004   8.2180849071e-004
  8.2558750000e+008   1.0633095761e-003  -6.0322921751e-004   9.8963821077e-001  -8.3833371139e-003   1.0005024634e+000  -3.2351742191e-003  -5.7396268734e-004   1.0644507034e-003
  8.3417500000e+008   9.0244202552e-004  -1.2077403565e-003   9.8959513262e-001  -8.7420363295e-003   1.0006893805e+000  -3.5460073262e-003  -3.1643828910e-004   1.2492642470e-003
  8.4276250000e+008   5.4283197450e-004  -1.2425612320e-003   9.8892479313e-001  -8.9466652966e-003   1.0001852622e+000  -3.1475015457e-003  -1.6835590383e-004   1.2702214631e-003
  8.5135000000e+008  -1.6607992189e-005  -1.2431932586e-003   9.8806707309e-001  -9.0509041662e-003   1.0008025717e+000  -2.6711876852e-003   1.7789548292e-004   1.4185074278e-003
  8.5993750000e+008  -1.7073082980e-004  -1.2381477058e-003   9.8793049784e-001  -8.7435273120e-003   9.9969396900e-001  -3.4250184555e-003   3.8664183138e-004   1.0806191150e-003
  8.6852500000e+008  -4.5939340837e-004  -9.7516086011e-004   9.8642307873e-001  -9.3072479729e-003   1.0001858464e+000  -2.6262016692e-003   5.6511029005e-004   8.6031242051e-004
  8.7711250000e+008  -4.3459738892e-004  -6.0035575833e-004   9.8808018880e-001  -9.9751250145e-003   1.0005142380e+000  -3.4362767204e-003   6.3842843877e-004   5.7093245829e-004
  8.8570000000e+008  -5.1096952544e-004  -2.4761547246e-004   9.9016763969e-001  -7.8465432891e-003   1.0003738934e+000  -3.5939847042e-003   6.1539844512e-004   2.0627846818e-004
  8.9428750000e+008  -2.2216437565e-004  -2.1309534949e-004   9.8797379778e-001  -9.2463906910e-003   1.0004757118e+000  -4.0354497500e-003   4.1403355323e-004  -1.9917037497e-004
  9.0287500000e+008   5.3935329285e-005  -1.6808786886e-004   9.8883321206e-001  -8.4575607998e-003   1.0000820610e+000  -3.2900474017e-003   2.4075973742e-004  -4.6125812887e-004
  9.1146250000e+008   3.8133012113e-004  -2.4998428509e-004   9.8926189619e-001  -9.9186000731e-003   9.9810875925e-001  -3.6205228058e-003  -2.6446135650e-004  -4.8651233630e-004
  9.2005000000e+008   2.1639139997e-004  -2.9761320293e-004   9.8886075281e-001  -9.2655998618e-003   9.9856960562e-001  -2.6680866992e-003  -7.2206651528e-004  -6.7910289479e-004
  9.2863750000e+008   6.2605742993e-004  -6.6325656599e-004   9.8719884841e-001  -9.1191726570e-003   9.9954022187e-001  -4.5180941569e-003  -8.6620933944e-004  -7.2024084225e-004
  9.3722500000e+008   4.1406376563e-004  -9.0694712342e-004   9.9035511068e-001  -7.7246696407e-003   9.9874059930e-001  -2.8013681346e-003  -1.0641770637e-003  -8.4328825469e-004
  9.4581250000e+008   2.9680840960e-004  -1.1458625039e-003   9.8927278950e-001  -7.0828209215e-003   9.9898032784e-001  -2.9951810269e-003  -1.3252575194e-003  -4.0398338673e-004
  9.5440000000e+008  -9.8366948386e-005  -1.4329183787e-003   9.9030620783e-001  -7.8525610978e-003   9.9982312107e-001  -2.8923342189e-003  -1.4485536857e-003  -4.8173672428e-004
  9.6298750000e+008  -5.2381617056e-004  -1.3520552112e-003   9.8991795060e-001  -8.1942867580e-003   9.9952007264e-001  -3.5104639295e-003  -1.5778047991e-003  -2.9684939191e-004
  9.7157500000e+008  -7.4236136945e-004  -1.3149044259e-003   9.8899307585e-001  -9.5293622615e-003   1.0006632482e+000  -3.7489302642e-003  -1.5206737296e-003  -2.4975285083e-004
  9.8016250000e+008  -1.0452411997e-003  -9.5432081622e-004   9.9035427694e-001  -9.1874540600e-003   1.0003906817e+000  -4.1960247162e-003  -1.5296983736e-003   1.3815653305e-004
  9.8875000000e+008  -1.1745919383e-003  -6.4432535137e-004   9.8850142194e-001  -8.6777086483e-003   9.9916885118e-001  -3.0585362951e-003  -1.3950108917e-003   2.4233956590e-004
  9.9733750000e+008  -1.1990149162e-003  -2.5455996764e-004   9.8803376199e-001  -9.5229474510e-003   9.9920586367e-001  -2.8158234650e-003  -1.2357712473e-003   1.3351639008e-004
  1.0059250000e+009  -1.0042968469e-003   1.2265717317e-004   9.8943297768e-001  -8.7070953897e-003   1.0000905496e+000  -3.4282028395e-003  -8.7377292948e-004   4.4812817619e-004
  1.0145125000e+009  -7.8858253598e-004   5.0879707636e-004   9.8954167850e-001  -1.1507206110e-002   9.9963068974e-001  -2.4310282429e-003  -6.0612398794e-004   3.0090105677e-004
  1.0231000000e+009  -5.2642796307e-004   4.7247881918e-004   9.8858258979e-001  -8.3811808108e-003   9.9967280937e-001  -3.7097622899e-003  -2.7785110990e-004   4.1815563917e-004
  1.0316875000e+009  -2.1658090756e-004   7.2678498215e-004   9.8939065805e-001  -1.0367384999e-002   9.9946603645e-001  -3.6687211738e-003  -3.5405796494e-005   3.2800402951e-004
  1.0402750000e+009   4.3860048278e-004   7.3735424845e-004   9.8667275891e-001  -9.9838788336e-003   9.9974497532e-001  -3.2173285587e-003   2.9405403792e-004   1.6449493130e-005
  1.0488625000e+009   6.0380107984e-004   5.2176987716e-004   9.8752246295e-001  -1.0158721688e-002   9.9901512406e-001  -3.7405789575e-003   5.5074188832e-004  -1.5454470521e-004
  1.0574500000e+009   6.8179258202e-004   1.0966595201e-004   9.8619292229e-001  -1.0099251878e-002   9.9939604435e-001  -3.6155935555e-003   8.0534138226e-004  -4.1569257337e-004
