# Hz S RI R 50.000000
! Metas.Vna.Tools, 2.8.8664.20301
! Metas.Vna.Data, 2.8.8664.20285
! Created: UTC 2024.02.11 10:08:19
! FREQ                re:S1,1             im:S1,1             re:S2,1             im:S2,1             re:S1,2             im:S1,2             re:S2,2             im:S2,2          
  1.3000000000e+008   3.7438987607e-004  -1.4308740481e-003   9.9428199526e-001  -5.6044496159e-003   1.0010300344e+000  -1.0738540089e-003   1.0335679942e-003   3.3700612080e-004
  1.3858750000e+008  -6.7885315986e-004  -1.2509210916e-003   9.9596522756e-001  -5.4881218711e-003   1.0006597873e+000  -2.9335828915e-004   1.1519097831e-003   5.4280707764e-004
  1.4717500000e+008  -1.8199131122e-003  -9.8456507824e-004   9.9552992722e-001  -6.4017984159e-003   1.0004825387e+000  -2.2379859925e-004   1.1624524709e-003  -4.8619723164e-004
  1.5576250000e+008  -1.4963554142e-003   1.9887823812e-004   9.9528644256e-001  -5.2673161119e-003   1.0002879093e+000  -1.0288695624e-004   1.2490342698e-003  -9.1433174043e-004
  1.6435000000e+008  -1.1914383265e-003   3.1380437143e-004   9.9575276648e-001  -4.5415084556e-003   1.0006393382e+000  -8.5058997700e-004   9.8348372370e-004  -5.7389200350e-004
  1.7293750000e+008  -1.0096465559e-003   9.3166804298e-004   9.9483482664e-001  -4.8233492943e-003   1.0004090301e+000  -6.6838389804e-004   8.5252941165e-004  -9.5124106883e-004
  1.8152500000e+008  -4.5855782692e-004   3.3094336837e-004   9.9563646491e-001  -5.6505168095e-003   1.0002337257e+000  -8.4911001322e-004   1.5895784984e-004  -7.3197919994e-004
  1.9011250000e+008  -4.8428009024e-004   2.2909766499e-004   9.9576229867e-001  -6.9819273181e-003   1.0008064650e+000  -1.3028365656e-003   5.2792488734e-005  -1.3811472292e-003
  1.9870000000e+008  -2.5707702735e-004   6.3262729316e-004   9.9485882578e-001  -5.1342238466e-003   1.0006484484e+000  -1.3008610230e-003   4.0991240059e-004  -5.7206586397e-004
  2.0728750000e+008   9.0674976957e-004   2.4578214315e-004   9.9458577066e-001  -5.2703432183e-003   1.0005777779e+000  -7.0515861569e-004  -6.6970843184e-005  -2.9599270970e-004
  2.1587500000e+008   2.0964619893e-004  -3.2821339758e-004   9.9613729454e-001  -5.8299287691e-003   9.9976228683e-001  -4.6095117860e-004  -5.4060458684e-004  -2.2756932094e-004
  2.2446250000e+008   3.3623053430e-004  -4.3361416505e-004   9.9333957590e-001  -6.1132286307e-003   1.0006562622e+000  -1.1815561239e-003  -2.7193945320e-004   1.7493098778e-005
  2.3305000000e+008  -5.3035446457e-005  -1.1511621698e-004   9.9226645766e-001  -6.3269403695e-003   1.0004459396e+000  -1.0992037196e-003  -2.9557099741e-004   2.6999830500e-004
  2.4163750000e+008   2.5507946703e-005  -4.0643257515e-004   9.9260415300e-001  -6.0419789126e-003   1.0002084809e+000  -2.0509082753e-003  -8.8596821033e-004   2.1584509416e-004
  2.5022500000e+008  -6.7382932683e-004  -5.0477084314e-004   9.9131072757e-001  -6.8542934799e-003   1.0002934910e+000  -7.4178862544e-004  -1.2258468718e-003   5.2778115529e-004
  2.5881250000e+008  -5.8831022902e-004  -6.2182891117e-004   9.9364984963e-001  -5.4265544546e-003   1.0002284809e+000  -1.5755719784e-003  -8.2406009377e-004   7.3096467734e-004
  2.6740000000e+008  -9.3711513505e-004  -5.3565096156e-004   9.9444541919e-001  -7.2067422492e-003   1.0000739706e+000  -2.0641690382e-003  -4.1172146415e-004   5.3865069884e-004
  2.7598750000e+008   3.0044362472e-005  -1.1888268426e-004   9.9323230060e-001  -6.4519408523e-003   1.0009150066e+000  -2.0391280836e-003  -3.7519622168e-004   9.3130484412e-004
  2.8457500000e+008  -8.0586580256e-004  -3.7992271402e-004   9.9442477777e-001  -6.4292640017e-003   1.0001029003e+000  -1.0781372711e-003  -2.1897343910e-004   6.7671459307e-004
  2.9316250000e+008  -6.3379517983e-004  -2.6226527090e-004   9.9531791354e-001  -5.4646427417e-003   1.0005941045e+000  -2.0302845021e-003  -4.0595896860e-004   5.7078990805e-004
  3.0175000000e+008  -7.1755511117e-004   4.1965337839e-004   9.9374204877e-001  -6.9010987083e-003   1.0006265781e+000  -1.2006407391e-003  -3.8803666437e-004   5.8875125433e-004
  3.1033750000e+008  -7.3512410463e-004  -7.0830436127e-005   9.9481071670e-001  -5.5429980784e-003   1.0015777069e+000  -1.7204817163e-003  -6.8600127692e-004   3.3989361690e-004
  3.1892500000e+008  -6.9764078798e-004   2.7606884918e-004   9.9380132412e-001  -6.6253124179e-003   1.0000718331e+000  -5.6415195347e-004  -4.3850482560e-004   8.1874678607e-005
  3.2751250000e+008  -7.3323520400e-004  -9.0095187018e-006   9.9319964373e-001  -8.4737980884e-003   1.0005125441e+000  -2.5313737876e-003  -5.5651327238e-004   2.7092439585e-004
  3.3610000000e+008  -6.3020897058e-004  -7.9956807422e-005   9.9411672367e-001  -6.2810254598e-003   1.0005176504e+000  -1.5986345579e-003  -4.6909763678e-004   8.0677657158e-005
  3.4468750000e+008  -4.5065564318e-004   2.9700693117e-004   9.9399674903e-001  -6.2883586550e-003   1.0012582390e+000  -1.6274495903e-003  -2.6717256457e-004   1.0147475238e-004
  3.5327500000e+008  -3.7457056311e-004   2.5945564880e-004   9.9486840012e-001  -6.0945860758e-003   9.9926524495e-001  -2.4068748678e-003  -5.9985173906e-004   1.2844612361e-004
  3.6186250000e+008  -2.6906135457e-004   5.1945572407e-005   9.9507814769e-001  -6.5173554499e-003   1.0010511254e+000  -1.7885589380e-003  -3.9899817513e-004   3.6801238890e-004
  3.7045000000e+008  -5.1897344512e-004   5.4548917967e-004   9.9380901735e-001  -6.7635502571e-003   1.0006515786e+000  -1.9298257566e-003  -7.3457591083e-004   2.6532086625e-004
  3.7903750000e+008  -3.2039451169e-004   4.0074893200e-004   9.9285425129e-001  -5.8166128163e-003   1.0006968913e+000  -2.0900878183e-003  -3.4808834171e-004   3.9204718997e-004
  3.8762500000e+008  -3.8242760776e-004   5.1838222349e-004   9.9601364502e-001  -6.0481943834e-003   1.0000426560e+000  -1.2079126376e-003  -5.4565588556e-004   4.7843170560e-004
  3.9621250000e+008  -1.3398783824e-004   1.5595573700e-004   9.9452866984e-001  -6.6919256341e-003   1.0006495184e+000  -2.0019737768e-003  -5.7154999574e-004   3.0070190784e-004
  4.0480000000e+008   1.9148822502e-004   2.9552029091e-004   9.9535696439e-001  -6.5116547163e-003   1.0002545672e+000  -2.1870538845e-003  -7.7249956068e-005   2.6085897080e-004
  4.1338750000e+008   2.2787489787e-004   1.5409022712e-005   9.9485996412e-001  -5.2283500715e-003   1.0007937522e+000  -1.6761582145e-003  -1.0666174200e-004   5.1838195368e-004
  4.2197500000e+008  -3.8209059746e-006  -4.3373529828e-004   9.9448324702e-001  -6.3179067719e-003   1.0008022407e+000  -1.9922237366e-003   7.4993464587e-005   6.0481163054e-004
  4.3056250000e+008   2.4206725225e-004  -1.6001352341e-005   9.9363248563e-001  -6.7586281087e-003   1.0004067161e+000  -2.0102979882e-003   3.7256770857e-004   2.9893800773e-004
  4.3915000000e+008   1.4065631743e-004  -2.2109109142e-004   9.9737455535e-001  -5.7866027076e-003   1.0003164667e+000  -2.3562282278e-003   5.4298255715e-004   1.9972057073e-004
  4.4773750000e+008   4.4453382254e-005  -3.1172201437e-004   9.9555634453e-001  -7.2377887628e-003   1.0006139545e+000  -2.5325660944e-003   5.2069214621e-004   2.1716379307e-004
  4.5632500000e+008  -1.4506648767e-004  -4.4802284144e-004   9.9329599046e-001  -6.5598159338e-003   1.0005508085e+000  -2.3732349673e-003   6.6024032510e-004   2.0257501421e-004
  4.6491250000e+008  -3.4359577390e-004  -1.0823209386e-004   9.9456877618e-001  -7.8039394646e-003   1.0001283849e+000  -2.5086719445e-003   6.5380279253e-004   1.7613345339e-004
  4.7350000000e+008  -4.5480040026e-004  -2.1429860391e-004   9.9395658788e-001  -6.9436871737e-003   1.0003778431e+000  -2.0123511313e-003   6.3161642079e-004   5.5617853763e-005
  4.8208750000e+008  -1.0130917420e-004   1.1487310929e-004   9.9292574891e-001  -7.3303169340e-003   9.9988325261e-001  -2.0559984396e-003   7.3419329323e-004   3.2597106782e-004
  4.9067500000e+008  -7.5731939590e-005  -3.4239160053e-004   9.9131601261e-001  -7.3675661128e-003   1.0000371197e+000  -1.8640100588e-003   3.8823469132e-004   9.6897165014e-005
  4.9926250000e+008  -2.8651378791e-005  -3.6758536366e-004   9.9262799800e-001  -7.2828634539e-003   1.0000917310e+000  -1.9267415615e-003   6.1844023796e-004   2.8982646371e-004
  5.0785000000e+008  -4.6751561205e-004  -3.0863856494e-004   9.9193299137e-001  -6.3763555680e-003   1.0001153865e+000  -1.4213056928e-003   7.4883695143e-004   1.7269064815e-004
  5.1643750000e+008  -6.2734736547e-004  -3.8351637643e-005   9.9102393140e-001  -7.0264109987e-003   1.0004696054e+000  -1.7620750288e-003   1.0037599985e-003  -1.0626171002e-004
  5.2502500000e+008  -3.6930768606e-004   6.7210502342e-004   9.9369322757e-001  -6.1822810229e-003   1.0008428605e+000  -1.3369095084e-003   3.7362740843e-004  -5.5664183635e-004
  5.3361250000e+008   4.5399666156e-004   4.6486601280e-004   9.9396795137e-001  -7.4232250359e-003   1.0009097678e+000  -1.8986607595e-003  -5.5722724673e-005  -9.0847254840e-004
  5.4220000000e+008   6.5352997969e-004   1.0145794663e-004   9.9329293525e-001  -6.9650269295e-003   1.0008506946e+000  -2.2387629116e-003  -7.7915655664e-004  -6.3146186267e-004
  5.5078750000e+008   5.5759971189e-004  -5.2226876280e-004   9.9269558962e-001  -7.6288291626e-003   1.0008232517e+000  -2.7096833061e-003  -7.7214086534e-004  -5.5701676158e-004
  5.5937500000e+008   5.7127330813e-004  -6.4255627465e-004   9.9235112123e-001  -7.2682684901e-003   1.0007538791e+000  -2.6413635694e-003  -9.3248368477e-004   3.9475410682e-005
  5.6796250000e+008   4.6864595313e-004  -8.8808637913e-004   9.9284578440e-001  -7.4932861970e-003   9.9998759607e-001  -2.5757589091e-003  -1.1265849477e-003   4.6442353544e-004
  5.7655000000e+008  -2.4565788824e-004  -9.5313538906e-004   9.9256839579e-001  -9.4550180869e-003   1.0006574769e+000  -2.1709317787e-003  -9.7371051075e-004   5.7772099057e-004
  5.8513750000e+008  -4.4714789640e-004  -8.4603256649e-004   9.9246036946e-001  -8.0962374743e-003   9.9992588631e-001  -2.7596361918e-003  -8.3488217215e-004   9.5903572253e-004
  5.9372500000e+008  -5.3589839137e-004  -8.3070920793e-004   9.9071916427e-001  -7.5189322613e-003   1.0005752401e+000  -3.3149191591e-003  -7.5020177657e-004   9.6092123377e-004
  6.0231250000e+008  -1.0166688152e-003  -5.2375885537e-004   9.9091892625e-001  -7.0922233998e-003   1.0006103436e+000  -3.0855300458e-003  -4.9262602130e-004   9.0451479224e-004
  6.1090000000e+008  -9.4697605262e-004  -4.4777100722e-004   9.9094645263e-001  -8.8485499938e-003   9.9983897111e-001  -2.2777359283e-003  -7.2119367625e-004   1.0332304434e-003
  6.1948750000e+008  -9.3172482346e-004   7.8512888611e-006   9.9027400541e-001  -7.5238208657e-003   9.9991081054e-001  -2.1877647496e-003  -3.4334441147e-004   8.4940341232e-004
  6.2807500000e+008  -7.1423364838e-004  -9.2271041967e-005   9.9162093624e-001  -9.4793048168e-003   1.0007345924e+000  -2.4020274933e-003  -6.3505518666e-005   4.9416961720e-004
  6.3666250000e+008  -4.4892168764e-004   4.4773790846e-004   9.9141476172e-001  -8.2128744129e-003   1.0002801975e+000  -2.7655342956e-003   3.4165832024e-004   4.2809848447e-004
  6.4525000000e+008  -8.7378240346e-005   3.0238193016e-004   9.9088527510e-001  -7.8423021046e-003   1.0007955649e+000  -2.7676735782e-003   3.0151952248e-004   6.0263325497e-007
  6.5383750000e+008   3.7487850538e-005   2.8322333948e-004   9.9295139541e-001  -7.2273291917e-003   9.9962915308e-001  -2.3336133047e-003   3.2008125796e-004  -1.5425238818e-004
  6.6242500000e+008   3.7337562980e-004   7.2261091453e-005   9.8934720038e-001  -7.5882488066e-003   1.0005153617e+000  -2.6541068045e-003   2.5171959461e-004  -2.7736972333e-004
  6.7101250000e+008   3.7549598965e-004  -5.5009465966e-005   9.9159014323e-001  -6.7014875311e-003   9.9992070356e-001  -1.8678953519e-003   2.0632980110e-004  -7.4539582910e-004
  6.7960000000e+008   6.0307957224e-004  -4.6600405093e-004   9.9078862604e-001  -8.0205877222e-003   1.0005530020e+000  -3.2326761125e-003   2.4935246517e-004  -1.0694778446e-003
  6.8818750000e+008   1.2005841396e-004  -8.0429557558e-004   9.9161623010e-001  -7.7481785856e-003   1.0000945273e+000  -2.8154749903e-003   1.1900398610e-004  -1.2237831991e-003
  6.9677500000e+008   2.2122685510e-004  -9.1990347353e-004   9.9131950483e-001  -7.7106947170e-003   1.0000758061e+000  -2.6641158403e-003  -1.0878011186e-004  -1.2537411389e-003
  7.0536250000e+008  -2.3042612089e-004  -8.9056906899e-004   9.9097256741e-001  -9.1310041188e-003   9.9997622057e-001  -3.2357210421e-003  -2.9011301598e-004  -1.3940657690e-003
  7.1395000000e+008  -5.6649868156e-004  -1.0551812524e-003   9.9089976995e-001  -8.4734243531e-003   1.0001527884e+000  -2.8718030082e-003  -4.7172115314e-004  -1.4350715214e-003
  7.2253750000e+008  -1.0206764276e-003  -8.5599771800e-004   9.8984144377e-001  -9.4829420693e-003   1.0001779219e+000  -2.9781297239e-003  -7.7379484659e-004  -1.3630488468e-003
  7.3112500000e+008  -1.1013354277e-003  -5.5825078294e-004   9.9110515057e-001  -8.0732315061e-003   1.0002449961e+000  -3.0408156102e-003  -8.5989741275e-004  -1.2341474221e-003
  7.3971250000e+008  -1.0548289796e-003   2.2608353573e-006   9.9171711769e-001  -8.9309228140e-003   9.9873634637e-001  -3.0138980036e-003  -1.2227439926e-003  -9.3862353468e-004
  7.4830000000e+008  -9.2141788346e-004   4.2919509422e-004   9.9109713146e-001  -7.6348900480e-003   9.9937146604e-001  -2.8888176961e-003  -9.8323713301e-004  -8.1524832189e-004
  7.5688750000e+008  -7.2987222951e-004   6.3543011808e-004   9.9055748637e-001  -8.6626116175e-003   9.9940941209e-001  -2.9686052506e-003  -1.1588459535e-003  -2.6302504039e-004
  7.6547500000e+008  -2.4047476014e-004   7.6039323762e-004   9.8933317734e-001  -1.1046495715e-002   9.9956621121e-001  -2.3868792785e-003  -1.2749673699e-003  -1.0935938903e-004
  7.7406250000e+008   9.3267244391e-005   7.8297171084e-004   9.8639254711e-001  -9.6167762820e-003   1.0003889812e+000  -3.1118437379e-003  -9.2986627188e-004   1.4102535931e-004
  7.8265000000e+008   4.1045029779e-004   4.9388394107e-004   9.8456862984e-001  -9.6661433971e-003   9.9981414006e-001  -2.7646941724e-003  -7.8328770542e-004   6.0470915840e-004
  7.9123750000e+008   7.0983152949e-004   2.9357270630e-004   9.8622396080e-001  -9.6380909936e-003   9.9995535949e-001  -2.7669584606e-003  -7.3632064138e-004   3.7356935946e-004
  7.9982500000e+008   6.1710080647e-004   1.3730983067e-004   9.8876637547e-001  -8.3103088362e-003   1.0004086791e+000  -1.6317516021e-003  -5.1065900391e-004   7.2474773692e-004
  8.0841250000e+008   1.0161081442e-003  -1.2430763669e-005   9.8626984347e-001  -9.9408039531e-003   1.0003673748e+000  -2.9042718626e-003  -4.1391984634e-004   8.0018557875e-004
  8.1700000000e+008   1.0245633320e-003  -1.9869340621e-004   9.8885362885e-001  -8.5415826826e-003   1.0004028326e+000  -2.6618935474e-003  -5.2508882002e-004   7.9325528611e-004
  8.2558750000e+008   1.0691592515e-003  -4.4130695084e-004   9.8968245969e-001  -8.1607276326e-003   1.0010236657e+000  -3.0269875986e-003  -5.7323477798e-004   1.1032370883e-003
  8.3417500000e+008   1.0258988128e-003  -9.2443376560e-004   9.8873950311e-001  -8.4452046474e-003   1.0009916674e+000  -3.0186002656e-003  -4.1290970857e-004   1.1661754635e-003
  8.4276250000e+008   6.4666114711e-004  -1.2603203406e-003   9.8759239156e-001  -8.2718207235e-003   1.0003329093e+000  -3.2611562245e-003  -1.5951302423e-004   1.4605823456e-003
  8.5135000000e+008   1.5631676621e-004  -1.3093255661e-003   9.8854623413e-001  -8.1035885761e-003   1.0005888585e+000  -3.2257375787e-003   1.2597216060e-004   1.4881309461e-003
  8.5993750000e+008  -1.0693876981e-004  -1.3581607578e-003   9.8808066373e-001  -9.5857019831e-003   1.0002363378e+000  -3.8520318078e-003   4.2648265861e-004   1.2097119400e-003
  8.6852500000e+008  -5.3334302556e-004  -1.0746945023e-003   9.8685599310e-001  -9.0557930143e-003   9.9937153110e-001  -2.8282199690e-003   7.2785082449e-004   9.4962816269e-004
  8.7711250000e+008  -5.5224163893e-004  -6.9165275029e-004   9.9006552896e-001  -9.1294783659e-003   1.0004040844e+000  -3.7488442344e-003   7.8355129308e-004   4.9810232534e-004
  8.8570000000e+008  -5.6364137419e-004  -5.2634064956e-004   9.9080165472e-001  -7.7907957035e-003   9.9983649364e-001  -4.0418841271e-003   7.4571285033e-004   2.6890176559e-004
  8.9428750000e+008  -3.7689109418e-004  -2.4611431924e-004   9.9096879731e-001  -8.7329510690e-003   1.0003279067e+000  -3.4516492171e-003   5.2913130354e-004  -1.1918986236e-004
  9.0287500000e+008  -4.2189346923e-006  -1.6950092233e-004   9.9237270663e-001  -9.3027703335e-003   9.9956512205e-001  -3.7868463065e-003   1.8454687328e-004  -4.7508974266e-004
  9.1146250000e+008   3.4193880611e-004  -2.7980777730e-005   9.9042919001e-001  -1.0164030116e-002   9.9912376881e-001  -4.8176842915e-003  -2.4683729130e-004  -5.8248587166e-004
  9.2005000000e+008   1.8794302926e-004  -1.4537237058e-004   9.8939270681e-001  -8.2554658423e-003   9.9829369935e-001  -2.1451047692e-003  -5.5135917111e-004  -6.8960845856e-004
  9.2863750000e+008   4.0678950749e-004  -4.9868342854e-004   9.9113622269e-001  -8.3883765285e-003   9.9895507295e-001  -3.8719163299e-003  -7.1455915808e-004  -7.6268257391e-004
  9.3722500000e+008   4.1934866318e-004  -6.6801646039e-004   9.8982335478e-001  -8.4232494232e-003   9.9938457998e-001  -3.3810997443e-003  -1.0316375826e-003  -8.1458231896e-004
  9.4581250000e+008   3.8875767264e-004  -1.0012764265e-003   9.8878884084e-001  -8.4003515595e-003   9.9945201233e-001  -2.9405495055e-003  -1.3113166047e-003  -6.2391005752e-004
  9.5440000000e+008   1.1625531305e-005  -1.3493079163e-003   9.8873735224e-001  -9.3306028359e-003   9.9992036337e-001  -2.3949825139e-003  -1.4489955583e-003  -4.7845488873e-004
  9.6298750000e+008  -2.1953889524e-004  -1.3033595700e-003   9.8986455431e-001  -7.1156669482e-003   9.9947285766e-001  -3.5999625718e-003  -1.6053151417e-003  -2.6110625456e-004
  9.7157500000e+008  -4.4996054965e-004  -1.3851036669e-003   9.9052725088e-001  -1.0156952148e-002   1.0003976616e+000  -3.6407204174e-003  -1.6921059375e-003  -3.0604724841e-004
  9.8016250000e+008  -8.6501308978e-004  -1.1097895441e-003   9.8845851877e-001  -9.0331942466e-003   1.0005310789e+000  -4.1925786341e-003  -1.5212579303e-003  -5.8009378442e-005
  9.8875000000e+008  -1.1229144356e-003  -6.6689292675e-004   9.8803577712e-001  -8.8748531344e-003   9.9925881552e-001  -3.0803343162e-003  -1.4724597403e-003   3.3172563070e-004
  9.9733750000e+008  -1.1706089814e-003  -4.0042606804e-004   9.8631444528e-001  -9.6110393510e-003   9.9900930038e-001  -2.8779399274e-003  -1.2168823898e-003   1.7310473216e-004
  1.0059250000e+009  -1.0436903686e-003  -2.4528839851e-005   9.8743379050e-001  -9.6013842086e-003   1.0001198634e+000  -3.7499058775e-003  -9.1986502460e-004   3.4095134055e-004
  1.0145125000e+009  -8.7979946314e-004   4.1947290883e-004   9.8926157745e-001  -1.1864781267e-002   9.9987604377e-001  -3.0187150089e-003  -5.9353666350e-004   3.7058503079e-004
  1.0231000000e+009  -6.4451731067e-004   6.2338555077e-004   9.8739844676e-001  -8.8026064256e-003   9.9932517169e-001  -4.0948606764e-003  -3.0442951058e-004   3.9998362407e-004
  1.0316875000e+009  -2.9790441411e-004   9.1994209574e-004   9.8844072110e-001  -9.9449141331e-003   9.9942593609e-001  -4.6492662188e-003  -5.5105611320e-005   3.7467686317e-004
  1.0402750000e+009   1.6100595042e-004   9.0843445583e-004   9.8928733298e-001  -8.5597712934e-003   1.0003025452e+000  -2.8739079312e-003   3.8683737378e-004   1.8572731909e-004
  1.0488625000e+009   4.3611364362e-004   7.2084984118e-004   9.8970721876e-001  -8.2695345514e-003   9.9952911620e-001  -3.8352023062e-003   5.9453574328e-004  -6.9886755779e-005
  1.0574500000e+009   7.8682930347e-004   3.3922764449e-004   9.8837972428e-001  -8.6261551025e-003   9.9983768995e-001  -3.5001266899e-003   7.5439235284e-004  -3.2438304319e-004
