# Hz S RI R 50.000000
! Metas.Vna.Tools, 2.8.8664.20301
! Metas.Vna.Data, 2.8.8664.20285
! Created: UTC 2024.02.11 10:08:26
! FREQ                re:S1,1             im:S1,1             re:S2,1             im:S2,1             re:S1,2             im:S1,2             re:S2,2             im:S2,2          
  1.3000000000e+008  -1.7087890218e-005  -9.0327090778e-004   9.9414737638e-001  -6.9525278548e-003   1.0005787574e+000  -4.8743179088e-004   1.2125501623e-003   5.9368621177e-004
  1.3858750000e+008  -9.1067013151e-004  -1.4343080481e-003   9.9316540878e-001  -6.0264592830e-003   1.0008605372e+000  -1.5489996428e-005   1.9058333461e-003   9.0540695962e-005
  1.4717500000e+008  -1.8832717516e-003  -1.3672532269e-003   9.9211937476e-001  -8.1948264850e-003   1.0005809525e+000   1.8484729781e-004   8.6696177240e-004  -3.0935891981e-004
  1.5576250000e+008  -1.1118700680e-003   2.2282055068e-004   9.9266793597e-001  -7.4892120364e-003   1.0003477181e+000   4.4293543770e-004   9.0814233854e-004  -6.8721084599e-004
  1.6435000000e+008  -9.5142241481e-004   1.0202311350e-003   9.9220672188e-001  -5.8946127735e-003   1.0002355790e+000  -8.0233118841e-005   1.1373796662e-003  -2.7262068273e-004
  1.7293750000e+008  -1.0976447993e-003   8.3669694713e-004   9.9136112578e-001  -6.0010070466e-003   1.0004045332e+000  -6.7112402762e-004   7.2524954922e-004  -6.9459603125e-004
  1.8152500000e+008  -4.9918019983e-004   4.7626652367e-004   9.9183111798e-001  -6.9685731713e-003   1.0001071408e+000  -8.8441698277e-004   4.2219749363e-004  -6.9966688604e-004
  1.9011250000e+008  -3.6237967409e-004   4.2235116393e-004   9.9350174191e-001  -8.3583863295e-003   1.0006859432e+000  -8.4517932967e-004   6.7351438887e-004  -8.8817513675e-004
  1.9870000000e+008   1.7741331839e-004   6.5412302362e-004   9.9068743658e-001  -6.5063593454e-003   1.0005661925e+000  -7.7148150431e-004   4.4690545777e-004  -6.0646886970e-005
  2.0728750000e+008  -8.6820952724e-005   8.4934840994e-006   9.9105928466e-001  -6.9792620167e-003   1.0008784146e+000  -7.9254819076e-004   2.9421586968e-004  -1.3515099838e-004
  2.1587500000e+008   2.4820939130e-004  -5.7969582755e-004   9.9156601962e-001  -7.2390912037e-003   1.0000420669e+000  -2.3801417132e-004  -1.1447307618e-004   2.6371935726e-004
  2.2446250000e+008   5.0152025312e-004  -6.4675093145e-004   9.9288073718e-001  -6.1890373851e-003   1.0002394834e+000  -7.3022392631e-004  -3.6381187804e-004   2.6177393372e-004
  2.3305000000e+008   2.3109764440e-004   8.0373232878e-005   9.9323344152e-001  -7.5161388937e-003   1.0003763169e+000  -7.6028873162e-004  -5.0453712480e-004  -1.2650554000e-004
  2.4163750000e+008  -3.8433269249e-004  -5.4180895730e-004   9.9169796134e-001  -8.4853654919e-003   1.0003404475e+000  -1.7001346670e-003  -5.4517235474e-004  -2.1703667370e-004
  2.5022500000e+008  -3.2391950820e-004  -9.8094122041e-004   9.8886185392e-001  -8.5338714351e-003   9.9998936744e-001  -5.5215917510e-004  -6.8419852636e-004   6.6495642244e-004
  2.5881250000e+008  -4.2760580359e-004  -4.4789611057e-004   9.8735745701e-001  -7.0757989846e-003   1.0004358168e+000  -2.0044170129e-003  -3.7940064315e-004   6.0424512461e-004
  2.6740000000e+008  -9.0690678020e-004  -6.3866168455e-004   9.8730234476e-001  -8.8551350143e-003   1.0007674350e+000  -1.9806602727e-003  -5.2875648795e-004   2.6232947843e-004
  2.7598750000e+008  -1.4304592695e-004  -2.3081299404e-004   9.8953788791e-001  -8.8038745122e-003   1.0006895522e+000  -1.0662890055e-003  -2.3697005293e-004   2.0334265298e-004
  2.8457500000e+008  -1.0047429338e-003  -2.4404722400e-004   9.9010445473e-001  -8.9216059668e-003   1.0011670072e+000  -4.8669401169e-004  -3.5753526913e-004   6.0813099557e-004
  2.9316250000e+008  -7.7930331022e-004  -3.2326644426e-004   9.9112598264e-001  -7.3532724753e-003   1.0003552710e+000  -1.0975731688e-003  -2.8688473369e-004   2.5310423896e-004
  3.0175000000e+008  -7.0605132052e-004   8.2488236938e-005   9.9387314003e-001  -7.4266664380e-003   1.0004415973e+000  -4.8657695358e-004  -7.1034119251e-004   4.3059581700e-004
  3.1033750000e+008  -9.9158644525e-004   9.0340716784e-005   9.9462880100e-001  -6.0952495313e-003   1.0014622608e+000  -1.2414392609e-003  -1.1964774749e-003   4.7302033123e-004
  3.1892500000e+008  -8.2025983538e-004   2.2135113093e-004   9.9191835200e-001  -7.2446746334e-003   1.0006930451e+000  -3.9800372698e-004  -1.0746581608e-003   1.1353543520e-004
  3.2751250000e+008  -8.1490111265e-004  -6.1710299468e-006   9.9277336534e-001  -8.8478343279e-003   1.0005403536e+000  -1.9696788105e-003  -8.2244068952e-004   2.5704139344e-005
  3.3610000000e+008  -8.4815542921e-004   7.9548182999e-005   9.9367370441e-001  -6.0411442631e-003   1.0015913244e+000  -1.9620680027e-003  -7.8077632940e-004   1.6230135122e-004
  3.4468750000e+008  -6.9327834485e-004   1.8874219706e-004   9.9385105636e-001  -6.2655168295e-003   1.0008656234e+000  -5.8613514936e-004  -5.8291836451e-004   5.6134021938e-004
  3.5327500000e+008  -6.2962140637e-004   2.5451851643e-004   9.9468341627e-001  -8.3176647208e-003   9.9968284241e-001  -2.1343194495e-003  -7.6853454035e-004   2.7044570391e-004
  3.6186250000e+008  -2.2199744474e-004   3.1861092845e-004   9.9473196822e-001  -7.1947934254e-003   1.0008778609e+000  -9.5373070532e-004  -6.2317543459e-004   6.3305742800e-004
  3.7045000000e+008  -5.4031843141e-004   5.1007777593e-004   9.9292634324e-001  -6.5294432501e-003   1.0012269722e+000  -2.3090410461e-003  -7.7594344965e-004   4.8795853860e-004
  3.7903750000e+008  -1.9413249494e-004   4.1533317601e-004   9.9367329918e-001  -7.5639470528e-003   1.0004806602e+000  -1.0717106831e-003  -4.9921104751e-004   4.3393381909e-004
  3.8762500000e+008  -4.6588384847e-004   6.1994751775e-004   9.9724869475e-001  -5.7440624004e-003   9.9994538173e-001  -1.3819033761e-003  -4.3087901529e-004   8.8450281854e-004
  3.9621250000e+008  -1.6472903764e-005   2.8563123896e-004   9.9516333731e-001  -7.1666978052e-003   1.0002396656e+000  -1.4660442471e-003  -2.7977603118e-004   5.4651227039e-004
  4.0480000000e+008   2.1935918421e-004   3.6938588793e-004   9.9507578978e-001  -7.7060129123e-003   1.0006273461e+000  -1.4537594564e-003   2.1527770294e-004   6.2490255287e-004
  4.1338750000e+008   3.6169077465e-004  -1.0154438429e-004   9.9453313292e-001  -6.2451576876e-003   1.0006432375e+000  -1.6712436798e-003   2.3505740553e-004   4.6313612296e-004
  4.2197500000e+008   4.5228878197e-006  -2.4459865073e-004   9.9543509048e-001  -6.8706636015e-003   1.0007055452e+000  -1.3581234893e-003   3.0724069461e-004   7.6683357879e-004
  4.3056250000e+008   2.4448788311e-004  -1.1881839806e-004   9.9514518610e-001  -6.5426834192e-003   1.0004382314e+000  -1.6898977970e-003   6.5807687926e-004   1.4665529069e-004
  4.3915000000e+008   5.9726772101e-005  -2.0493401476e-004   9.9734244977e-001  -5.8801823876e-003   1.0003221649e+000  -2.0461956733e-003   7.2989613114e-004   1.1210570019e-004
  4.4773750000e+008   9.0825928892e-005  -4.5248748892e-004   9.9610731161e-001  -7.3223286514e-003   1.0009402045e+000  -1.8571995425e-003   7.8419825317e-004   1.1564994902e-005
  4.5632500000e+008  -2.1444633796e-004  -4.3530250738e-004   9.9414347064e-001  -6.3096654241e-003   1.0002823011e+000  -1.7452410142e-003   7.7150477424e-004  -1.7305923873e-004
  4.6491250000e+008  -3.4263698231e-004  -5.2573023374e-004   9.9448680505e-001  -7.8059928813e-003   1.0001983523e+000  -1.9458601079e-003   4.7584698408e-004  -1.6376298166e-004
  4.7350000000e+008  -3.9997638695e-004  -2.2523880141e-004   9.9376570365e-001  -7.0874824815e-003   1.0001925088e+000  -1.5807311527e-003   4.2537516052e-004  -3.6086380741e-005
  4.8208750000e+008  -4.1183393490e-004  -9.1631874904e-005   9.9287975349e-001  -7.4904681676e-003   9.9972078157e-001  -1.4625544024e-003   5.5696641133e-004  -7.4621092392e-005
  4.9067500000e+008   1.2137398253e-004  -3.4571178679e-004   9.9166794258e-001  -6.9282988664e-003   1.0000718591e+000  -1.6115237914e-003   2.3961590295e-004  -1.5853407773e-004
  4.9926250000e+008  -1.3235007452e-004  -6.0151131359e-004   9.9262381194e-001  -6.9527845072e-003   9.9995148419e-001  -1.4495002664e-003   3.0338148644e-004  -3.1929037557e-005
  5.0785000000e+008  -5.1016850372e-004  -7.7658997555e-005   9.9162771888e-001  -6.9647688748e-003   9.9979566570e-001  -1.4842479715e-003   3.2793116410e-004   2.1923993817e-004
  5.1643750000e+008  -6.2013027970e-004   1.1244756525e-004   9.9069087802e-001  -6.4952349293e-003   1.0002027824e+000  -1.4554032395e-003   4.8497464082e-004   4.5365988142e-006
  5.2502500000e+008  -3.9254798371e-004   4.7371312520e-004   9.9249893812e-001  -7.2530341095e-003   1.0008169562e+000  -8.2323226591e-004   9.1248473634e-005  -2.6723154981e-004
  5.3361250000e+008   6.1500731334e-004   4.7901165907e-004   9.9400066877e-001  -8.0350807048e-003   1.0007196747e+000  -1.7779964961e-003  -1.4071798581e-004  -5.5619850555e-004
  5.4220000000e+008   7.4339611521e-004  -2.0145403158e-005   9.9409038782e-001  -7.9684797082e-003   1.0011435699e+000  -1.9599074120e-003  -1.1276706779e-003  -1.3888812212e-004
  5.5078750000e+008   7.5812165669e-004  -5.7080665902e-004   9.9312782032e-001  -9.0754078026e-003   1.0004187922e+000  -2.0681160895e-003  -1.0823961014e-003  -8.4199719502e-005
  5.5937500000e+008   3.9544657132e-004  -6.5317046992e-004   9.9248666157e-001  -7.9409958590e-003   1.0003853215e+000  -1.6863226637e-003  -9.9896515712e-004   4.2509141293e-004
  5.6796250000e+008   2.9385449647e-004  -1.0176736567e-003   9.9455631065e-001  -6.5100230988e-003   1.0006292903e+000  -1.4902898765e-003  -1.1422892167e-003   7.8618866606e-004
  5.7655000000e+008  -2.8788802752e-004  -1.0334426327e-003   9.9287132104e-001  -1.0122420643e-002   1.0009494764e+000  -2.3559014502e-003  -7.6143736853e-004   1.1114909685e-003
  5.8513750000e+008  -5.0933046088e-004  -9.3278026702e-004   9.9313960938e-001  -8.1704011047e-003   9.9978201615e-001  -1.9754780118e-003  -6.2367651065e-004   1.1227897898e-003
  5.9372500000e+008  -6.2585632723e-004  -7.6262478727e-004   9.9310600701e-001  -7.7023507407e-003   1.0004817033e+000  -2.4327664010e-003  -3.0389324973e-004   1.1889306098e-003
  6.0231250000e+008  -1.0308885024e-003  -6.6931700941e-004   9.9383677587e-001  -6.3345710453e-003   1.0004621055e+000  -2.1274106057e-003  -1.1889299197e-004   1.1017405894e-003
  6.1090000000e+008  -9.3783817550e-004  -2.9850714536e-004   9.9158877457e-001  -8.8170431034e-003   1.0000410543e+000  -2.0924677151e-003  -1.2195901173e-004   9.1267081810e-004
  6.1948750000e+008  -9.6397820714e-004   6.4860003097e-005   9.9263897458e-001  -7.0297211210e-003   1.0000933328e+000  -1.9113597931e-003   6.9494601959e-005   6.9542135110e-004
  6.2807500000e+008  -7.9267420796e-004   4.8821716932e-006   9.9459716169e-001  -8.6610820358e-003   1.0005642435e+000  -2.4271253230e-003   2.3060361046e-004   3.8548132540e-004
  6.3666250000e+008  -3.0202550301e-004   5.8622228373e-004   9.9393513890e-001  -7.6994400343e-003   1.0000710155e+000  -2.2327949269e-003   4.2896449035e-004  -9.6667671654e-006
  6.4525000000e+008   4.7510128417e-006   4.2374409924e-004   9.9430039704e-001  -7.6517590216e-003   1.0007814064e+000  -2.1381581480e-003   5.0040675012e-004  -2.2259841111e-004
  6.5383750000e+008   2.8718779827e-004   2.1241835462e-004   9.9424691843e-001  -7.9789607924e-003   9.9977401839e-001  -2.1378598281e-003   6.0952761804e-004  -4.6671541658e-004
  6.6242500000e+008   4.5106952586e-004   3.1150959896e-005   9.9206185023e-001  -8.6809235508e-003   1.0005256732e+000  -2.6864872699e-003   4.8453479838e-004  -6.7622103323e-004
  6.7101250000e+008   4.5961919072e-004  -4.2079128692e-006   9.9423236813e-001  -6.6632167882e-003   9.9981204475e-001  -1.6787571738e-003   2.3023629420e-004  -1.0789141307e-003
  6.7960000000e+008   6.8891511220e-004  -5.6942127243e-004   9.9263363678e-001  -7.5223000430e-003   1.0003444989e+000  -2.5127900107e-003  -9.1702266952e-005  -1.3592499178e-003
  6.8818750000e+008   2.8580695769e-004  -8.8600432833e-004   9.9312450236e-001  -7.6577727169e-003   1.0006732781e+000  -2.5953667291e-003  -1.6186650936e-004  -1.3226164248e-003
  6.9677500000e+008   9.2402201584e-005  -1.1106503518e-003   9.9346132509e-001  -7.4356714960e-003   1.0000321323e+000  -2.2437130796e-003  -5.4623631499e-004  -1.3531087998e-003
  7.0536250000e+008  -2.7804293666e-004  -1.1877381715e-003   9.9277162692e-001  -8.5739411220e-003   1.0000861186e+000  -2.2460516113e-003  -6.5708788128e-004  -1.5011210816e-003
  7.1395000000e+008  -6.3127648799e-004  -1.0215588762e-003   9.9308135623e-001  -7.7193887076e-003   1.0002966995e+000  -2.3409697707e-003  -8.6190604013e-004  -1.2595714065e-003
  7.2253750000e+008  -1.0460845783e-003  -8.6459162463e-004   9.9035194882e-001  -9.1500594907e-003   1.0000776057e+000  -2.1396677540e-003  -1.0443500547e-003  -1.1431994861e-003
  7.3112500000e+008  -1.1198500841e-003  -4.7886725170e-004   9.9109112933e-001  -8.4672394888e-003   9.9964176885e-001  -2.4158938406e-003  -1.2409935380e-003  -8.5994029383e-004
  7.3971250000e+008  -1.0998752279e-003   5.5289082389e-005   9.9213549598e-001  -8.9914181256e-003   9.9959682320e-001  -3.2177426883e-003  -1.2934909939e-003  -5.2872941822e-004
  7.4830000000e+008  -1.0264618286e-003   4.5270062721e-004   9.9189509533e-001  -7.0901420632e-003   9.9930249535e-001  -2.2232955404e-003  -1.1670252367e-003  -3.8444581126e-004
  7.5688750000e+008  -7.2419201246e-004   7.0636645334e-004   9.9246157748e-001  -8.3584972012e-003   9.9939829829e-001  -2.5787701620e-003  -1.3275364020e-003   1.1964047468e-004
  7.6547500000e+008  -2.7050543105e-004   9.1202121317e-004   9.9372764472e-001  -8.3202618593e-003   9.9952828470e-001  -2.8636809927e-003  -1.1092076169e-003   3.7394881861e-004
  7.7406250000e+008   3.3771361983e-005   8.2765963578e-004   9.9153855913e-001  -8.6630420747e-003   9.9958967180e-001  -2.5888593316e-003  -5.3890467622e-004   6.8434298925e-004
  7.8265000000e+008   3.5864244874e-004   5.8332059132e-004   9.9268414341e-001  -7.3805366787e-003   9.9934210199e-001  -2.8057760293e-003  -4.7255989718e-004   9.2616151373e-004
  7.9123750000e+008   6.4844190720e-004   4.3531573544e-004   9.9260122568e-001  -7.1243157842e-003   9.9969417597e-001  -2.2575979802e-003  -3.5940172641e-004   7.1694172185e-004
  7.9982500000e+008   7.3832914694e-004   1.2811033912e-004   9.9245613810e-001  -7.7104893035e-003   1.0003121320e+000  -1.5602941594e-003  -6.4823058830e-005   9.5603190892e-004
  8.0841250000e+008   9.5666223959e-004   1.3458504367e-004   9.9242721598e-001  -7.6677985521e-003   1.0002657878e+000  -2.3747647110e-003  -1.0841474109e-004   7.8204261013e-004
  8.1700000000e+008   1.1243600362e-003  -3.3045029311e-004   9.9362696757e-001  -6.7819571853e-003   1.0001819355e+000  -2.1395246727e-003  -1.0143532088e-004   7.3306320137e-004
  8.2558750000e+008   9.9501709053e-004  -5.2423262313e-004   9.9372049734e-001  -7.0842709860e-003   1.0006324099e+000  -2.6201987468e-003  -2.6053585718e-004   8.7358983256e-004
  8.3417500000e+008   9.8668984435e-004  -1.0520891190e-003   9.9346191886e-001  -7.4444763125e-003   1.0007360040e+000  -2.8962775819e-003   7.7889501335e-006   1.0329533784e-003
  8.4276250000e+008   6.0327725620e-004  -1.1798639461e-003   9.9131793436e-001  -8.2042387978e-003   9.9919061782e-001  -3.1546145703e-003   2.6225633920e-004   7.8027134609e-004
  8.5135000000e+008   1.1504760745e-004  -1.3681086543e-003   9.9264506463e-001  -7.5772392282e-003   1.0015020245e+000  -2.4056022265e-003   3.3110212375e-004   9.9585345546e-004
  8.5993750000e+008  -1.3683831792e-004  -1.1879034548e-003   9.9204935344e-001  -8.0116644001e-003   9.9974361317e-001  -3.4677993994e-003   2.1129469471e-004   7.4779048066e-004
  8.6852500000e+008  -5.2078243393e-004  -9.4891906352e-004   9.8995377687e-001  -8.7630366050e-003   1.0003960031e+000  -2.3370705944e-003   4.8490703298e-004   4.7336618829e-004
  8.7711250000e+008  -5.6104774961e-004  -6.2570123092e-004   9.8996798418e-001  -8.4900568414e-003   1.0001845764e+000  -3.3588675031e-003   4.1303592682e-004   1.2537745771e-004
  8.8570000000e+008  -4.3081801264e-004  -4.0802821878e-004   9.9398835962e-001  -7.7580794563e-003   9.9943880624e-001  -3.5963548847e-003   2.0576222442e-004  -6.3777368022e-005
  8.9428750000e+008  -2.1616114331e-004  -2.4415395128e-004   9.9290440802e-001  -7.1032250578e-003   1.0002337707e+000  -3.7164701028e-003  -1.2802584294e-004  -3.2627970499e-004
  9.0287500000e+008  -2.3648632894e-005  -1.7030599301e-004   9.9413312953e-001  -8.2407375264e-003   9.9900278220e-001  -3.2569227194e-003  -2.5814453299e-004  -3.8525625375e-004
  9.1146250000e+008   2.5814362683e-004  -1.4063784463e-004   9.9275737818e-001  -9.1617143046e-003   9.9930948835e-001  -3.5981517486e-003  -7.2758124112e-004  -4.0261729930e-004
  9.2005000000e+008   2.6648923938e-004  -3.8188894524e-004   9.9332597117e-001  -8.1018097184e-003   9.9925897811e-001  -2.0711236330e-003  -9.8709947215e-004  -4.8813268683e-004
  9.2863750000e+008   6.0057547068e-004  -6.0967029920e-004   9.9420043367e-001  -7.5668095759e-003   9.9964594499e-001  -3.4284724136e-003  -1.0103791229e-003  -3.9085250839e-004
  9.3722500000e+008   4.6202556863e-004  -9.0741786854e-004   9.9476642856e-001  -7.8485958245e-003   9.9888385829e-001  -3.1294865608e-003  -1.4037268709e-003  -4.7895662833e-004
  9.4581250000e+008   2.8754770294e-004  -1.1953892295e-003   9.9276258760e-001  -7.9629364881e-003   9.9944973556e-001  -2.4517517941e-003  -1.5530446709e-003  -1.9504655882e-004
  9.5440000000e+008  -8.8513721217e-005  -1.2403126294e-003   9.9113223744e-001  -9.0654258103e-003   1.0005307037e+000  -2.9424830933e-003  -1.4339668473e-003  -5.5696115920e-006
  9.6298750000e+008  -2.9075751553e-004  -1.3493948299e-003   9.9147045622e-001  -7.4490161800e-003   1.0006238613e+000  -3.4553272547e-003  -1.3361887587e-003   2.6218709745e-004
  9.7157500000e+008  -6.5360405509e-004  -1.2555382086e-003   9.9309930283e-001  -8.4463801306e-003   1.0008280685e+000  -3.2618803740e-003  -1.3666932415e-003   2.6473340216e-004
  9.8016250000e+008  -8.0893951166e-004  -1.0086381804e-003   9.9291549659e-001  -8.8784639850e-003   9.9923320908e-001  -3.6768993010e-003  -1.1643310509e-003   3.2958592972e-004
  9.8875000000e+008  -1.1883887936e-003  -7.1484650672e-004   9.9123715627e-001  -7.0829600567e-003   9.9924939658e-001  -2.6989588797e-003  -9.9549614419e-004   4.1991068249e-004
  9.9733750000e+008  -1.1195072611e-003  -2.7031852972e-004   9.9062241806e-001  -9.2858413106e-003   9.9988111042e-001  -1.6551114521e-003  -7.4065276540e-004   2.4472819015e-004
  1.0059250000e+009  -9.3348889968e-004   8.4411272547e-005   9.9133502542e-001  -8.0721060693e-003   9.9996746464e-001  -2.4006948716e-003  -3.3763574994e-004   8.0930218918e-005
  1.0145125000e+009  -8.7538049763e-004   4.2059781354e-004   9.9254045536e-001  -1.1778117869e-002   9.9990463253e-001  -3.0837802004e-003  -1.1548798451e-004   3.9824706372e-005
  1.0231000000e+009  -5.7893471258e-004   5.7671125994e-004   9.9133594545e-001  -8.4545734313e-003   9.9988711435e-001  -3.5528892313e-003   3.9178091666e-005  -6.7494483723e-005
  1.0316875000e+009  -2.2457548274e-004   7.3230891242e-004   9.9222393942e-001  -8.7282113369e-003   9.9966048131e-001  -3.9587561468e-003   2.2673622258e-004  -1.6548612792e-004
  1.0402750000e+009   2.8951923772e-004   6.4135509668e-004   9.9145881357e-001  -8.8492864239e-003   9.9972203720e-001  -2.9922993550e-003   4.5775779273e-004  -4.7725641288e-004
  1.0488625000e+009   5.1846301291e-004   4.9758183728e-004   9.9238154056e-001  -7.9089487915e-003   9.9941549803e-001  -3.2931647846e-003   6.1984357947e-004  -7.0720751243e-004
  1.0574500000e+009   7.2877536031e-004   2.3689578064e-004   9.9091781403e-001  -9.0310947121e-003   9.9944506143e-001  -2.8799633200e-003   5.0946171828e-004  -9.8291764084e-004
