# Hz S RI R 50.000000
! Metas.Vna.Tools, 2.8.8664.20301
! Metas.Vna.Data, 2.8.8664.20285
! Created: UTC 2024.02.11 10:08:53
! FREQ                re:S1,1             im:S1,1             re:S2,1             im:S2,1             re:S1,2             im:S1,2             re:S2,2             im:S2,2          
  1.3000000000e+008  -1.3553902498e-004  -1.2113139192e-003   9.9119230868e-001  -6.8030717458e-003   1.0004761253e+000   5.8989973266e-004   8.7888088128e-004   6.5008803941e-004
  1.3858750000e+008  -5.0490772060e-004  -1.2176031207e-003   9.9433815184e-001  -4.6384596503e-003   1.0005972305e+000   2.9438529890e-004   1.2341482890e-003  -1.4694403984e-005
  1.4717500000e+008  -1.6395613662e-003  -9.7988543577e-004   9.9144513333e-001  -6.8522145281e-003   9.9984123088e-001   3.7494481791e-004   1.3442216183e-003  -1.1108666683e-004
  1.5576250000e+008  -1.2110190208e-003   2.2629541720e-004   9.9041313911e-001  -6.5258748868e-003   1.0004975864e+000   4.5916551552e-004   1.2699683139e-003  -1.0377273989e-003
  1.6435000000e+008  -1.2437195526e-003   2.2559359164e-004   9.9111185650e-001  -6.3293938154e-003   1.0002593789e+000   2.2771808059e-004   9.8146436653e-004  -3.8915146201e-004
  1.7293750000e+008  -1.0055976373e-003   8.3401485709e-004   9.9084537597e-001  -6.3410726726e-003   1.0006216001e+000   6.2202277251e-004   8.6953220869e-004  -9.7332865540e-004
  1.8152500000e+008  -5.2985637067e-004   5.3423996976e-004   9.9054804274e-001  -7.6398024159e-003   1.0003411072e+000  -2.3813694376e-004   5.1829169341e-004  -1.1758613431e-003
  1.9011250000e+008  -6.6798326574e-004   1.6367748972e-004   9.9102120657e-001  -7.9675295066e-003   1.0006448354e+000  -5.8229145244e-004   4.5375710210e-004  -1.0695687775e-003
  1.9870000000e+008  -2.2832926862e-004   6.1128480748e-004   9.9018844663e-001  -7.5759550649e-003   1.0004163855e+000  -8.8151113943e-005   2.6027887165e-004  -5.7356575381e-004
  2.0728750000e+008   1.5385620343e-004  -6.2219374588e-005   9.9097103487e-001  -6.6879237031e-003   1.0010523421e+000  -3.1834884580e-004  -1.0168340460e-004  -2.7474181390e-004
  2.1587500000e+008   6.2758219330e-005  -3.7659344984e-004   9.9152495843e-001  -7.2697607543e-003   9.9998722207e-001   1.9922940434e-005  -5.8909681865e-004   5.3258505937e-004
  2.2446250000e+008   9.0853795196e-005  -5.5137426287e-004   9.8924994074e-001  -6.7731713215e-003   1.0004129895e+000  -4.2779910021e-004  -1.3580634525e-004   1.7472952877e-004
  2.3305000000e+008  -1.4454627781e-004  -2.5959570881e-004   9.9245022388e-001  -7.4675811592e-003   1.0005442020e+000  -1.8287936463e-004  -3.7546831344e-004   5.4408048247e-005
  2.4163750000e+008   3.5335950243e-005  -1.4895021854e-004   9.8971178846e-001  -8.2200917632e-003   9.9953773290e-001  -2.8071945969e-004  -3.9564727016e-004   2.0589025576e-004
  2.5022500000e+008  -2.9184077025e-004  -7.7739884714e-004   9.9075985586e-001  -6.6568534591e-003   1.0001957933e+000  -2.1724889090e-004  -8.0677382954e-004   8.3755858873e-004
  2.5881250000e+008  -6.9936023590e-004  -6.4442984133e-004   9.8907584275e-001  -7.6279311659e-003   1.0003528272e+000  -1.0996904975e-003  -3.8158584160e-004   7.0201899478e-004
  2.6740000000e+008  -9.7055137197e-004  -6.3997098947e-004   9.9093568233e-001  -8.7574915590e-003   1.0008567809e+000  -1.3598555731e-003  -2.8345591269e-004   3.7859973179e-004
  2.7598750000e+008  -3.9129510916e-004   2.5506000858e-004   9.8986855209e-001  -9.0071860086e-003   1.0003602597e+000   1.0716878525e-004  -4.2320500766e-004   6.1349499028e-004
  2.8457500000e+008  -7.2557147278e-004  -4.1292678523e-004   9.9045535586e-001  -6.1856917860e-003   1.0002520692e+000   3.3877090878e-004  -1.1881253766e-004   6.4203147379e-004
  2.9316250000e+008  -7.0293077461e-004  -3.7915586955e-004   9.8909343050e-001  -7.6409149365e-003   1.0004565169e+000  -5.8781338724e-004  -3.3936712603e-004   3.3851679742e-004
  3.0175000000e+008  -6.8303926543e-004   1.6159519154e-004   9.8933565186e-001  -9.8546442411e-003   1.0007274427e+000  -7.4331148885e-004  -3.3694401988e-004   1.5132566889e-004
  3.1033750000e+008  -5.2500523770e-004   1.2479655810e-004   9.9055576673e-001  -8.0923530101e-003   1.0014417410e+000  -9.0562525285e-004  -5.3332452442e-004   5.5783218959e-004
  3.1892500000e+008  -7.5401365235e-004   3.7789115278e-005   9.9023082380e-001  -7.9767439971e-003   9.9994340567e-001   2.9425538622e-004  -6.5435245367e-004   2.3622298867e-004
  3.2751250000e+008  -6.4569321142e-004  -7.4176389658e-005   9.9103408661e-001  -8.6003042959e-003   1.0006657814e+000  -8.2264763730e-004  -9.5384911166e-004   8.7765388799e-005
  3.3610000000e+008  -7.7900019065e-004  -9.6669255788e-005   9.9105758408e-001  -6.6963349206e-003   1.0011871918e+000  -9.7680685339e-004  -5.8669292316e-004  -2.0504023716e-005
  3.4468750000e+008  -6.9372592194e-004   2.4366949315e-004   9.9047519563e-001  -6.2623439678e-003   1.0006408967e+000  -6.0659969601e-004  -5.1796849613e-004   1.8718328890e-004
  3.5327500000e+008  -4.1159238512e-004   3.2794529679e-004   9.9265203286e-001  -6.1121669092e-003   9.9982260007e-001  -1.6925512230e-003  -6.8353894464e-004   8.8392151574e-005
  3.6186250000e+008  -7.9113090371e-004   3.4685093953e-004   9.9232211869e-001  -7.4607771612e-003   1.0009094887e+000  -4.3162816933e-004  -3.8706169559e-004   3.0846486304e-004
  3.7045000000e+008  -8.9363194397e-004   5.7610362286e-004   9.9017899431e-001  -7.7854943826e-003   1.0005591993e+000  -7.1511288464e-004  -7.5996690693e-004   8.2591150685e-005
  3.7903750000e+008  -5.5198898458e-004   5.8456932399e-004   9.8981742161e-001  -7.1066013439e-003   1.0004251503e+000  -7.8372271124e-004  -6.9280249460e-004   2.7090055173e-005
  3.8762500000e+008  -3.9283680016e-004   3.9727954313e-004   9.9443359993e-001  -6.6480088969e-003   1.0002212853e+000  -1.0596337056e-003  -4.0213727423e-004   4.6986285358e-004
  3.9621250000e+008  -2.1041761473e-004   1.6635767346e-004   9.9111638905e-001  -8.0010548996e-003   1.0003709642e+000  -7.4474866378e-004  -5.4719583437e-004   7.5055482908e-004
  4.0480000000e+008   3.0014546619e-005   4.1655810126e-004   9.9253747657e-001  -7.8470050301e-003   1.0003051493e+000  -6.3991836384e-004  -3.2906684160e-004   4.6011214940e-004
  4.1338750000e+008   3.7008667919e-004   1.5556608473e-004   9.9129595503e-001  -6.1369054075e-003   1.0011222951e+000  -8.5526126202e-004   6.1052463987e-005   5.1418865889e-004
  4.2197500000e+008   1.2486324473e-004  -2.3845235036e-004   9.9139833091e-001  -8.5370958774e-003   1.0008604478e+000  -8.1674740005e-004   1.3773444510e-004   5.3032430891e-004
  4.3056250000e+008   1.5801299426e-004  -1.7595600675e-004   9.9115642498e-001  -7.8221943192e-003   1.0006543402e+000  -9.4447975978e-004   3.7077759962e-004   3.1932747621e-004
  4.3915000000e+008   7.7743792421e-005  -2.5012420785e-004   9.9254685968e-001  -6.9183589404e-003   1.0002566228e+000  -1.3765359502e-003   3.1589595260e-004   4.2594992390e-004
  4.4773750000e+008   2.9196228137e-004  -6.1346173812e-004   9.9215776948e-001  -7.9802538473e-003   1.0005269879e+000  -1.2801557630e-003   6.1743943078e-004   4.7390499670e-005
  4.5632500000e+008  -8.6231118875e-005  -3.7518901588e-004   9.8912606760e-001  -7.5819256465e-003   1.0005734576e+000  -1.3254981265e-003   6.3613252210e-004   2.9266673672e-004
  4.6491250000e+008  -4.8991109121e-004  -2.4381695038e-004   9.9032250336e-001  -9.1458522301e-003   1.0001665016e+000  -1.3036443824e-003   6.0982313705e-004   2.9630533833e-004
  4.7350000000e+008  -5.1492360686e-004  -4.2638845351e-004   9.9024461318e-001  -8.5818688420e-003   1.0004667871e+000  -7.5492551481e-004   6.5925872321e-004  -8.9896657129e-005
  4.8208750000e+008  -3.7164674173e-004  -1.6422433755e-004   9.8629265971e-001  -9.2154792176e-003   9.9971436749e-001  -1.4133763402e-003   5.5749221221e-004   4.2219514841e-005
  4.9067500000e+008  -5.4656225494e-005  -2.4030039149e-004   9.8843480127e-001  -8.3982032192e-003   1.0000763072e+000  -1.3235739683e-003   5.4992093028e-004  -1.6867239620e-004
  4.9926250000e+008  -1.5370740829e-004  -1.4455444266e-004   9.8938968855e-001  -8.1407603457e-003   1.0004206770e+000  -1.1764523716e-003   4.7384475357e-004   4.8616874471e-005
  5.0785000000e+008  -3.4132248925e-004  -2.2000642758e-005   9.8839872735e-001  -8.0418277038e-003   1.0000736982e+000  -5.3926389415e-004   4.4989234055e-004   3.2409637581e-004
  5.1643750000e+008  -2.3855603973e-004   1.2556738323e-004   9.8875897850e-001  -6.8074984708e-003   1.0002215665e+000  -1.3857974037e-003   5.7024032731e-004   5.3824380048e-005
  5.2502500000e+008  -1.4553307834e-004   5.1217894089e-004   9.8999160850e-001  -7.1438195131e-003   1.0007346360e+000  -1.0540713654e-004   2.1213993816e-004  -4.4450592959e-004
  5.3361250000e+008   3.1329436663e-004   2.7448482795e-004   9.8935733238e-001  -8.8744863391e-003   1.0002732034e+000  -1.2049976435e-003  -4.5724478633e-005  -5.5886854745e-004
  5.4220000000e+008   7.0053251563e-004   1.6329187409e-005   9.9051925572e-001  -8.4591936776e-003   1.0006916649e+000  -1.0529221382e-003  -7.7835093843e-004  -3.6627008192e-004
  5.5078750000e+008   5.4965006959e-004  -5.2089492302e-004   9.8964709143e-001  -9.6399509188e-003   1.0002287992e+000  -1.3504301452e-003  -9.0374658287e-004  -1.7525006209e-004
  5.5937500000e+008   2.9033288788e-004  -6.6336850761e-004   9.8812083496e-001  -7.8497310729e-003   9.9994470179e-001  -1.6409858239e-003  -9.3407982023e-004   1.4526639568e-004
  5.6796250000e+008   3.6061692816e-004  -6.9096052738e-004   9.9055627018e-001  -8.5139807876e-003   1.0004766656e+000  -2.1798298758e-003  -1.1267689647e-003   6.1141282844e-004
  5.7655000000e+008  -2.5608014847e-004  -9.0130258582e-004   9.9087656437e-001  -9.4129829875e-003   1.0004633850e+000  -1.7817515931e-003  -8.9586419409e-004   7.5459799501e-004
  5.8513750000e+008  -5.0100518996e-004  -8.6060966776e-004   9.9065212839e-001  -9.2921379576e-003   9.9961181413e-001  -1.9118954123e-003  -9.7997073034e-004   7.6506519985e-004
  5.9372500000e+008  -5.5206386308e-004  -7.4916909642e-004   9.8906796778e-001  -8.3481110332e-003   9.9977713431e-001  -1.6042260121e-003  -6.8991174342e-004   9.9477295246e-004
  6.0231250000e+008  -9.6490366891e-004  -6.4117062307e-004   9.8861199538e-001  -7.5836918494e-003   1.0001379694e+000  -2.1338906829e-003  -3.6263336680e-004   1.0346554299e-003
  6.1090000000e+008  -7.6846976948e-004  -4.3208670684e-004   9.8912695621e-001  -1.0044634986e-002   1.0000448298e+000  -1.9608596164e-003  -3.7000692083e-004   9.4939218393e-004
  6.1948750000e+008  -8.5433761285e-004  -4.1433896483e-005   9.8817570611e-001  -7.7442253008e-003   9.9937845624e-001  -2.3909889668e-003  -4.8416031065e-004   6.7338692296e-004
  6.2807500000e+008  -8.3889715639e-004   8.5574371610e-006   9.8908068544e-001  -1.1062853526e-002   1.0001064066e+000  -1.2705305375e-003   1.8249838255e-005   4.7726504786e-004
  6.3666250000e+008  -4.7772694597e-004   5.3574775563e-004   9.8983982184e-001  -8.2267202990e-003   1.0001426848e+000  -1.9346407198e-003  -3.1067214870e-006   3.3479463895e-004
  6.4525000000e+008  -2.2279688184e-004   4.9161108126e-004   9.8959269919e-001  -8.7024377190e-003   1.0006111340e+000  -1.4065083427e-003   1.1102853934e-004   5.4060516770e-005
  6.5383750000e+008   1.1148633731e-004   4.5085622114e-004   9.9021252257e-001  -8.3978853534e-003   1.0000212293e+000  -1.3390595327e-003   2.7222217712e-004  -1.6803635310e-004
  6.6242500000e+008   4.5304774499e-004   1.4857975811e-004   9.8721289762e-001  -7.5995162971e-003   1.0006843180e+000  -2.0431874540e-003   3.3425198951e-004  -2.6276187743e-004
  6.7101250000e+008   3.5891543618e-004  -2.7131872466e-005   9.8974633159e-001  -7.8823854039e-003   9.9995374660e-001  -1.2034678872e-003   2.1774407590e-004  -6.0978545194e-004
  6.7960000000e+008   6.3184072666e-004  -5.1537403199e-004   9.8951975047e-001  -8.3735500953e-003   1.0006950887e+000  -2.0291016657e-003   3.2719336448e-004  -8.6084569833e-004
  6.8818750000e+008   2.5325455927e-004  -8.0827519016e-004   9.9222288418e-001  -7.7748669793e-003   1.0003437695e+000  -2.0381075766e-003   1.5314337977e-004  -1.0877963644e-003
  6.9677500000e+008   1.7390732948e-004  -9.5812327082e-004   9.9105661266e-001  -8.4077101405e-003   1.0003963034e+000  -1.9000523713e-003  -2.1967661739e-004  -1.0327337179e-003
  7.0536250000e+008  -1.3528600002e-004  -1.0212602494e-003   9.9237797961e-001  -7.8850586952e-003   1.0000221647e+000  -2.1271517353e-003  -2.9243194388e-004  -1.3469186085e-003
  7.1395000000e+008  -6.2845810252e-004  -1.0096765574e-003   9.9131867865e-001  -7.0376061310e-003   9.9966663149e-001  -1.7668924989e-003  -4.7690626939e-004  -1.2903435600e-003
  7.2253750000e+008  -1.0213377718e-003  -1.0123119761e-003   9.9039613396e-001  -7.6351164992e-003   9.9964122859e-001  -1.9484607378e-003  -7.0395955141e-004  -1.2633478141e-003
  7.3112500000e+008  -1.0736065170e-003  -5.4344408161e-004   9.9149514897e-001  -7.1992863352e-003   9.9963672981e-001  -1.5472951180e-003  -8.4375250098e-004  -9.6317828884e-004
  7.3971250000e+008  -9.8438613095e-004  -6.5237191481e-005   9.9305503152e-001  -9.8509726692e-003   9.9968190408e-001  -2.5878504996e-003  -9.3738257645e-004  -7.5109636871e-004
  7.4830000000e+008  -1.0132340918e-003   3.4420482940e-004   9.9272389965e-001  -7.0013068022e-003   9.9959642582e-001  -1.6495863549e-003  -9.2519918691e-004  -7.1504525237e-004
  7.5688750000e+008  -8.3698583334e-004   5.2646786543e-004   9.9167959394e-001  -8.1780356433e-003   9.9867364366e-001  -2.6163178190e-003  -1.0812536187e-003  -2.2786078888e-004
  7.6547500000e+008  -2.1724579412e-004   8.7357001132e-004   9.9150822423e-001  -8.5684323200e-003   9.9943221243e-001  -1.9913750333e-003  -1.0352327530e-003  -7.9091003865e-005
  7.7406250000e+008   6.5096042603e-005   8.7368584900e-004   9.9162912249e-001  -7.4842853694e-003   1.0003631509e+000  -1.8754981032e-003  -8.1424892304e-004   1.0522135686e-004
  7.8265000000e+008   3.5497633645e-004   5.8496618507e-004   9.9202261062e-001  -7.6710843397e-003   9.9965706436e-001  -2.0044199164e-003  -7.1035279573e-004   5.4961532983e-004
  7.9123750000e+008   7.6005413925e-004   4.6990864914e-004   9.9233846369e-001  -7.0120596137e-003   9.9973873576e-001  -1.7183453031e-003  -8.6998761842e-004   8.1666805591e-004
  7.9982500000e+008   7.8755641663e-004   2.1785299499e-004   9.9228311674e-001  -7.3520964282e-003   1.0002045297e+000  -1.2098056098e-003  -5.7539487825e-004   8.5334241800e-004
  8.0841250000e+008   1.1225361766e-003   1.6118964762e-004   9.9151096237e-001  -9.3065417942e-003   9.9960226662e-001  -2.3733040557e-003  -4.1832898358e-004   9.7403018702e-004
  8.1700000000e+008   1.2795996763e-003  -4.2575039270e-004   9.9384305649e-001  -7.3146914621e-003   1.0005188815e+000  -1.7205921946e-003  -4.5491386419e-004   1.0061286490e-003
  8.2558750000e+008   1.1679188441e-003  -6.9532061383e-004   9.9433186262e-001  -7.2447074476e-003   1.0005918524e+000  -2.4558331819e-003  -3.3163095882e-004   1.1879077616e-003
  8.3417500000e+008   8.6222628054e-004  -1.1201464161e-003   9.9275583043e-001  -7.5761016243e-003   1.0012599555e+000  -2.0088969937e-003   1.3771079502e-006   1.2070184433e-003
  8.4276250000e+008   4.8139378552e-004  -1.3170414287e-003   9.9224615722e-001  -6.9358323439e-003   9.9974610505e-001  -1.9609455145e-003   8.4856135425e-005   1.2388262924e-003
  8.5135000000e+008   8.0320040338e-005  -1.2728321045e-003   9.9347131006e-001  -6.3817875040e-003   1.0007715942e+000  -1.6922599508e-003   1.4668562438e-004   1.2840577916e-003
  8.5993750000e+008  -3.5453728495e-004  -1.1780704790e-003   9.9276673348e-001  -6.7703588635e-003   9.9993202447e-001  -2.4432811173e-003   2.6330748062e-004   1.0187666221e-003
  8.6852500000e+008  -4.8027065330e-004  -8.9912681132e-004   9.9172565160e-001  -7.9933729850e-003   9.9897928909e-001  -1.9064510073e-003   5.5245767674e-004   7.3451791784e-004
  8.7711250000e+008  -3.8162464469e-004  -6.4622240307e-004   9.9156235072e-001  -7.4570630400e-003   9.9989218505e-001  -1.8837144171e-003   3.6195837925e-004   4.3913705691e-004
  8.8570000000e+008  -3.9792757162e-004  -3.6386760875e-004   9.9348904502e-001  -8.3594173536e-003   1.0000057980e+000  -2.7799852225e-003   3.9157925226e-004   1.2516890393e-004
  8.9428750000e+008  -1.7760365571e-004  -1.7220987023e-004   9.9196489095e-001  -8.3450678937e-003   9.9928766889e-001  -2.8815653684e-003   3.3418236571e-005  -2.5941295865e-004
  9.0287500000e+008   1.1161156933e-004  -2.6994087345e-004   9.9202901503e-001  -9.2071026509e-003   9.9956580529e-001  -2.8500799013e-003  -1.0477387463e-004  -3.9343238092e-004
  9.1146250000e+008   3.3040291329e-004  -2.1870265299e-004   9.9155211466e-001  -9.0229079686e-003   9.9835580716e-001  -2.1260626047e-003  -5.1803517091e-004  -2.9717053155e-004
  9.2005000000e+008   2.1588497035e-004  -4.5874679041e-004   9.9281596847e-001  -7.9578493163e-003   9.9930236506e-001  -2.2790056153e-003  -5.9830501993e-004  -5.8992863052e-004
  9.2863750000e+008   5.7035047670e-004  -6.6053418316e-004   9.9193084892e-001  -8.2542412570e-003   9.9928010727e-001  -2.3922578146e-003  -9.4849296570e-004  -5.6323761788e-004
  9.3722500000e+008   4.4686760932e-004  -9.1923116925e-004   9.9234461891e-001  -8.1714014246e-003   9.9838434627e-001  -2.4761135761e-003  -1.1400686068e-003  -6.2667309362e-004
  9.4581250000e+008   3.3704116376e-004  -1.1283422836e-003   9.9267811388e-001  -6.6394854007e-003   9.9849109467e-001  -1.8357423833e-003  -1.1753310931e-003  -3.6954888435e-004
  9.5440000000e+008  -2.1680824261e-005  -1.2645016207e-003   9.9299267240e-001  -8.6070711853e-003   9.9948386686e-001  -1.9420577001e-003  -1.2938862787e-003  -4.4937399037e-004
  9.6298750000e+008  -2.9166604499e-004  -1.2462775155e-003   9.9338903328e-001  -7.1658627752e-003   1.0010377229e+000  -2.7715558902e-003  -1.4636850024e-003  -1.4763566896e-004
  9.7157500000e+008  -6.0468869701e-004  -1.3133330250e-003   9.9372242329e-001  -7.8907403072e-003   1.0000560949e+000  -2.4258277974e-003  -1.3562488632e-003  -1.0044692911e-004
  9.8016250000e+008  -9.5532781176e-004  -9.5797408288e-004   9.9379528645e-001  -8.4729332082e-003   9.9982507184e-001  -3.6689558960e-003  -1.4797474351e-003  -3.4901547549e-005
  9.8875000000e+008  -1.1043471120e-003  -6.9196772009e-004   9.9359705848e-001  -7.4777057271e-003   9.9907744464e-001  -2.4184042074e-003  -1.2773957510e-003   1.5160784102e-004
  9.9733750000e+008  -1.1420472458e-003  -3.3269658008e-004   9.9204057031e-001  -9.0989993571e-003   9.9955924402e-001  -1.6533750259e-003  -1.1477659175e-003   1.0518537630e-004
  1.0059250000e+009  -9.6630260647e-004  -3.5140257438e-005   9.9437204561e-001  -8.1564291810e-003   1.0002072022e+000  -2.6698495373e-003  -8.1226214229e-004   1.0821791529e-004
  1.0145125000e+009  -8.2937671229e-004   4.3906659428e-004   9.9154015089e-001  -8.8487982544e-003   9.9928668974e-001  -2.3238488599e-003  -5.2221833973e-004   2.4381766635e-004
  1.0231000000e+009  -5.4896769262e-004   3.8685510868e-004   9.9208324810e-001  -8.3653250190e-003   9.9924872148e-001  -2.9558076782e-003  -1.6868297444e-004   2.1081734270e-004
  1.0316875000e+009  -2.1544939006e-004   7.1549045552e-004   9.9249698362e-001  -8.6776435062e-003   9.9845185330e-001  -3.4545685882e-003   2.8029881471e-005   4.9671309889e-005
  1.0402750000e+009   2.3079949045e-004   5.7692094569e-004   9.9212648594e-001  -8.2604504779e-003   9.9957459607e-001  -1.8123492498e-003   2.4657840168e-004  -1.0225611058e-004
  1.0488625000e+009   4.7240829466e-004   4.4317907520e-004   9.9302192010e-001  -7.2250003756e-003   9.9933186615e-001  -2.5597137444e-003   5.4284690011e-004  -3.0823777122e-004
  1.0574500000e+009   5.2521220713e-004   1.2863039651e-004   9.9261702120e-001  -7.6727303845e-003   9.9956410197e-001  -2.9338642084e-003   7.5708891832e-004  -5.3331763234e-004
