# Hz S RI R 50.000000
! Metas.Vna.Tools, 2.8.8664.20301
! Metas.Vna.Data, 2.8.8664.20285
! Created: UTC 2024.02.11 10:08:36
! FREQ                re:S1,1             im:S1,1             re:S2,1             im:S2,1             re:S1,2             im:S1,2             re:S2,2             im:S2,2          
  1.3000000000e+008   4.6938041045e-006  -1.6220069141e-003   9.9537741385e-001  -5.5146207839e-003   1.0008189269e+000   1.7178497066e-004   9.6276881432e-004   5.8896158003e-004
  1.3858750000e+008  -7.6533281481e-004  -1.2099588180e-003   9.9669428143e-001  -5.6164664550e-003   1.0003118931e+000   1.9958834814e-004   1.2510346301e-003  -2.6532652247e-004
  1.4717500000e+008  -1.0805712629e-003  -9.3459849118e-004   9.9603992420e-001  -6.4246141998e-003   1.0009584122e+000  -3.8991054272e-005   9.7957217676e-004  -4.8086645220e-004
  1.5576250000e+008  -1.4205313278e-003   1.2729982073e-004   9.9760051988e-001  -6.2353656157e-003   1.0005973156e+000  -1.1272715318e-005   1.3098708943e-003  -8.8659028763e-004
  1.6435000000e+008  -1.0611893142e-003   5.9906985609e-004   9.9613045737e-001  -5.0508707884e-003   1.0012131085e+000  -9.1030727768e-005   1.2138972171e-003  -5.1926537735e-004
  1.7293750000e+008  -5.1227761298e-004   3.0178382778e-004   9.9633397174e-001  -4.1167603102e-003   1.0004642128e+000   2.9105927096e-004   1.1015770864e-003  -8.8380642255e-004
  1.8152500000e+008  -5.0363072915e-004   8.1890717960e-004   9.9579512165e-001  -6.2103067359e-003   1.0003663530e+000  -5.9077077010e-004   3.0223045969e-004  -4.7330300702e-004
  1.9011250000e+008  -6.3184772530e-004   7.4983543332e-004   9.9674276603e-001  -6.7881553695e-003   1.0008639030e+000  -4.2420636948e-004   4.7031257953e-004  -1.0513885926e-003
  1.9870000000e+008  -2.7486374387e-004   9.7471726242e-004   9.9719972902e-001  -6.9913248251e-003   1.0013327891e+000  -5.8179432946e-004   7.7644859583e-004  -4.3279890673e-004
  2.0728750000e+008   1.9320192984e-004   3.4978864842e-004   9.9720754289e-001  -5.3537128861e-003   1.0008897154e+000  -5.0032187950e-004  -6.6587411439e-005  -1.1717206904e-004
  2.1587500000e+008   1.7293430283e-004  -3.1068961215e-005   9.9772357680e-001  -5.2713658240e-003   9.9998353209e-001  -7.3434763661e-004  -3.3236981343e-004  -2.7698862970e-005
  2.2446250000e+008   3.7979956801e-004  -6.2959201314e-004   9.9624888567e-001  -5.8662703377e-003   9.9989959993e-001  -2.9674323951e-004  -2.1505631493e-004  -1.0941955553e-004
  2.3305000000e+008   1.7078112453e-004   1.3687330062e-004   9.9653396760e-001  -6.6108510690e-003   1.0005619261e+000   1.9894271167e-006  -4.4499617851e-004  -3.9329909503e-005
  2.4163750000e+008   2.3887103469e-005  -5.7509164920e-004   9.9525416687e-001  -7.4203087094e-003   1.0004923895e+000  -7.2117990368e-004  -7.3232585590e-004   2.1247104634e-004
  2.5022500000e+008  -4.9024266648e-004  -9.4262627441e-004   9.9660048681e-001  -6.9195477694e-003   9.9963731352e-001  -1.0370353960e-003  -8.6582046411e-004   6.1289594425e-004
  2.5881250000e+008  -7.1531332722e-004  -6.2985090087e-004   9.9427816552e-001  -6.9668678921e-003   1.0009579524e+000  -9.7390763880e-004  -5.5701106680e-004   1.0722981245e-003
  2.6740000000e+008  -7.7625921855e-004  -8.1975135357e-004   9.9492238826e-001  -6.6942680795e-003   1.0006322186e+000  -6.5800286622e-004  -5.3724609555e-004   1.5154162362e-004
  2.7598750000e+008  -6.2653224886e-004  -7.6013373688e-004   9.9505807935e-001  -7.6465993914e-003   1.0006870999e+000  -1.1184707103e-003  -2.7062150204e-004   5.5017080026e-004
  2.8457500000e+008  -9.3323355374e-004  -2.8214923381e-004   9.9518839781e-001  -7.1843634102e-003   1.0008028708e+000  -2.7651618101e-004  -4.0346023045e-004   7.9499304788e-004
  2.9316250000e+008  -7.7357872010e-004  -5.1454143815e-004   9.9536960224e-001  -5.5533032631e-003   1.0003589889e+000  -7.0811518852e-004  -3.2658620207e-004   5.5094574758e-004
  3.0175000000e+008  -9.6471309855e-004   2.8279345952e-004   9.9575776424e-001  -8.5516339413e-003   1.0006819021e+000  -7.0544961838e-004  -4.3941086068e-004   4.0420470971e-004
  3.1033750000e+008  -8.2574661369e-004   2.6850685136e-004   9.9643930343e-001  -5.9016716657e-003   1.0008666738e+000  -9.4670343425e-004  -8.1128481073e-004   7.4361484573e-004
  3.1892500000e+008  -1.0097018144e-003   1.5879198035e-004   9.9622771302e-001  -7.5775144274e-003   1.0003607571e+000  -3.6944578706e-004  -6.5177612450e-004   3.5519011624e-004
  3.2751250000e+008  -7.8399372280e-004   2.9396277582e-004   9.9597423000e-001  -6.9807315431e-003   1.0003324518e+000  -1.4511721640e-003  -5.6823822623e-004   6.6773665339e-005
  3.3610000000e+008  -8.0613898888e-004  -5.4753358821e-006   9.9736219244e-001  -5.1273236840e-003   1.0008458816e+000  -1.6539892332e-003  -7.9632000049e-004   3.4799809752e-004
  3.4468750000e+008  -6.9907213479e-004   3.4585229606e-004   9.9739407300e-001  -5.9032501131e-003   1.0000812199e+000  -1.1722948158e-003  -3.6990246097e-004   1.9111521429e-004
  3.5327500000e+008  -2.6771720858e-004   3.0389277818e-004   9.9752479478e-001  -7.4818402926e-003   9.9924960534e-001  -1.5509759358e-003  -7.4807777561e-004   1.4235302542e-004
  3.6186250000e+008  -4.4994333368e-004   2.1829791140e-004   9.9713787430e-001  -7.4070267063e-003   1.0008874659e+000  -7.8869558859e-004  -5.8857678618e-004   2.7527510824e-004
  3.7045000000e+008  -4.1929069257e-004   5.0706997346e-004   9.9702912734e-001  -7.7423132086e-003   1.0011676148e+000  -1.6916313490e-003  -8.8311814319e-004   1.9338879755e-004
  3.7903750000e+008  -9.4162180357e-005   6.9094634325e-004   9.9612058841e-001  -6.5309644945e-003   1.0002102215e+000  -1.1388605983e-003  -4.7580453560e-004   1.6526055581e-004
  3.8762500000e+008  -3.2095672364e-004   3.8849162882e-004   9.9964937692e-001  -5.8656024443e-003   1.0001249010e+000  -9.6772797938e-004  -5.2234363448e-004   5.9874134041e-004
  3.9621250000e+008  -2.3287915376e-004   2.0571449964e-004   9.9763355421e-001  -6.0934136451e-003   1.0004384744e+000  -1.2030324870e-003  -4.1886035095e-004   7.3423808229e-004
  4.0480000000e+008   2.0429640976e-004   1.9231842685e-004   9.9857713570e-001  -7.0009332067e-003   1.0002593643e+000  -1.4439311401e-003  -2.4924123886e-005   4.0894705046e-004
  4.1338750000e+008   1.8317075367e-004  -1.3991094943e-005   9.9895407480e-001  -5.6081310556e-003   1.0010872027e+000  -9.0632863074e-004   3.3748047783e-004   4.2787060974e-004
  4.2197500000e+008  -7.2822795388e-005  -1.7883398656e-004   9.9728612796e-001  -6.1762246793e-003   1.0003002166e+000  -1.3883640064e-003   3.4790141727e-004   4.7714535818e-004
  4.3056250000e+008   1.3153131201e-004   4.4485502097e-005   9.9792067737e-001  -5.3321470789e-003   1.0006916833e+000  -1.2578771671e-003   6.4132207350e-004   1.2572235601e-004
  4.3915000000e+008   1.6863024708e-004  -3.8906693937e-004   9.9892334222e-001  -6.1235786600e-003   1.0004523440e+000  -1.6533298257e-003   4.9989719186e-004   3.5038592481e-004
  4.4773750000e+008   3.1030115010e-004  -1.2783928500e-004   9.9943829743e-001  -5.8262483162e-003   1.0005517006e+000  -1.6348058140e-003   8.1012567925e-004  -3.2389142907e-005
  4.5632500000e+008   2.3661629857e-005  -3.0679465365e-004   9.9718118735e-001  -6.2796430667e-003   1.0006334850e+000  -1.4539235036e-003   7.4379276942e-004   3.8067635993e-005
  4.6491250000e+008  -3.6379654466e-004  -2.0331033394e-004   9.9769032007e-001  -6.6173772335e-003   1.0002850529e+000  -1.4784417521e-003   6.1444228792e-004  -1.6495850986e-005
  4.7350000000e+008  -2.4838268534e-004  -2.6222939008e-004   9.9663367467e-001  -6.6521312412e-003   1.0002745340e+000  -1.4041447007e-003   5.4927417888e-004  -2.6791261732e-004
  4.8208750000e+008  -2.2705140900e-004  -2.5057915994e-004   9.9565046647e-001  -6.7274565396e-003   9.9983101959e-001  -1.2090541117e-003   5.9821339321e-004  -1.2080621353e-004
  4.9067500000e+008  -3.7655916749e-005  -3.5231368520e-004   9.9503125319e-001  -7.3180591218e-003   1.0000487074e+000  -1.3883368241e-003   3.8312054582e-004  -1.5156490135e-004
  4.9926250000e+008  -2.1501551565e-004  -5.5257126336e-004   9.9527250916e-001  -7.0936089989e-003   9.9999817460e-001  -1.1885792089e-003   7.7528350028e-004   2.4752246111e-005
  5.0785000000e+008  -5.8783501714e-004  -2.9152275122e-004   9.9499619095e-001  -7.6318617082e-003   9.9991424088e-001  -9.3104209432e-004   4.6939307578e-004   1.8972470314e-004
  5.1643750000e+008  -5.4823213583e-004  -1.9282775331e-005   9.9566127002e-001  -5.4023028559e-003   1.0006132112e+000  -9.2356721964e-004   8.6862601673e-004  -8.9136393755e-005
  5.2502500000e+008  -4.4235432383e-004   5.6944012231e-004   9.9623883013e-001  -5.4644381499e-003   1.0005942637e+000  -6.0624763552e-004   1.6897074543e-004  -5.5707326133e-004
  5.3361250000e+008   3.5577533918e-004   4.2667536758e-004   9.9598046048e-001  -7.5911791154e-003   1.0005517280e+000  -1.4376343255e-003  -1.6314432815e-004  -6.0636095167e-004
  5.4220000000e+008   6.6593975825e-004   3.6176732585e-004   9.9581112208e-001  -7.2225379486e-003   1.0010377564e+000  -1.5789681175e-003  -9.0312675303e-004  -3.8012805220e-004
  5.5078750000e+008   7.0847015436e-004  -5.8527323350e-004   9.9534916789e-001  -7.8491532015e-003   1.0005139020e+000  -1.6398455052e-003  -8.0634764593e-004  -3.3836951629e-004
  5.5937500000e+008   4.4360922735e-004  -6.2076014335e-004   9.9535146289e-001  -6.5893298787e-003   1.0005035556e+000  -1.9439460993e-003  -1.1686213705e-003   1.9197818763e-004
  5.6796250000e+008   3.5702635933e-004  -6.3092032314e-004   9.9403781185e-001  -8.4411553644e-003   1.0002261334e+000  -1.8321570415e-003  -1.0076998261e-003   6.3947550590e-004
  5.7655000000e+008  -1.3301442428e-004  -1.1178544465e-003   9.9298728192e-001  -9.4707323921e-003   1.0008327866e+000  -2.2480970567e-003  -8.3440432602e-004   7.5576528460e-004
  5.8513750000e+008  -1.5798046575e-004  -9.3695068379e-004   9.8968683980e-001  -9.3337031995e-003   1.0003033357e+000  -2.1888627690e-003  -6.1685773133e-004   9.5898445650e-004
  5.9372500000e+008  -4.3832120139e-004  -8.7868661490e-004   9.9081783160e-001  -9.0846974761e-003   9.9997795261e-001  -2.3626202606e-003  -4.4607091925e-004   1.0872259117e-003
  6.0231250000e+008  -9.0928509695e-004  -5.6569253524e-004   9.9052929460e-001  -8.8090726048e-003   1.0009585343e+000  -1.9257584912e-003  -4.1018632840e-004   9.5549458970e-004
  6.1090000000e+008  -7.3038588091e-004  -4.8876451064e-004   9.8984300151e-001  -9.6431880845e-003   1.0001125986e+000  -1.6007887323e-003  -3.3338254792e-004   8.7758853769e-004
  6.1948750000e+008  -8.9698814720e-004  -6.6936411048e-005   9.9029402333e-001  -8.6801834428e-003   9.9954060486e-001  -1.7081644362e-003  -2.2644046463e-004   7.2860540417e-004
  6.2807500000e+008  -8.4698796405e-004   1.6011549515e-007   9.9220998885e-001  -1.0098829878e-002   1.0006646529e+000  -1.7853887783e-003   1.8627049360e-004   4.9072535030e-004
  6.3666250000e+008  -5.2624719842e-004   3.9631924976e-004   9.9380964539e-001  -8.1481529778e-003   1.0004712518e+000  -2.4119260718e-003   3.0295292433e-004   3.3641474447e-004
  6.4525000000e+008  -2.0503444599e-004   4.7204883006e-004   9.9097391337e-001  -8.4297147194e-003   1.0002882426e+000  -1.5565048191e-003   3.6593680433e-004  -9.9739150304e-005
  6.5383750000e+008   4.4392473796e-005   3.8601740534e-004   9.9052436785e-001  -7.7965078196e-003   9.9954802824e-001  -1.9008343922e-003   3.1562579174e-004  -1.8625003551e-004
  6.6242500000e+008   2.6077734229e-004   1.4116961137e-004   9.9088040329e-001  -7.8512250170e-003   1.0013291833e+000  -2.3796862911e-003   3.9862842114e-004  -5.0516470540e-004
  6.7101250000e+008   3.1813605903e-004   1.7928775566e-005   9.9159944561e-001  -7.0900916043e-003   9.9954664207e-001  -1.5011167137e-003   1.7349075958e-004  -7.7962516309e-004
  6.7960000000e+008   6.5083599986e-004  -4.0001142491e-004   9.9074282054e-001  -7.4766380433e-003   1.0005229738e+000  -2.0556244661e-003   1.7741491505e-004  -1.2322619440e-003
  6.8818750000e+008   2.3559335654e-004  -5.8990147010e-004   9.9366339316e-001  -8.6970861753e-003   9.9981756406e-001  -2.5733275970e-003  -1.8677107037e-004  -1.1294503614e-003
  6.9677500000e+008   3.2005137926e-004  -7.9409221957e-004   9.9169655273e-001  -8.7069623248e-003   1.0004397218e+000  -2.1651581739e-003  -2.9506473103e-004  -1.2106889657e-003
  7.0536250000e+008  -1.3603849268e-005  -9.9089526500e-004   9.9067229584e-001  -8.1885151642e-003   9.9993740831e-001  -2.6957120737e-003  -5.3200570964e-004  -1.3738874228e-003
  7.1395000000e+008  -5.3619260688e-004  -1.0960041676e-003   9.9069864629e-001  -8.9017822354e-003   1.0002681587e+000  -1.7352807990e-003  -6.5821274691e-004  -1.3004621885e-003
  7.2253750000e+008  -1.0526274428e-003  -9.6861534725e-004   9.8899314108e-001  -9.1843624685e-003   1.0001120339e+000  -1.7477512406e-003  -9.1424023455e-004  -1.1996014973e-003
  7.3112500000e+008  -9.2844327817e-004  -5.6859029800e-004   9.9192031308e-001  -9.3154269160e-003   1.0003208325e+000  -1.6710398495e-003  -1.0303242852e-003  -8.8093669630e-004
  7.3971250000e+008  -1.0360976860e-003  -2.1538945890e-004   9.9201719102e-001  -1.0375616995e-002   9.9990707358e-001  -2.7821323064e-003  -1.2128499413e-003  -6.3852098768e-004
  7.4830000000e+008  -1.1028253735e-003   3.2107431356e-004   9.8930143403e-001  -8.4751215346e-003   9.9914295722e-001  -1.5343431980e-003  -1.1026305374e-003  -5.5547923755e-004
  7.5688750000e+008  -9.1527567468e-004   5.2208597801e-004   9.9025916088e-001  -9.6005435944e-003   9.9915711290e-001  -3.0861197980e-003  -1.2188637090e-003  -1.2416913462e-004
  7.6547500000e+008  -4.0051725462e-004   6.8641515858e-004   9.9510186733e-001  -8.4825004318e-003   1.0000427869e+000  -2.1872989529e-003  -1.1459946415e-003   3.9067284432e-006
  7.7406250000e+008  -1.3587767049e-004   8.3648422035e-004   9.9337031755e-001  -8.8342385112e-003   9.9976026961e-001  -2.5857715428e-003  -9.6334591528e-004   3.2120806357e-004
  7.8265000000e+008   2.1241744510e-004   6.7061892454e-004   9.9381152104e-001  -8.5411666125e-003   1.0000518330e+000  -2.1200009326e-003  -7.1250025384e-004   7.7875811745e-004
  7.9123750000e+008   6.2432762302e-004   4.7264153976e-004   9.9474672608e-001  -7.1081031786e-003   9.9960863519e-001  -2.2066690497e-003  -7.1530135904e-004   6.0231908453e-004
  7.9982500000e+008   7.1775425977e-004   4.8575023059e-004   9.9559047367e-001  -7.7940230370e-003   1.0008610231e+000  -2.1391434622e-003  -4.9531348072e-004   8.6122373538e-004
  8.0841250000e+008   9.0384464436e-004   3.4382250590e-004   9.9495640144e-001  -7.8757313162e-003   1.0001051244e+000  -2.1961691012e-003  -4.5766874690e-004   9.7308889972e-004
  8.1700000000e+008   1.2615592990e-003  -1.8904252289e-004   9.9598078176e-001  -7.5565701557e-003   1.0000272328e+000  -1.7473456390e-003  -4.3416239875e-004   9.2949592163e-004
  8.2558750000e+008   1.2527747138e-003  -4.3486258442e-004   9.9579368661e-001  -6.8150843784e-003   1.0007871723e+000  -2.2149454475e-003  -4.2610787847e-004   1.1675666577e-003
  8.3417500000e+008   1.1694740478e-003  -9.5900203821e-004   9.9666780411e-001  -7.8508228742e-003   1.0012032051e+000  -3.1891436585e-003  -2.4437496384e-004   1.4262464163e-003
  8.4276250000e+008   8.5453778867e-004  -1.3017917738e-003   9.9640658166e-001  -7.0912868145e-003   9.9961426204e-001  -2.4264832182e-003  -1.6889195201e-005   1.4072478324e-003
  8.5135000000e+008   1.8545753520e-004  -1.4718319381e-003   9.9580158506e-001  -7.6297971149e-003   1.0009330200e+000  -2.8526871755e-003   3.5260742024e-004   1.2996878560e-003
  8.5993750000e+008  -1.2910752194e-004  -1.6021372954e-003   9.9529918154e-001  -7.4734400937e-003   9.9979691913e-001  -3.2719703383e-003   4.4434417873e-004   1.1815283450e-003
  8.6852500000e+008  -5.1550618450e-004  -1.2447897284e-003   9.9375903650e-001  -7.6679883305e-003   9.9898519083e-001  -1.7385863899e-003   6.2473610209e-004   8.4356109041e-004
  8.7711250000e+008  -6.1401231113e-004  -8.1590435801e-004   9.9391629327e-001  -8.5149971787e-003   1.0004425904e+000  -3.1508569255e-003   6.4668858113e-004   3.6103006351e-004
  8.8570000000e+008  -5.8229504192e-004  -6.3891818367e-004   9.9406781992e-001  -7.7527581715e-003   9.9984150149e-001  -3.2604464093e-003   4.8058413059e-004   1.4534544927e-004
  8.9428750000e+008  -4.2944840013e-004  -3.2578427815e-004   9.9326651077e-001  -8.7065034472e-003   1.0000431651e+000  -3.7929688800e-003   2.0541552920e-004  -3.5857061914e-004
  9.0287500000e+008  -9.2116187851e-005  -1.3784069375e-004   9.9353003709e-001  -8.8051291162e-003   9.9931680732e-001  -2.6955911521e-003  -5.0080886250e-005  -4.2296984710e-004
  9.1146250000e+008   1.0083952466e-004  -3.1368171408e-005   9.9271723026e-001  -8.2592643375e-003   9.9922613457e-001  -2.6567500685e-003  -5.3634779096e-004  -3.7112816117e-004
  9.2005000000e+008   1.7806322603e-004  -1.5881086898e-004   9.9685127173e-001  -8.1184201105e-003   9.9852640376e-001  -2.4519711637e-003  -6.2563444960e-004  -6.1158816491e-004
  9.2863750000e+008   3.6577543785e-004  -5.0949606133e-004   9.9521887618e-001  -5.9753524337e-003   9.9993108883e-001  -3.2290536898e-003  -7.9590348208e-004  -7.0111767446e-004
  9.3722500000e+008   4.6480750146e-004  -5.8988622795e-004   9.9526729904e-001  -7.0846744643e-003   9.9887701294e-001  -2.6582759533e-003  -1.0981786975e-003  -8.0560230488e-004
  9.4581250000e+008   4.7039831286e-004  -9.6307806682e-004   9.9572445529e-001  -7.0562755900e-003   9.9944836348e-001  -2.3927420878e-003  -1.4160555509e-003  -3.9063518927e-004
  9.5440000000e+008   2.9769213760e-004  -1.2253252292e-003   9.9533912606e-001  -7.7263947845e-003   9.9967656184e-001  -2.5209342679e-003  -1.4672346897e-003  -2.1860218339e-004
  9.6298750000e+008  -1.8518049903e-004  -1.2506730564e-003   9.9620362962e-001  -6.7480934697e-003   1.0003960613e+000  -3.1796458853e-003  -1.4825113964e-003  -3.0861173092e-005
  9.7157500000e+008  -4.3816688178e-004  -1.3995885926e-003   9.9637226864e-001  -8.5441645396e-003   1.0008181791e+000  -2.9040069752e-003  -1.5302968746e-003  -2.8195766072e-005
  9.8016250000e+008  -6.8884525517e-004  -1.0811004080e-003   9.9583584994e-001  -8.5696883974e-003   9.9896414114e-001  -3.5859955290e-003  -1.4466103716e-003   7.0813067292e-005
  9.8875000000e+008  -1.0104410210e-003  -8.3159014643e-004   9.9532644383e-001  -6.6738447274e-003   9.9912238789e-001  -2.6195108892e-003  -1.2813436475e-003   3.0543983693e-004
  9.9733750000e+008  -1.1422721515e-003  -6.2160433782e-004   9.9479590747e-001  -7.3784328318e-003   9.9941110511e-001  -2.3248846011e-003  -9.5174645650e-004   1.1902873633e-004
  1.0059250000e+009  -1.1614016270e-003  -2.2482935151e-004   9.9467396504e-001  -6.7722172185e-003   1.0009989424e+000  -2.9665711302e-003  -7.1454565395e-004   5.7307335298e-005
  1.0145125000e+009  -9.7763983874e-004   2.0178963704e-004   9.9555255901e-001  -1.0152715331e-002   9.9983919015e-001  -3.1530370483e-003  -4.2544459494e-004   2.0972939198e-004
  1.0231000000e+009  -6.9962221754e-004   3.7448086726e-004   9.9392695766e-001  -7.0398059565e-003   9.9993975007e-001  -2.7668135654e-003  -1.6667023656e-004   1.7113662168e-004
  1.0316875000e+009  -5.4664053419e-004   7.6973365897e-004   9.9449550288e-001  -9.0982021430e-003   9.9913066392e-001  -3.3729199645e-003   1.3532884785e-004   4.2444522275e-005
  1.0402750000e+009  -5.1391764019e-005   7.6202293384e-004   9.9448234236e-001  -8.1496106678e-003   9.9988219886e-001  -1.9168211677e-003   3.7657046777e-004  -2.1824825794e-004
  1.0488625000e+009   3.3354906883e-004   6.8115300385e-004   9.9476361105e-001  -8.5389137479e-003   9.9966275602e-001  -3.0592164769e-003   5.9786453005e-004  -3.5047308448e-004
  1.0574500000e+009   7.2063278593e-004   3.2744542385e-004   9.9481192186e-001  -6.8756761156e-003   1.0000475409e+000  -2.6962353169e-003   7.0938764107e-004  -5.2299978989e-004
