# Hz S RI R 50.000000
! Metas.Vna.Tools, 2.8.8664.20301
! Metas.Vna.Data, 2.8.8664.20285
! Created: UTC 2024.02.11 10:08:48
! FREQ                re:S1,1             im:S1,1             re:S2,1             im:S2,1             re:S1,2             im:S1,2             re:S2,2             im:S2,2          
  1.3000000000e+008   1.0404938462e-003  -1.3792990488e-003   9.9409317025e-001  -6.2463357945e-003   1.0008109528e+000   3.4599294252e-005   1.1378601224e-003   1.1007018994e-003
  1.3858750000e+008  -9.8154925000e-004  -1.3534162711e-003   9.9385167097e-001  -5.5210552039e-003   1.0003254058e+000   3.2162013162e-004   1.8511210025e-003   1.8710870070e-004
  1.4717500000e+008  -2.1015880716e-003  -8.8244329718e-004   9.9170865787e-001  -6.1862568380e-003   9.9984868346e-001   6.2745594783e-004   1.3229466929e-003   1.1297415314e-004
  1.5576250000e+008  -1.3043226893e-003   1.9177910835e-004   9.9566177242e-001  -5.5812128343e-003   1.0003902015e+000   9.9284738162e-004   1.3209480512e-003  -3.2263332610e-004
  1.6435000000e+008  -7.3563922454e-004   5.2808519144e-004   9.9500039760e-001  -4.9127561357e-003   1.0007913497e+000   3.0173588733e-004   9.1488670375e-004  -9.7438830190e-004
  1.7293750000e+008  -5.0222161018e-004   4.3769201391e-004   9.9594860167e-001  -4.5079606043e-003   1.0006797322e+000   3.3714261878e-004   9.0853674361e-004  -1.0705341249e-003
  1.8152500000e+008  -7.1132361518e-004   5.9953125663e-004   9.9336502089e-001  -6.0142665381e-003   1.0003422951e+000  -2.9911019445e-004   6.4526292240e-004  -3.4730780694e-004
  1.9011250000e+008  -3.5652223428e-004   7.3432867264e-004   9.9502959645e-001  -6.3285805191e-003   1.0005538979e+000  -2.0715243691e-004   4.4022572042e-004  -1.0027885744e-003
  1.9870000000e+008  -2.2243887032e-004   8.2942243276e-004   9.9316180753e-001  -6.0205561333e-003   1.0001992144e+000  -6.3096359455e-005   5.2893027110e-004  -5.0635048840e-004
  2.0728750000e+008   2.0301853056e-004   6.5831693894e-004   9.9308539395e-001  -6.1942148127e-003   1.0005105068e+000  -4.7930241709e-004  -9.1576538464e-005  -5.5381400605e-004
  2.1587500000e+008   3.4512372791e-004  -1.3891022384e-004   9.9524452874e-001  -6.3401656823e-003   9.9994917405e-001   4.1430479352e-004  -4.4355164861e-004  -7.7794844520e-005
  2.2446250000e+008   1.8240757226e-004  -4.4065169131e-004   9.9438287692e-001  -5.9692006239e-003   1.0003745150e+000  -1.5892943729e-004  -2.3033113239e-004  -2.3295111362e-004
  2.3305000000e+008  -2.2941758641e-004  -5.1490322643e-005   9.9504128855e-001  -6.2085208612e-003   1.0011115041e+000  -1.1321266163e-004  -7.1027600844e-004   2.4748160683e-004
  2.4163750000e+008  -1.6738132753e-004  -5.3245674047e-004   9.9438989083e-001  -7.4155668749e-003   1.0003247531e+000  -7.8115512675e-004  -1.0947071297e-003   1.8813422009e-004
  2.5022500000e+008  -6.3169018197e-004  -9.1731218302e-004   9.9619435150e-001  -6.0297001112e-003   1.0002289158e+000  -1.7561561739e-004  -9.2246878391e-004   8.1547033753e-004
  2.5881250000e+008  -6.9770144653e-004  -8.6274012714e-004   9.9358613025e-001  -6.0270580831e-003   1.0009031365e+000  -7.7352897860e-004  -9.0856889707e-004   7.6462885054e-004
  2.6740000000e+008  -9.2547666998e-004  -5.5811178430e-004   9.9373670036e-001  -8.1203083774e-003   1.0004717927e+000  -8.1094731141e-004  -8.4843580543e-004   5.3096049624e-004
  2.7598750000e+008  -1.2203102103e-004  -2.8914769248e-004   9.9060792716e-001  -8.1581527177e-003   1.0005818381e+000  -9.4136499020e-004  -2.8889175841e-004   5.1031049950e-004
  2.8457500000e+008  -6.0390509364e-004  -3.2097701860e-004   9.9190316590e-001  -7.0247989425e-003   1.0009877370e+000   1.9134917261e-004  -2.7953819656e-004   6.0259102920e-004
  2.9316250000e+008  -6.5447281676e-004  -3.4772595455e-004   9.9082123651e-001  -7.3526316954e-003   1.0008168769e+000  -4.5245460732e-004  -1.1640643174e-004   5.9800398770e-004
  3.0175000000e+008  -6.1753107993e-004   2.1061698638e-004   9.9124424839e-001  -8.8345095847e-003   1.0002441924e+000   1.0749293758e-004  -6.1780788505e-004   5.6759851297e-004
  3.1033750000e+008  -7.7015665135e-004   1.8536943094e-004   9.9290495888e-001  -5.8036212215e-003   1.0010919104e+000  -6.0531901279e-004  -7.2037181007e-004   8.1292032214e-004
  3.1892500000e+008  -9.5308617924e-004   5.4616429013e-005   9.9258687139e-001  -8.3160838984e-003   9.9996744044e-001  -4.2978396887e-004  -5.5714034405e-004   4.4921816734e-004
  3.2751250000e+008  -6.7176020966e-004   9.0864943878e-005   9.9472757609e-001  -7.0880986134e-003   1.0003367714e+000  -1.1365788402e-003  -7.3531760997e-004   3.0696094163e-004
  3.3610000000e+008  -8.8575426230e-004   6.0206452903e-005   9.9561583481e-001  -6.6739919445e-003   1.0008215273e+000  -8.5590931517e-004  -4.9538973754e-004   1.4399323543e-004
  3.4468750000e+008  -6.3960595807e-004   2.9033524431e-004   9.9381229549e-001  -6.3400148708e-003   1.0007790904e+000  -5.4138111658e-004  -2.5228077413e-004   2.0810701287e-004
  3.5327500000e+008  -4.3828634659e-004   3.4307170494e-004   9.9529909577e-001  -7.1131791629e-003   9.9972207196e-001  -1.1281348778e-003  -6.1922347552e-004   1.2035919711e-004
  3.6186250000e+008  -5.1746542071e-004   2.6024183922e-004   9.9282626222e-001  -7.9577290770e-003   1.0007851975e+000  -1.7902940630e-004  -4.3781452989e-004   2.1905901191e-004
  3.7045000000e+008  -7.9352414865e-004   5.1721296170e-004   9.9183951619e-001  -7.3658691747e-003   1.0008767632e+000  -1.8872232753e-003  -6.5897025130e-004   7.1473181249e-005
  3.7903750000e+008  -3.2961329244e-004   5.9061004223e-004   9.9328388188e-001  -6.4213711794e-003   1.0005788007e+000  -5.9885849893e-004  -4.6797373358e-004   3.1539457292e-005
  3.8762500000e+008  -3.0391340592e-004   6.1909611204e-004   9.9795181760e-001  -6.4868845775e-003   1.0001349501e+000  -1.2028577418e-003  -4.5733465461e-004   3.8184679888e-004
  3.9621250000e+008   2.3692548881e-005   1.7005682532e-004   9.9578753716e-001  -6.8493134529e-003   1.0001138077e+000  -9.6285272260e-004  -4.1812217252e-004   2.5387588830e-004
  4.0480000000e+008   8.2962114619e-005   1.1687794484e-004   9.9710073259e-001  -6.1193222073e-003   1.0002391823e+000  -9.7690694071e-004  -4.9608951680e-005   2.4017825264e-004
  4.1338750000e+008   2.2558827321e-004   1.4495376897e-004   9.9587064818e-001  -5.2787394680e-003   1.0008187268e+000  -7.6887354168e-004  -8.1937714308e-005   3.5562239992e-004
  4.2197500000e+008   5.9373386016e-005  -1.5411285308e-004   9.9527913883e-001  -6.4180501288e-003   1.0007498506e+000  -1.1090547046e-003   1.6840246684e-005   5.7761096996e-004
  4.3056250000e+008   7.6227009655e-005   4.9159068672e-005   9.9323389386e-001  -7.1434785251e-003   1.0007592750e+000  -1.2335984353e-003   2.5229802602e-004   3.6798399692e-004
  4.3915000000e+008   2.4697578977e-004  -2.2128389465e-004   9.9415991177e-001  -5.7128565963e-003   1.0003471773e+000  -1.5673125501e-003   5.5309163280e-004   3.2037642780e-004
  4.4773750000e+008   1.1522710960e-004  -3.1385276646e-004   9.9433446507e-001  -7.7393279538e-003   1.0007046205e+000  -1.7080919418e-003   5.9749372765e-004   3.2424270668e-004
  4.5632500000e+008  -1.1816384964e-004  -4.9229434513e-004   9.9112419803e-001  -7.0328432462e-003   1.0005178078e+000  -1.2240329912e-003   5.5585566596e-004  -3.4989864566e-005
  4.6491250000e+008  -3.6890494037e-004  -3.8016058183e-004   9.9214676766e-001  -8.3767697161e-003   1.0002221278e+000  -1.2495885212e-003   6.8499587202e-004   1.6354372454e-004
  4.7350000000e+008  -4.1083893981e-004  -3.9424775153e-004   9.9162621281e-001  -7.2381633219e-003   1.0004106576e+000  -1.1001896624e-003   6.1864869918e-004   5.8465966345e-005
  4.8208750000e+008  -5.1313147622e-004   2.1912792685e-005   9.9014921887e-001  -8.1069227272e-003   9.9963887445e-001  -1.0872335026e-003   5.9069912836e-004   3.0523501641e-004
  4.9067500000e+008  -2.0204244608e-004  -2.8800693487e-004   9.8894045456e-001  -8.3542043716e-003   1.0003080747e+000  -1.4800871463e-003   3.8852361351e-004   3.4861976255e-005
  4.9926250000e+008  -2.6822999494e-004  -3.7768140098e-004   9.8960651570e-001  -7.7552599958e-003   1.0000551429e+000  -1.0409749094e-003   6.0856954448e-004   3.1834127655e-005
  5.0785000000e+008  -4.5762294229e-004  -1.6920256293e-004   9.8962712507e-001  -7.5944720988e-003   9.9979943661e-001  -4.9680694936e-004   6.4488176131e-004   2.8125934880e-004
  5.1643750000e+008  -6.0287933374e-004   2.0693741071e-005   9.8941710023e-001  -7.1746762900e-003   1.0005107629e+000  -1.0501178236e-003   7.8296653433e-004  -4.6393590657e-005
  5.2502500000e+008  -2.0512965936e-004   3.9689123825e-004   9.9322654021e-001  -5.4750453200e-003   1.0004919056e+000  -4.7823400719e-004   3.9731841811e-004  -3.7531995569e-004
  5.3361250000e+008   3.1045425557e-004   3.7002121077e-004   9.9355048552e-001  -6.7958888944e-003   1.0003656878e+000  -1.6050494831e-003   3.9840972667e-005  -5.5021091387e-004
  5.4220000000e+008   7.4603321816e-004  -1.5289542477e-004   9.9318332391e-001  -7.0375711844e-003   1.0006488261e+000  -1.6994680843e-003  -6.3247358677e-004  -4.7006691012e-004
  5.5078750000e+008   6.1338614632e-004  -5.1184918162e-004   9.9273246458e-001  -8.4078472227e-003   1.0000292019e+000  -2.3360340189e-003  -9.5139847196e-004  -2.5911519718e-004
  5.5937500000e+008   3.9819388104e-004  -6.9190996452e-004   9.8986208426e-001  -7.4480277564e-003   1.0001600305e+000  -1.6691315007e-003  -8.6344342368e-004   2.5348880029e-005
  5.6796250000e+008   2.4516555303e-004  -6.5664736936e-004   9.9001313554e-001  -8.2138757448e-003   1.0002295893e+000  -1.4003158229e-003  -9.2198810179e-004   2.4130234084e-004
  5.7655000000e+008  -2.1924802076e-004  -9.9053885050e-004   9.9186237829e-001  -1.0209383925e-002   1.0004741875e+000  -1.9927004155e-003  -8.1823174652e-004   6.5861188251e-004
  5.8513750000e+008  -4.9732702812e-004  -9.4196426385e-004   9.8952730766e-001  -8.7706610402e-003   9.9967017014e-001  -1.8828369084e-003  -9.2350531490e-004   8.3606642109e-004
  5.9372500000e+008  -5.2606972605e-004  -8.5419450722e-004   9.9089825777e-001  -7.9292681780e-003   9.9973798495e-001  -1.5910884204e-003  -7.5413799992e-004   7.7361399750e-004
  6.0231250000e+008  -7.8412137097e-004  -7.1859613770e-004   9.8961394568e-001  -8.6198983494e-003   1.0000112209e+000  -1.7947465220e-003  -6.0251436163e-004   7.1970184836e-004
  6.1090000000e+008  -9.0183338912e-004  -4.0654144185e-004   9.9083364659e-001  -1.0165589675e-002   1.0002880322e+000  -8.0113693833e-004  -6.1607292146e-004   8.0893628842e-004
  6.1948750000e+008  -9.1491382703e-004  -1.1420347565e-004   9.8896352871e-001  -8.2203779215e-003   9.9930448389e-001  -1.4517160475e-003  -4.0521160699e-004   6.3249570980e-004
  6.2807500000e+008  -8.1951599294e-004  -1.7808646235e-005   9.9043546820e-001  -1.1180559698e-002   1.0002068188e+000  -1.0375667791e-003  -1.5500846400e-004   3.4767600828e-004
  6.3666250000e+008  -4.8364904491e-004   4.6333682184e-004   9.9282250154e-001  -9.2552860844e-003   1.0002367710e+000  -1.9626181254e-003   5.6125195007e-005   2.4062729757e-004
  6.4525000000e+008  -2.1913999351e-004   5.3315029278e-004   9.9219011562e-001  -7.5044292943e-003   1.0002624464e+000  -1.6065866864e-003   2.7906487157e-004   7.0994517455e-005
  6.5383750000e+008   1.5524769378e-004   3.1483906296e-004   9.9079436662e-001  -8.6358042235e-003   9.9981566708e-001  -1.7486269324e-003   2.4637464801e-004  -1.1505424306e-004
  6.6242500000e+008   2.9780704839e-004   2.0741154238e-004   9.8824327774e-001  -8.4081471735e-003   1.0007626821e+000  -1.8092858433e-003   1.4934233356e-004  -3.1223398108e-004
  6.7101250000e+008   3.8080136600e-004  -1.6144773628e-004   9.9004182868e-001  -6.1902438090e-003   9.9982095210e-001  -1.2361380148e-003   3.0324173802e-004  -5.6823069930e-004
  6.7960000000e+008   7.0655079512e-004  -4.4738114325e-004   9.8920436292e-001  -8.5392847105e-003   1.0003798692e+000  -2.1611637050e-003   2.6047973582e-004  -9.3436726767e-004
  6.8818750000e+008   3.6202065523e-004  -7.0253789160e-004   9.9319503706e-001  -8.2368701882e-003   9.9970195352e-001  -1.9403975994e-003   1.8723302166e-004  -1.0328785466e-003
  6.9677500000e+008   3.9130922168e-004  -9.4088314190e-004   9.8958996141e-001  -8.9700757620e-003   9.9978950984e-001  -1.8894717601e-003  -2.2449683648e-004  -1.1273643668e-003
  7.0536250000e+008  -1.9708331743e-004  -9.6150506173e-004   9.8991532035e-001  -8.4989494867e-003   1.0001140403e+000  -2.1439489054e-003  -2.3096423636e-004  -1.3491325795e-003
  7.1395000000e+008  -6.1502108573e-004  -1.0105434409e-003   9.8982097153e-001  -8.9371164748e-003   9.9988041717e-001  -2.1051900137e-003  -5.1970193746e-004  -1.3219689166e-003
  7.2253750000e+008  -9.7020488876e-004  -9.5780408399e-004   9.8932237913e-001  -8.7014144596e-003   9.9995058792e-001  -1.8885884434e-003  -6.8319493069e-004  -1.2383668430e-003
  7.3112500000e+008  -1.0489556110e-003  -4.3726712518e-004   9.9287020281e-001  -7.1850514916e-003   1.0001553400e+000  -1.5605304273e-003  -8.0436947305e-004  -1.1402177858e-003
  7.3971250000e+008  -1.1224075317e-003  -1.2312926551e-004   9.9405650361e-001  -8.9316771872e-003   9.9954439444e-001  -2.2439489805e-003  -1.0785132165e-003  -8.5836431604e-004
  7.4830000000e+008  -1.0490245492e-003   3.7471115664e-004   9.9442597548e-001  -6.5482894193e-003   9.9913611670e-001  -1.5332085357e-003  -1.0071230213e-003  -9.7463765382e-004
  7.5688750000e+008  -1.0899623766e-003   4.2377076903e-004   9.9264321467e-001  -8.1946657225e-003   9.9987567328e-001  -2.0035543689e-003  -1.2120229840e-003  -5.8500332266e-004
  7.6547500000e+008  -3.4330052684e-004   7.2774367339e-004   9.9402260211e-001  -7.5688697711e-003   9.9928842528e-001  -1.9007177252e-003  -1.2725813583e-003  -1.6296131382e-004
  7.7406250000e+008  -1.0864170047e-004   9.2793758539e-004   9.9128257710e-001  -8.1610994836e-003   1.0002133202e+000  -1.8029083660e-003  -9.3880915029e-004   8.1768860041e-005
  7.8265000000e+008   3.1977838098e-004   7.0441426139e-004   9.9143591324e-001  -7.7765813842e-003   1.0001594788e+000  -1.5719645487e-003  -8.9526184593e-004   3.7816116471e-004
  7.9123750000e+008   6.3756974819e-004   4.7312008779e-004   9.9194565557e-001  -8.3217349845e-003   9.9985963954e-001  -1.4677317072e-003  -9.7595228676e-004   4.6695764572e-004
  7.9982500000e+008   8.0606561485e-004   4.3295595212e-004   9.9270201350e-001  -7.5716322827e-003   1.0001796616e+000  -1.7072543167e-003  -8.9397843550e-004   6.8751366484e-004
  8.0841250000e+008   1.0707577883e-003   2.3646250118e-004   9.9213061852e-001  -8.2033633725e-003   9.9945895698e-001  -1.1389002137e-003  -8.2774889873e-004   1.0049605364e-003
  8.1700000000e+008   1.3349392909e-003  -3.5005984840e-004   9.9305127458e-001  -7.6164369588e-003   9.9981116156e-001  -2.3716562876e-003  -6.9071381351e-004   1.2318227826e-003
  8.2558750000e+008   1.2611960562e-003  -5.7810817841e-004   9.9344005442e-001  -7.4496044707e-003   1.0011607253e+000  -2.4225979584e-003  -7.4160068494e-004   1.3272559055e-003
  8.3417500000e+008   1.0088010853e-003  -1.1399588589e-003   9.9296312019e-001  -8.3046813125e-003   1.0014188730e+000  -1.8390169741e-003  -3.1430020669e-004   1.5650161819e-003
  8.4276250000e+008   7.1843041640e-004  -1.3157472668e-003   9.9226299142e-001  -7.2035944216e-003   1.0001481816e+000  -2.5648270639e-003  -9.8337974873e-005   1.3977095454e-003
  8.5135000000e+008   1.6688486277e-004  -1.2182079178e-003   9.9324816577e-001  -6.3827872262e-003   1.0011680893e+000  -2.3659823029e-003   2.0078809110e-004   1.4093306545e-003
  8.5993750000e+008  -1.3817788515e-004  -1.2678807725e-003   9.9318227513e-001  -8.1102486410e-003   1.0005131850e+000  -2.6084158618e-003   3.5428680303e-004   1.3101262300e-003
  8.6852500000e+008  -4.9180975124e-004  -1.0096813330e-003   9.9172564944e-001  -8.7733587992e-003   9.9943176360e-001  -2.0237940913e-003   7.9378057630e-004   9.2464331682e-004
  8.7711250000e+008  -5.2142586203e-004  -7.3218695145e-004   9.9185660785e-001  -7.9523130555e-003   1.0005958855e+000  -2.1581295952e-003   5.8316740927e-004   4.4486787280e-004
  8.8570000000e+008  -4.6751501289e-004  -5.0473356414e-004   9.9409530035e-001  -6.8829506748e-003   9.9949849315e-001  -3.1602149906e-003   6.0010206081e-004   2.2700217060e-004
  8.9428750000e+008  -3.2405625972e-004  -2.6002333636e-004   9.9296937880e-001  -6.8681447284e-003   1.0003191985e+000  -2.5454315432e-003   3.8245921841e-004  -1.4492466003e-004
  9.0287500000e+008  -1.0483937531e-004  -2.2469181976e-004   9.9364810737e-001  -8.0098649472e-003   9.9958530788e-001  -2.9963186353e-003   1.9763974333e-004  -3.7956470216e-004
  9.1146250000e+008   2.7899547614e-004  -1.8386917086e-004   9.9149065155e-001  -8.6825652138e-003   9.9938220465e-001  -2.2701141586e-003  -2.4218787963e-004  -4.4185718023e-004
  9.2005000000e+008   1.9770937273e-004  -4.3758483414e-004   9.9235841589e-001  -8.0702859620e-003   9.9876981661e-001  -2.6942498795e-003  -5.4706468413e-004  -7.2640420571e-004
  9.2863750000e+008   4.7943348152e-004  -4.5497955075e-004   9.9450876542e-001  -6.9076064280e-003   9.9953072500e-001  -3.1456004903e-003  -6.1145537489e-004  -7.3821298596e-004
  9.3722500000e+008   3.9549013217e-004  -7.2334813243e-004   9.9272335701e-001  -6.8695178657e-003   9.9893002489e-001  -2.3832848525e-003  -9.9395891249e-004  -7.8354653240e-004
  9.4581250000e+008   3.6581280043e-004  -1.0536387589e-003   9.9300489166e-001  -7.6264220840e-003   9.9938693452e-001  -1.9270143116e-003  -1.2454668934e-003  -6.3086732045e-004
  9.5440000000e+008   6.2045066241e-005  -1.2608356046e-003   9.9140043187e-001  -8.8237883565e-003   1.0005026470e+000  -9.6641490709e-004  -1.3989441478e-003  -5.5482244215e-004
  9.6298750000e+008  -2.6213678869e-004  -1.2389474816e-003   9.9385365234e-001  -6.8094728095e-003   9.9983850328e-001  -2.5127993006e-003  -1.5384086676e-003  -3.3795912560e-004
  9.7157500000e+008  -5.2670457525e-004  -1.2149862155e-003   9.9189288142e-001  -8.0357065614e-003   1.0004479686e+000  -2.3388175668e-003  -1.5201649899e-003  -2.8765172081e-004
  9.8016250000e+008  -8.0836231455e-004  -1.1020085099e-003   9.9352420441e-001  -8.0228162099e-003   1.0003784878e+000  -3.0163122384e-003  -1.5739553558e-003  -4.0615310887e-005
  9.8875000000e+008  -1.0804547042e-003  -7.7038760664e-004   9.9475349812e-001  -6.6157750659e-003   9.9928763049e-001  -2.1313030891e-003  -1.4602931933e-003  -3.1094221732e-005
  9.9733750000e+008  -1.1464553891e-003  -4.0747269687e-004   9.9266929599e-001  -8.2576953647e-003   9.9920713928e-001  -2.1604129610e-003  -1.3539661116e-003   8.3188621872e-005
  1.0059250000e+009  -9.6071219485e-004  -7.6277095477e-005   9.9355256143e-001  -7.2954893142e-003   1.0000321507e+000  -2.1315516052e-003  -1.0110543316e-003   2.1194147858e-004
  1.0145125000e+009  -8.3157623023e-004   2.6054024930e-004   9.9258864380e-001  -1.0202713734e-002   9.9961415009e-001  -2.5420067447e-003  -5.6769552314e-004   2.4065263850e-004
  1.0231000000e+009  -5.5966120463e-004   4.1519583929e-004   9.9263552759e-001  -7.2583151569e-003   9.9948318191e-001  -2.4030969637e-003  -4.2197966053e-004   3.6537959815e-004
  1.0316875000e+009  -2.9251715395e-004   7.1528948460e-004   9.9323700759e-001  -8.6842108402e-003   9.9971632987e-001  -3.0666270527e-003  -1.2275363941e-004   1.3184493965e-004
  1.0402750000e+009   6.6865531389e-005   7.2222921330e-004   9.9220810372e-001  -7.9816669076e-003   9.9926653658e-001  -2.3741168330e-003   2.6562858298e-004   6.7419508085e-005
  1.0488625000e+009   3.9241264078e-004   5.5581286845e-004   9.9346519735e-001  -8.3531117058e-003   9.9992700440e-001  -2.4793017519e-003   5.4777504229e-004  -9.4648459385e-005
  1.0574500000e+009   6.4822442767e-004   2.7460167792e-004   9.9198021716e-001  -7.9547209766e-003   9.9976535920e-001  -2.9384633019e-003   7.3687104322e-004  -3.2310085660e-004
