# Hz S RI R 50.000000
! Metas.Vna.Tools, 2.8.8664.20301
! Metas.Vna.Data, 2.8.8664.20285
! Created: UTC 2024.02.11 10:08:44
! FREQ                re:S1,1             im:S1,1             re:S2,1             im:S2,1             re:S1,2             im:S1,2             re:S2,2             im:S2,2          
  1.3000000000e+008   2.2654046597e-004  -1.4676274250e-003   9.9329359973e-001  -6.1982114779e-003   1.0003210532e+000  -1.4409735016e-004   5.3153251425e-004   7.7918217295e-004
  1.3858750000e+008  -9.3345096872e-004  -1.3157587955e-003   9.9490536718e-001  -5.3420597449e-003   1.0005218534e+000   4.8692894389e-004   1.0186093133e-003  -4.8991222862e-004
  1.4717500000e+008  -1.9368321278e-003  -8.5402451967e-004   9.9378153010e-001  -6.2130820089e-003   1.0001474374e+000   6.6295525044e-004   8.8604429172e-004  -1.2159545623e-004
  1.5576250000e+008  -1.7858013815e-003   1.0427226746e-004   9.9435189056e-001  -5.1754409782e-003   1.0006553817e+000   3.1134511853e-004   1.3710008863e-003  -7.9216107990e-004
  1.6435000000e+008  -1.0214686665e-003   7.1622916968e-004   9.9474108963e-001  -5.5420795709e-003   1.0003666917e+000   8.7763555995e-005   7.7950611694e-004  -5.0827265389e-004
  1.7293750000e+008  -8.4347537929e-004   5.6086322932e-004   9.9309897439e-001  -5.1458103417e-003   1.0002822800e+000   4.6958975468e-004   9.6668830030e-004  -8.0047757747e-004
  1.8152500000e+008  -4.5531929914e-004   7.2570373181e-004   9.9349016663e-001  -6.3502605793e-003   9.9986999895e-001   1.0200284153e-004   2.8598049742e-004  -1.0385482337e-003
  1.9011250000e+008  -3.2903484084e-004   4.1544708825e-004   9.9487090668e-001  -7.2707176185e-003   1.0004280553e+000   9.1812123066e-005   4.8085479373e-004  -1.2524905620e-003
  1.9870000000e+008  -2.7697556748e-005   1.1753777934e-003   9.9431993928e-001  -6.4615345787e-003   1.0008084631e+000  -1.6108713126e-004   3.4430239561e-004  -2.6574540096e-004
  2.0728750000e+008   4.2868139186e-004   4.2197971063e-004   9.9236084177e-001  -5.2329433736e-003   1.0007412189e+000  -6.0710846133e-004   1.7870865772e-004  -3.5798081458e-004
  2.1587500000e+008   4.6604575963e-004  -3.9093902729e-004   9.9482623594e-001  -6.0034905167e-003   9.9954918616e-001  -1.7890762424e-004  -5.4265463446e-004   3.5666153733e-004
  2.2446250000e+008   4.7084483406e-004  -5.1849079317e-004   9.9421469263e-001  -5.7291714849e-003   1.0002187089e+000  -2.2664090921e-004  -1.6563229139e-004   2.4159040875e-004
  2.3305000000e+008  -3.4391836648e-005  -3.7077908410e-004   9.9361379258e-001  -6.3846761385e-003   1.0004069053e+000  -4.1923927369e-004  -1.5691731572e-004   1.9079876606e-004
  2.4163750000e+008  -1.5422495503e-004  -5.9394854449e-004   9.9223040350e-001  -7.7108257256e-003   9.9976182636e-001  -1.0168758309e-003  -3.4402216113e-004   2.2880910649e-004
  2.5022500000e+008  -3.0907518136e-004  -6.7389415261e-004   9.9440719852e-001  -5.9162619970e-003   1.0006439771e+000  -1.4471573148e-004  -6.3835552625e-004   7.5958038275e-004
  2.5881250000e+008  -5.5047620622e-004  -6.8946333187e-004   9.9274576301e-001  -6.4418336021e-003   1.0002885764e+000  -1.0137707060e-003  -6.1340881140e-004   9.0622791362e-004
  2.6740000000e+008  -6.9158854528e-004  -4.7317544036e-004   9.9315644271e-001  -7.6904135105e-003   1.0003635508e+000  -8.1690432591e-004  -8.5722742638e-004   5.3215127384e-004
  2.7598750000e+008  -1.8473560181e-004  -2.7095824149e-004   9.9249438533e-001  -6.4085231095e-003   1.0003699691e+000  -3.2978885672e-005  -5.5778461663e-004   1.1190539707e-003
  2.8457500000e+008  -5.7646629246e-004  -3.3706274542e-004   9.9153735353e-001  -6.4912473459e-003   1.0004435774e+000  -5.8899061930e-005  -2.2454631411e-004   3.7587044588e-004
  2.9316250000e+008  -5.7423633457e-004  -2.0340902769e-004   9.9261329546e-001  -6.8471455484e-003   1.0007242383e+000  -8.7425526251e-004  -2.3501369250e-004   3.4772508583e-004
  3.0175000000e+008  -1.0620045705e-003   4.7500599446e-004   9.9228065636e-001  -9.0868084248e-003   1.0007540266e+000  -1.0011230877e-003  -4.4734363657e-004   2.6636322985e-004
  3.1033750000e+008  -9.5115708333e-004   2.1358656684e-005   9.9392933312e-001  -6.0976995775e-003   1.0018693929e+000  -1.2150048122e-003  -7.9062360453e-004   5.0427375394e-004
  3.1892500000e+008  -7.7271125353e-004   1.6306767349e-004   9.9359980416e-001  -6.8346839817e-003   1.0000024708e+000  -9.8640616742e-005  -7.8382251507e-004   2.4638323785e-004
  3.2751250000e+008  -8.7591742938e-004   2.4535913906e-004   9.9466752104e-001  -7.1617122262e-003   1.0007851246e+000  -1.0252546887e-003  -6.0510691875e-004   2.1204009484e-004
  3.3610000000e+008  -8.5968971774e-004   2.6524438308e-004   9.9450032990e-001  -4.4542220659e-003   1.0008908832e+000  -8.2863966926e-004  -5.4706843222e-004   2.1076706091e-004
  3.4468750000e+008  -7.2348057434e-004   1.2297641070e-004   9.9276314957e-001  -5.3287591471e-003   1.0009073618e+000  -6.5466916514e-004  -4.0781159809e-004   1.1422547962e-004
  3.5327500000e+008  -5.2889736957e-004   1.7349190330e-004   9.9314745594e-001  -7.3078338708e-003   9.9897481395e-001  -1.2045169163e-003  -7.7562158546e-004   2.1940349387e-004
  3.6186250000e+008  -4.6629918902e-004   3.4037320368e-004   9.9380441425e-001  -7.4968399323e-003   1.0003772124e+000  -6.5503514557e-004  -5.7855804527e-004   3.8371016434e-004
  3.7045000000e+008  -6.2574436188e-004   5.3080702739e-004   9.9269031325e-001  -7.4153918333e-003   1.0004516505e+000  -1.5153266778e-003  -6.5222198662e-004   1.9496435788e-004
  3.7903750000e+008  -4.5050687811e-004   6.4919260025e-004   9.9328848380e-001  -6.6240641323e-003   1.0003562472e+000  -9.4748374420e-004  -5.7745267596e-004   2.7137927292e-004
  3.8762500000e+008  -3.9339743556e-004   4.6972115142e-004   9.9561964734e-001  -6.4596091379e-003   1.0002069760e+000  -7.2535807811e-004  -5.7921877235e-004   7.4824169033e-004
  3.9621250000e+008  -1.0735684681e-004   2.9256765193e-004   9.9327639672e-001  -6.9336575644e-003   1.0003437513e+000  -1.2141798318e-003  -4.1376774899e-004   5.5962331824e-004
  4.0480000000e+008   3.2218165188e-004   3.1601251483e-004   9.9519199615e-001  -7.2280139136e-003   1.0005439298e+000  -1.2314845629e-003  -3.2129864611e-004   3.1649624028e-004
  4.1338750000e+008   3.4606790752e-004   2.2800869360e-004   9.9483701498e-001  -5.5434539085e-003   1.0010040543e+000  -1.0766506587e-003   2.8907141620e-004   4.7159598769e-004
  4.2197500000e+008   2.0622169333e-005   5.6423307281e-005   9.9486968341e-001  -6.6118796529e-003   1.0004856307e+000  -1.0788744504e-003   1.3933699317e-004   8.3734616678e-004
  4.3056250000e+008   1.3295619757e-004  -3.5588613986e-005   9.9372356157e-001  -6.6872355385e-003   1.0006484056e+000  -1.3871624632e-003   3.7010654145e-004   4.0152990905e-004
  4.3915000000e+008   1.6004673653e-004  -2.0071579649e-004   9.9656612032e-001  -5.1740488703e-003   1.0004413209e+000  -1.7069037436e-003   6.0243323822e-004   3.3217131750e-004
  4.4773750000e+008   5.8485467766e-005  -3.0768268982e-004   9.9561726890e-001  -6.4246751470e-003   1.0000746271e+000  -1.5863488913e-003   5.9968887689e-004   7.9373442560e-005
  4.5632500000e+008  -1.8401347270e-004  -3.9282799597e-004   9.9349974907e-001  -6.2460239536e-003   1.0004005998e+000  -1.5027608173e-003   7.5757103847e-004   1.5479327222e-004
  4.6491250000e+008  -4.2231022687e-004  -3.0805200587e-004   9.9535642349e-001  -6.6607676720e-003   1.0001670620e+000  -1.3160162545e-003   7.4707320543e-004   4.6984753438e-005
  4.7350000000e+008  -4.9127850291e-004  -2.6155115652e-004   9.9519703274e-001  -6.5617310373e-003   1.0003528668e+000  -1.1078770604e-003   6.6745916267e-004   8.6313942108e-005
  4.8208750000e+008  -4.9192587504e-004   3.0383374373e-005   9.9367687449e-001  -6.4237206825e-003   9.9986020574e-001  -8.5823106478e-004   6.2078518594e-004   8.8854971191e-005
  4.9067500000e+008  -2.2218072554e-004  -2.2842061954e-004   9.9292356220e-001  -7.1699380774e-003   1.0001287833e+000  -1.4763294480e-003   5.0497130020e-004  -1.3665165115e-004
  4.9926250000e+008  -3.0922805033e-004  -1.9878745607e-004   9.9202531670e-001  -7.1907994321e-003   9.9994725901e-001  -1.7326392712e-003   6.3271120856e-004  -4.7597379442e-005
  5.0785000000e+008  -4.6053584320e-004  -1.3252435808e-004   9.9134657482e-001  -7.2620386512e-003   9.9988588370e-001  -6.3929648750e-004   4.4553115234e-004   1.7382058496e-004
  5.1643750000e+008  -4.0558466059e-004  -7.5255223696e-005   9.9187374828e-001  -5.8643346265e-003   1.0004753022e+000  -1.2857219395e-003   5.2473813164e-004  -2.0321872560e-004
  5.2502500000e+008  -8.0263289478e-005   3.0447487433e-004   9.9194096813e-001  -5.7418039189e-003   1.0005545675e+000  -8.3375425324e-004   1.8309692529e-004  -2.8469267142e-004
  5.3361250000e+008   4.1511711196e-004   2.6565580779e-004   9.9310660316e-001  -7.4058326374e-003   1.0005969956e+000  -9.6009016253e-004  -1.4122652717e-004  -2.9543044629e-004
  5.4220000000e+008   6.2016918372e-004   1.7664337120e-004   9.9223886807e-001  -7.6436125396e-003   1.0008247226e+000  -1.8004548462e-003  -9.8233496829e-004  -3.1451498574e-004
  5.5078750000e+008   6.5688060681e-004  -5.3989213825e-004   9.9220036737e-001  -9.2009159923e-003   1.0001367907e+000  -2.0365579803e-003  -8.7888613299e-004  -1.4633217471e-004
  5.5937500000e+008   3.8478050965e-004  -5.7239549150e-004   9.9133921564e-001  -6.5379162401e-003   1.0006404356e+000  -1.9238712714e-003  -8.5059707276e-004   3.7402905833e-005
  5.6796250000e+008   3.4502777595e-004  -7.9618502666e-004   9.9379682623e-001  -7.1807835109e-003   1.0003432009e+000  -1.2943897400e-003  -9.3885138445e-004   4.0747621844e-004
  5.7655000000e+008  -1.3850853677e-004  -1.0570436703e-003   9.9130885399e-001  -1.0485452593e-002   9.9993698719e-001  -1.9229624931e-003  -7.1737368031e-004   8.7665628352e-004
  5.8513750000e+008  -4.2093265693e-004  -9.8235506095e-004   9.8959807578e-001  -8.9823747926e-003   1.0003742607e+000  -1.3725543016e-003  -6.7834371469e-004   9.4113003988e-004
  5.9372500000e+008  -5.6763052404e-004  -8.7483139176e-004   9.8927579334e-001  -8.6864450893e-003   1.0004450226e+000  -1.8042225204e-003  -5.5688258918e-004   9.8267343483e-004
  6.0231250000e+008  -1.1726179596e-003  -6.1227195985e-004   9.8898085411e-001  -7.2880534372e-003   1.0001279170e+000  -1.5309744511e-003  -3.4879055146e-004   1.1117341319e-003
  6.1090000000e+008  -9.5792079257e-004  -2.7589765369e-004   9.9002480489e-001  -9.1241375575e-003   9.9960029701e-001  -1.7576355069e-003  -3.9294596409e-004   8.9449591198e-004
  6.1948750000e+008  -9.2848539994e-004  -4.1298298923e-005   9.8946921431e-001  -8.5077899142e-003   9.9934254546e-001  -1.1793548203e-003  -2.9353800717e-004   6.2892012493e-004
  6.2807500000e+008  -9.1011316889e-004   2.1135112255e-004   9.9097898688e-001  -8.3962538897e-003   1.0007067733e+000  -1.0637120647e-003   6.5053663334e-005   4.5090628915e-004
  6.3666250000e+008  -4.7242226779e-004   4.8347183756e-004   9.9167045311e-001  -7.4477305106e-003   1.0008488372e+000  -2.2863728049e-003   2.5821637525e-004   3.2277153601e-004
  6.4525000000e+008  -1.5970327181e-004   4.3794619321e-004   9.9083622850e-001  -7.9998619074e-003   1.0004769324e+000  -1.2706623773e-003   2.9709197962e-004  -2.3860187206e-005
  6.5383750000e+008   1.4793208434e-004   3.2216383048e-004   9.9052575017e-001  -7.4927093071e-003   9.9975450394e-001  -1.4902739341e-003   2.3405117691e-004  -3.1479696641e-004
  6.6242500000e+008   4.7075794099e-004  -1.8439249445e-005   9.8832807184e-001  -8.6795997231e-003   1.0006070324e+000  -2.2707609237e-003   3.1792728086e-004  -4.2487296190e-004
  6.7101250000e+008   4.8270291305e-004  -1.7259406718e-005   9.8927947893e-001  -8.0770262208e-003   1.0003990841e+000  -8.7339177445e-004   2.8963460701e-004  -7.9081913399e-004
  6.7960000000e+008   7.2126302296e-004  -4.6604969292e-004   9.8958523292e-001  -7.1237218301e-003   1.0006646183e+000  -1.4824898838e-003   1.8355188902e-004  -1.0450273956e-003
  6.8818750000e+008   1.4871257011e-004  -9.3727926455e-004   9.8879854855e-001  -8.2740136824e-003   1.0004184009e+000  -2.2537643176e-003  -3.7340769280e-005  -1.0447149934e-003
  6.9677500000e+008   2.2289354014e-004  -9.8614635647e-004   9.9057141563e-001  -7.7192707017e-003   9.9982063977e-001  -1.8609108161e-003  -2.5688582545e-004  -1.2696347725e-003
  7.0536250000e+008  -2.7352020400e-004  -1.0665858494e-003   9.8887552694e-001  -9.2748781599e-003   1.0007412841e+000  -2.3367561362e-003  -3.8154637929e-004  -1.3428213665e-003
  7.1395000000e+008  -5.9492261803e-004  -9.7471381187e-004   9.9048898602e-001  -7.5908701089e-003   1.0000196186e+000  -1.5172220115e-003  -6.7492029874e-004  -1.1365669476e-003
  7.2253750000e+008  -1.0817054151e-003  -9.1193946931e-004   9.8764374451e-001  -8.5309856736e-003   9.9997557782e-001  -2.1761159801e-003  -7.0822809683e-004  -1.2296140933e-003
  7.3112500000e+008  -9.7649921483e-004  -4.8224014326e-004   9.9035385688e-001  -8.8814858372e-003   1.0004475531e+000  -1.6825021930e-003  -1.0210816383e-003  -8.7817977006e-004
  7.3971250000e+008  -1.0152004676e-003  -1.4760475739e-004   9.8909315303e-001  -9.1625397462e-003   9.9964679820e-001  -2.0661206537e-003  -1.2276413955e-003  -7.1031124685e-004
  7.4830000000e+008  -9.6651384833e-004   4.5285814366e-004   9.8971806319e-001  -6.7757515377e-003   9.9914257366e-001  -1.5371425398e-003  -1.0602665851e-003  -5.7635652609e-004
  7.5688750000e+008  -8.5201086043e-004   6.6801585099e-004   9.8949738756e-001  -8.9481374996e-003   9.9918876443e-001  -2.3800454149e-003  -1.2365593678e-003  -2.3485454043e-004
  7.6547500000e+008  -2.0778212242e-004   8.6635822907e-004   9.8963037456e-001  -8.8227911003e-003   9.9936420877e-001  -1.9120798433e-003  -1.2334940790e-003   3.3961999267e-005
  7.7406250000e+008   1.5110022808e-005   7.3273071737e-004   9.9317354415e-001  -7.2898959539e-003   9.9982404160e-001  -2.0424715839e-003  -9.1823673172e-004   2.9527263857e-004
  7.8265000000e+008   3.8564494395e-004   6.3993751993e-004   9.9195953317e-001  -7.6067310877e-003   9.9987516456e-001  -1.9062217008e-003  -7.1400209169e-004   6.5080707687e-004
  7.9123750000e+008   6.4159430813e-004   4.5446262670e-004   9.9396701331e-001  -7.0749670831e-003   9.9972772444e-001  -2.0299342383e-003  -7.9158424370e-004   6.7640292023e-004
  7.9982500000e+008   7.8775303081e-004   2.7923440389e-004   9.9274678254e-001  -6.3839206268e-003   1.0002208711e+000  -1.8377555026e-003  -5.1994538410e-004   8.6778949149e-004
  8.0841250000e+008   1.0122678185e-003   1.0229834442e-005   9.9310101150e-001  -7.1323377526e-003   1.0000257526e+000  -2.6183454384e-003  -3.2462188069e-004   9.6455225983e-004
  8.1700000000e+008   1.2081867872e-003  -2.4754443607e-004   9.9235832219e-001  -7.2883173689e-003   1.0006012990e+000  -1.7251624781e-003  -3.5860759872e-004   1.0916675328e-003
  8.2558750000e+008   1.1149395028e-003  -5.5048400409e-004   9.9432751832e-001  -6.3610243957e-003   1.0006896552e+000  -2.1040164440e-003  -3.1054549726e-004   1.1457601226e-003
  8.3417500000e+008   1.0004902129e-003  -1.1229770121e-003   9.9419408469e-001  -7.5072724287e-003   1.0009903717e+000  -2.2699657841e-003  -1.8079565264e-004   1.3365878955e-003
  8.4276250000e+008   5.1309941421e-004  -1.2881302560e-003   9.9178475269e-001  -6.7700148867e-003   9.9949208674e-001  -2.1152682803e-003   3.6354365795e-005   1.1410257260e-003
  8.5135000000e+008  -1.1313146550e-005  -1.2771990733e-003   9.9208982804e-001  -6.9036822737e-003   1.0006650098e+000  -1.7970069796e-003   2.1453749629e-004   1.1600017286e-003
  8.5993750000e+008  -1.5679010095e-004  -1.1753130199e-003   9.9335400070e-001  -7.0786399851e-003   1.0001685161e+000  -2.4994646759e-003   3.1191828457e-004   9.2531892924e-004
  8.6852500000e+008  -5.3599993641e-004  -9.5542406981e-004   9.8889908219e-001  -8.6942432212e-003   1.0004688638e+000  -2.6598302310e-003   5.1284834229e-004   6.0757567430e-004
  8.7711250000e+008  -4.8677869492e-004  -6.6483656274e-004   9.8794970060e-001  -1.0501748771e-002   1.0003962898e+000  -2.6146109408e-003   4.7007390873e-004   1.9127617970e-004
  8.8570000000e+008  -2.6558070665e-004  -3.4612760345e-004   9.9164967283e-001  -8.1557013134e-003   9.9979051169e-001  -2.9025413301e-003   3.4041037652e-004  -9.4333893626e-005
  8.9428750000e+008  -2.0076297864e-004  -2.3942342043e-004   9.8899673008e-001  -9.1571954647e-003   1.0001170444e+000  -3.0664645994e-003  -9.3949958987e-005  -2.8753580731e-004
  9.0287500000e+008   4.0423961342e-006  -2.0655299300e-004   9.9160331637e-001  -9.2634414398e-003   9.9949869740e-001  -2.8272242169e-003  -2.2001069536e-004  -4.9979421381e-004
  9.1146250000e+008   2.4516485482e-004  -2.5764338723e-004   9.9007849581e-001  -9.9125184490e-003   9.9928037332e-001  -2.7466459508e-003  -6.2269157941e-004  -5.6741402943e-004
  9.2005000000e+008   3.7496988553e-004  -3.9363033442e-004   9.8989607735e-001  -8.4099267528e-003   9.9898191422e-001  -1.5528172578e-003  -8.0064420797e-004  -4.1940677508e-004
  9.2863750000e+008   4.3150978395e-004  -6.6265175197e-004   9.8947690335e-001  -8.6646386213e-003   9.9931919988e-001  -3.0722268082e-003  -1.0256497300e-003  -5.2288629824e-004
  9.3722500000e+008   3.1982842209e-004  -8.3379325044e-004   9.9150450607e-001  -8.4259185733e-003   9.9881494372e-001  -2.9935666812e-003  -1.2444073714e-003  -4.9214817190e-004
  9.4581250000e+008   2.4320823536e-004  -1.1750741927e-003   9.9024504165e-001  -7.3317923560e-003   9.9928412542e-001  -2.2043496853e-003  -1.3446684642e-003  -3.3073748942e-004
  9.5440000000e+008  -2.9581506454e-005  -1.4010856551e-003   9.8847243275e-001  -7.8551491394e-003   9.9994596446e-001  -1.5621078289e-003  -1.3887383051e-003  -3.0243991059e-004
  9.6298750000e+008  -2.8706901377e-004  -1.3653854091e-003   9.9078545331e-001  -7.4933407712e-003   9.9982084056e-001  -3.3523997701e-003  -1.4440871478e-003   5.4281527881e-005
  9.7157500000e+008  -6.3409526495e-004  -1.1998380337e-003   9.9119649223e-001  -9.0140167746e-003   1.0001822271e+000  -2.3762058837e-003  -1.4658016895e-003   8.9950942050e-007
  9.8016250000e+008  -7.4760458308e-004  -1.0499013370e-003   9.9296819642e-001  -8.5036076712e-003   9.9990859510e-001  -3.4055468938e-003  -1.4203691941e-003   1.6651876056e-004
  9.8875000000e+008  -1.1382836429e-003  -6.0962858355e-004   9.9390898985e-001  -6.4939378287e-003   9.9915538501e-001  -2.2954501493e-003  -1.2609802602e-003   1.4874893936e-004
  9.9733750000e+008  -1.0802088827e-003  -3.0283378930e-004   9.8815205057e-001  -8.3211953000e-003   9.9975150636e-001  -1.9153703637e-003  -9.3487231861e-004   1.4269655060e-004
  1.0059250000e+009  -9.5365141000e-004   1.1589966128e-004   9.9050721567e-001  -8.9386214251e-003   1.0000287498e+000  -2.5234209490e-003  -5.9894172066e-004   3.1079407577e-004
  1.0145125000e+009  -7.6698064766e-004   3.3731947882e-004   9.8901031046e-001  -9.8224801671e-003   9.9971412467e-001  -2.0124205851e-003  -3.0221389466e-004   1.9381398778e-004
  1.0231000000e+009  -5.7877402987e-004   3.2934727431e-004   9.8910595492e-001  -7.8956031998e-003   1.0004416873e+000  -2.7554787409e-003  -1.1031027956e-004   7.9680649886e-005
  1.0316875000e+009  -2.5057885738e-004   7.0651650312e-004   9.9026274498e-001  -9.0863743659e-003   9.9936187096e-001  -2.9064045213e-003   1.4260638253e-004   2.3349223114e-005
  1.0402750000e+009   1.7608082993e-004   7.4629690825e-004   9.8934784939e-001  -8.7398639750e-003   9.9987637678e-001  -2.0561714963e-003   3.9008375666e-004  -2.2263925327e-004
  1.0488625000e+009   4.6829871292e-004   4.3396573782e-004   9.9139961768e-001  -8.6390085720e-003   9.9896145024e-001  -2.6048793825e-003   6.9602545117e-004  -4.5218033091e-004
  1.0574500000e+009   6.6860247758e-004   1.0625372567e-004   9.8986463972e-001  -8.3606588182e-003   9.9947632012e-001  -3.5722159125e-003   7.2791951835e-004  -5.9222859467e-004
