# Hz S RI R 50.000000
! Metas.Vna.Tools, 2.8.8664.20301
! Metas.Vna.Data, 2.8.8664.20285
! Created: UTC 2024.02.11 10:08:15
! FREQ                re:S1,1             im:S1,1             re:S2,1             im:S2,1             re:S1,2             im:S1,2             re:S2,2             im:S2,2          
  1.3000000000e+008   7.3165441163e-006  -1.3898823817e-003   9.9723984988e-001  -4.5242201974e-003   9.9995130644e-001  -1.6034187036e-003   9.9818451265e-004   7.6541038944e-004
  1.3858750000e+008  -2.8691101403e-004  -1.4453933676e-003   9.9764956194e-001  -3.6371149785e-003   1.0004802928e+000  -2.7298173107e-004   1.2922284261e-003  -2.3911257923e-004
  1.4717500000e+008  -1.4900206521e-003  -8.8670950201e-004   9.9657729167e-001  -5.4487180671e-003   1.0002164645e+000  -9.6019451744e-004   6.4449969065e-004  -5.1272969220e-004
  1.5576250000e+008  -9.4538282954e-004   1.6261434143e-004   9.9697590818e-001  -3.9005084708e-003   1.0004268280e+000  -1.0528893912e-003   8.0413915110e-004  -7.9990657313e-004
  1.6435000000e+008  -1.0427906925e-003   7.1398263367e-004   9.9939117613e-001  -2.8665986766e-003   1.0007282685e+000  -8.4097401521e-004   6.4859288106e-004  -8.2491966496e-004
  1.7293750000e+008  -8.0518696988e-004   1.2020473283e-003   9.9803626743e-001  -3.9795538435e-003   1.0003494213e+000  -1.0571888370e-003   6.7274478838e-004  -6.2668266001e-004
  1.8152500000e+008  -4.3876897853e-004   5.4695990161e-004   9.9604955381e-001  -4.5901494803e-003   1.0000384735e+000  -1.3353537018e-003   4.8479829648e-004  -7.4852919470e-004
  1.9011250000e+008  -4.2090736094e-004   6.6336270351e-004   9.9834640890e-001  -5.5323294266e-003   1.0006132135e+000  -1.1796258314e-003  -4.2220304871e-006  -1.3114600597e-003
  1.9870000000e+008  -8.1629584934e-004   7.6811881457e-004   9.9767187483e-001  -3.5707194716e-003   1.0006600178e+000  -1.5651691560e-003   4.7028511812e-004  -1.9542586651e-004
  2.0728750000e+008   2.9883949764e-004   1.5325440370e-004   9.9767788206e-001  -4.1889115397e-003   1.0005506969e+000  -1.2986904650e-003   1.6510747654e-005  -5.0133364218e-004
  2.1587500000e+008   3.3093486413e-004  -2.9007018471e-004   9.9661977687e-001  -5.6049590946e-003   9.9992116066e-001  -1.2047981913e-003  -5.5629625952e-004   3.4772892435e-004
  2.2446250000e+008   5.6279502199e-004  -4.4289919716e-004   9.9729877340e-001  -4.3442081235e-003   1.0004898501e+000  -1.4935541604e-003  -3.7510817217e-005   1.8755196996e-005
  2.3305000000e+008   2.4923458781e-005  -1.2310546134e-004   9.9809402690e-001  -4.1488560915e-003   1.0004943821e+000  -1.2871258463e-003  -2.9054811958e-004   3.6533491330e-004
  2.4163750000e+008  -4.0253375518e-004  -1.3491204787e-004   9.9792044611e-001  -6.3465853060e-003   1.0003314720e+000  -1.6439292565e-003  -5.1696781808e-004   3.7921643277e-004
  2.5022500000e+008  -6.3490873445e-004  -6.9487489921e-004   9.9769453730e-001  -4.0996957040e-003   1.0002323467e+000  -1.4076575507e-003  -9.4536201619e-004   6.6224412919e-004
  2.5881250000e+008  -2.9160581101e-004  -3.4343366955e-004   9.9782861053e-001  -3.3598454867e-003   1.0009715111e+000  -2.5462197279e-003  -4.6653827778e-004   1.0012857281e-003
  2.6740000000e+008  -7.9195764737e-004  -6.9400295132e-004   9.9796331867e-001  -5.2424195043e-003   9.9997396592e-001  -2.0685551452e-003  -5.6158454121e-004   3.9788424187e-004
  2.7598750000e+008  -2.6104022047e-004  -5.0658694249e-004   9.9649413713e-001  -5.9297767181e-003   1.0002800352e+000  -1.9940205083e-003  -5.2955355975e-004   5.6400627361e-004
  2.8457500000e+008  -6.4798319457e-004  -2.3760407412e-004   9.9638987980e-001  -5.3891002469e-003   1.0008373919e+000  -1.6735767552e-003  -1.8720804021e-004   6.5898400359e-004
  2.9316250000e+008  -6.7280136121e-004  -5.3540110843e-004   9.9765241605e-001  -6.0121948615e-003   1.0006953685e+000  -1.9550478111e-003  -1.5568308893e-004   6.7520878213e-004
  3.0175000000e+008  -1.2011594717e-003   1.2302020842e-005   9.9702690223e-001  -6.6891892651e-003   1.0005378174e+000  -1.6302779210e-003  -4.9614176453e-004   4.2327820445e-004
  3.1033750000e+008  -1.0600961723e-003   1.5312857618e-004   9.9806390237e-001  -4.0230638056e-003   1.0009225208e+000  -1.8470667554e-003  -6.1324161032e-004   4.7161383890e-004
  3.1892500000e+008  -8.8725478781e-004   7.2279538572e-005   9.9609428107e-001  -5.6882297047e-003   9.9987772103e-001  -1.4076091187e-003  -6.6102464203e-004   3.0706500914e-004
  3.2751250000e+008  -6.4357873887e-004   5.3542547570e-005   9.9760612603e-001  -5.9779280208e-003   1.0005908871e+000  -2.5112951590e-003  -6.0643320883e-004   2.4116666877e-004
  3.3610000000e+008  -6.0599199032e-004   9.4865458243e-005   9.9788209025e-001  -5.0977334010e-003   1.0021733594e+000  -2.2467240445e-003  -7.6199032823e-004   1.1132626674e-004
  3.4468750000e+008  -5.6992562615e-004   2.7668077054e-004   9.9593621618e-001  -5.0592702789e-003   9.9968069838e-001  -1.9174229323e-003  -5.1260397432e-004   1.2227252907e-004
  3.5327500000e+008  -6.9831234414e-004   5.1540750350e-004   9.9592716008e-001  -6.1622560891e-003   9.9905795475e-001  -2.7117408644e-003  -4.4360174017e-004   3.7677868059e-004
  3.6186250000e+008  -3.7251447784e-004   2.7335483133e-004   9.9836274101e-001  -5.9070452733e-003   1.0005026097e+000  -2.1896357930e-003  -5.7642882136e-004   3.5775125709e-004
  3.7045000000e+008  -6.8089229705e-004   6.0774173597e-004   9.9459902620e-001  -6.0277952586e-003   1.0006882861e+000  -2.2553915658e-003  -6.8797771660e-004   2.4804676712e-004
  3.7903750000e+008  -1.3623615410e-004   6.8266014952e-004   9.9708749900e-001  -6.4095202040e-003   1.0004760599e+000  -1.9205299715e-003  -3.4841863955e-004  -1.0599737752e-004
  3.8762500000e+008  -2.5757142690e-004   4.6298550072e-004   9.9865012032e-001  -4.3375986326e-003   1.0001946170e+000  -2.4072343811e-003  -3.3013937897e-004   5.9997951624e-004
  3.9621250000e+008   7.1289356211e-005   2.1616380736e-004   9.9759520085e-001  -5.5109707693e-003   1.0003163557e+000  -2.2482894203e-003  -4.0745613124e-004   5.9620816900e-004
  4.0480000000e+008   9.6381541434e-005   2.1426587986e-004   9.9809195190e-001  -4.5965648139e-003   1.0003103576e+000  -2.2193833163e-003  -1.2071921847e-004   2.3409004882e-004
  4.1338750000e+008   3.3583038486e-004   2.4020422402e-004   9.9781879807e-001  -4.3591618100e-003   1.0010524396e+000  -2.2876439831e-003  -1.0661009375e-004   3.4001544728e-004
  4.2197500000e+008  -8.5528154904e-005  -1.1135253317e-004   9.9701571697e-001  -6.4433308453e-003   1.0005912076e+000  -2.6975065237e-003   2.1234436010e-004   4.4856720688e-004
  4.3056250000e+008   1.2666727682e-004   1.3425928733e-005   9.9849435224e-001  -6.0561466766e-003   1.0009753191e+000  -2.4314008213e-003   4.0848709508e-004   4.3476542618e-004
  4.3915000000e+008  -2.9889585135e-005  -1.1228994936e-004   1.0009144559e+000  -3.4450956542e-003   1.0004822814e+000  -2.4471559080e-003   6.5092213574e-004   1.9258865774e-004
  4.4773750000e+008   2.2295435506e-006  -2.3770752159e-004   9.9874177564e-001  -4.5651212970e-003   1.0001798943e+000  -2.7174369050e-003   6.0858540000e-004   2.9169252582e-004
  4.5632500000e+008  -8.6016414701e-005  -2.4449551923e-004   9.9708079972e-001  -4.8194822922e-003   9.9997444595e-001  -2.3590096742e-003   7.5535760100e-004   2.0845404551e-004
  4.6491250000e+008  -2.9532478608e-004  -2.6827032582e-004   9.9660798450e-001  -6.2305022168e-003   1.0001805966e+000  -2.4567510117e-003   6.6397210148e-004  -7.8766874820e-006
  4.7350000000e+008  -5.1735263811e-004  -2.1275741349e-004   9.9690853922e-001  -5.0325778887e-003   1.0002275485e+000  -2.5491167810e-003   6.4148884966e-004  -3.1222314470e-005
  4.8208750000e+008  -1.0207305084e-004   5.8538937109e-006   9.9506304643e-001  -5.9175253605e-003   9.9964719947e-001  -2.2831794354e-003   6.9864151436e-004   1.4150681297e-004
  4.9067500000e+008   1.9394362300e-005  -3.3832999342e-004   9.9301102926e-001  -6.5455918010e-003   9.9990434326e-001  -2.4810729708e-003   2.2161962182e-004  -4.5058399618e-005
  4.9926250000e+008  -3.9136225597e-006  -5.0309950924e-004   9.9405693729e-001  -6.4261355401e-003   9.9982516077e-001  -2.3906299382e-003   5.8735035678e-004  -1.7003094186e-005
  5.0785000000e+008  -5.8226539404e-004  -3.9431803052e-004   9.9303357794e-001  -6.3640043776e-003   9.9952902785e-001  -1.9306023240e-003   5.9699470682e-004   3.8060773000e-004
  5.1643750000e+008  -6.5603209668e-004   3.5502625386e-005   9.9147494273e-001  -5.7363805262e-003   1.0001377040e+000  -1.9324941203e-003   6.6246558919e-004  -9.9560811724e-005
  5.2502500000e+008  -3.3109728336e-004   5.7707333744e-004   9.9261601423e-001  -5.3597830666e-003   1.0007263348e+000  -1.3619696085e-003   3.6788980332e-004  -5.3820763173e-004
  5.3361250000e+008   4.4603652413e-004   3.6880722493e-004   9.9429876738e-001  -6.8238805379e-003   1.0002936728e+000  -2.3035833404e-003  -1.6839108323e-004  -5.7542879330e-004
  5.4220000000e+008   5.9298350761e-004   2.7770176658e-004   9.9263348752e-001  -7.1701221201e-003   1.0009517206e+000  -2.0504232881e-003  -8.0407995747e-004  -4.4313115709e-004
  5.5078750000e+008   6.3885929765e-004  -5.1905288709e-004   9.9247435286e-001  -9.0594954559e-003   1.0006685800e+000  -2.8951595263e-003  -9.1363841053e-004  -1.8170179432e-004
  5.5937500000e+008   4.8090878087e-004  -7.0746852790e-004   9.9336616547e-001  -6.4397188184e-003   1.0005002124e+000  -3.1205602950e-003  -9.4611674145e-004  -5.9109049674e-005
  5.6796250000e+008   3.7073508777e-004  -7.9559153176e-004   9.9454791180e-001  -7.6866909902e-003   1.0008366333e+000  -2.4243684751e-003  -1.2084322295e-003   5.5487629328e-004
  5.7655000000e+008  -1.8487029810e-004  -1.1303773920e-003   9.9409846045e-001  -9.0633511144e-003   1.0008130190e+000  -3.6398762055e-003  -7.8096143970e-004   8.9686949045e-004
  5.8513750000e+008  -5.0385959846e-004  -1.0698609303e-003   9.9144613876e-001  -7.7192771804e-003   9.9997381069e-001  -3.3665892663e-003  -6.7033464398e-004   9.0494472695e-004
  5.9372500000e+008  -7.5245775767e-004  -7.3395224820e-004   9.9377077396e-001  -7.2068681945e-003   1.0002458091e+000  -2.8592168631e-003  -5.7757164944e-004   1.1386527178e-003
  6.0231250000e+008  -1.1593587645e-003  -4.6899252014e-004   9.9168524557e-001  -5.6082852042e-003   1.0001973465e+000  -3.0247028813e-003  -3.5267039140e-004   1.0080221824e-003
  6.1090000000e+008  -9.9594470736e-004  -3.4502129990e-004   9.9393146459e-001  -8.9124457898e-003   1.0006401474e+000  -2.7203757825e-003  -3.0894227961e-004   9.8859609867e-004
  6.1948750000e+008  -7.8569546279e-004   1.6101368577e-004   9.9047492766e-001  -7.1623772569e-003   9.9985029178e-001  -2.9950673768e-003  -2.6662180591e-004   8.4803897764e-004
  6.2807500000e+008  -7.8885365750e-004   9.2119688494e-005   9.9453424917e-001  -8.2809486237e-003   1.0008076148e+000  -2.9791131477e-003   1.5763469533e-004   3.3817143380e-004
  6.3666250000e+008  -2.9953089072e-004   5.8449648653e-004   9.9464930577e-001  -5.7797501653e-003   1.0003486334e+000  -3.5550932334e-003   8.3764828677e-005   2.4659062301e-004
  6.4525000000e+008  -5.8233079458e-006   4.7746345141e-004   9.9460131459e-001  -5.0611124938e-003   1.0006445941e+000  -2.7194476140e-003   2.9768730877e-004  -1.2740745211e-005
  6.5383750000e+008   1.4008374954e-004   2.8581824380e-004   9.9629543094e-001  -7.0507870906e-003   9.9944500682e-001  -2.2269206438e-003   5.6300334334e-004  -1.2059612463e-004
  6.6242500000e+008   3.7975103891e-004  -4.0757300749e-006   9.9198295405e-001  -7.2590460085e-003   1.0005513381e+000  -3.6827744247e-003   3.7813213581e-004  -4.8991306650e-004
  6.7101250000e+008   5.7203343425e-004  -2.1528395639e-004   9.9418765643e-001  -6.3703232845e-003   9.9935812082e-001  -2.5680285879e-003   2.3106247420e-004  -7.2384545641e-004
  6.7960000000e+008   6.2847245959e-004  -6.4367392539e-004   9.9456416342e-001  -7.0620902107e-003   1.0000318622e+000  -3.3049424647e-003   3.4072871278e-004  -1.1486522719e-003
  6.8818750000e+008   1.8123918477e-004  -9.3816808049e-004   9.9341865117e-001  -7.3421492529e-003   9.9999286099e-001  -3.4621557837e-003   5.0346805529e-005  -1.0912562724e-003
  6.9677500000e+008   1.2073373544e-004  -1.0824343166e-003   9.9251083824e-001  -7.1909828861e-003   9.9979183171e-001  -3.1995355083e-003  -2.4527187502e-004  -1.1453871163e-003
  7.0536250000e+008  -2.9557026185e-004  -1.1061176192e-003   9.9226935128e-001  -8.6490568716e-003   9.9984634483e-001  -3.4519613611e-003  -4.0251403152e-004  -1.2267247654e-003
  7.1395000000e+008  -7.7230891777e-004  -1.0475117463e-003   9.9260897484e-001  -7.1034557078e-003   9.9981858489e-001  -3.4271019578e-003  -6.9783615707e-004  -1.2027713412e-003
  7.2253750000e+008  -1.2134337098e-003  -8.0059640551e-004   9.9114526378e-001  -6.8714024924e-003   1.0000693758e+000  -3.0021646374e-003  -8.1152541194e-004  -1.1686660919e-003
  7.3112500000e+008  -1.0742756286e-003  -4.1376528271e-004   9.9227362368e-001  -8.2497347226e-003   9.9974684622e-001  -3.3822578770e-003  -1.0342691508e-003  -9.6937175687e-004
  7.3971250000e+008  -1.0190809783e-003   1.4127594079e-004   9.9402042716e-001  -7.8507999018e-003   9.9965304421e-001  -3.7857172737e-003  -1.1840233767e-003  -7.0997352734e-004
  7.4830000000e+008  -8.4869395790e-004   4.9150009413e-004   9.9238696815e-001  -7.6601675683e-003   9.9958462171e-001  -2.7023703069e-003  -9.6341007400e-004  -5.2484513774e-004
  7.5688750000e+008  -5.7514842299e-004   7.6732826707e-004   9.9432386444e-001  -7.0806843519e-003   9.9965610621e-001  -3.4067613572e-003  -1.1289845550e-003  -2.2879966077e-004
  7.6547500000e+008  -1.0229921800e-004   8.2080549856e-004   9.9502587627e-001  -7.6005956418e-003   9.9905358772e-001  -2.9802127508e-003  -1.1759240976e-003   4.9356698337e-005
  7.7406250000e+008   2.4593222889e-004   6.8617924152e-004   9.9425708178e-001  -6.5156227061e-003   1.0000041035e+000  -3.8919852128e-003  -8.0361794542e-004   4.0923238443e-004
  7.8265000000e+008   4.0986476619e-004   4.2313291479e-004   9.9357516209e-001  -6.4361563450e-003   9.9957083786e-001  -2.7070519072e-003  -7.4366697186e-004   6.8139263871e-004
  7.9123750000e+008   6.2670087544e-004   2.8696632215e-004   9.9510101756e-001  -6.2419893534e-003   9.9978445803e-001  -2.7096992623e-003  -5.5811917482e-004   5.8818203074e-004
  7.9982500000e+008   4.7165110533e-004   1.4921604316e-004   9.9411208377e-001  -6.2766347760e-003   1.0005219263e+000  -2.3036331167e-003  -3.1341692452e-004   8.9038592710e-004
  8.0841250000e+008   6.9060542992e-004   4.3896630086e-005   9.9123232743e-001  -8.5159574042e-003   1.0001484111e+000  -3.1482952515e-003  -1.9471725908e-004   8.9736152287e-004
  8.1700000000e+008   1.0182901271e-003  -2.2262199213e-004   9.9223255219e-001  -6.5969277079e-003   9.9960870717e-001  -3.2379401880e-003  -1.6613452704e-006   7.6577603346e-004
  8.2558750000e+008   9.5484464582e-004  -3.1471750719e-004   9.9296948659e-001  -5.8750296199e-003   1.0014033592e+000  -3.4742021282e-003  -3.6964244757e-004   8.6334241557e-004
  8.3417500000e+008   9.4671050007e-004  -9.1163932432e-004   9.9187400716e-001  -7.2254407480e-003   1.0019139143e+000  -3.3927823823e-003  -1.5375674225e-004   1.0657987916e-003
  8.4276250000e+008   5.7084821884e-004  -1.1473673711e-003   9.9146802153e-001  -7.6003853488e-003   9.9970034944e-001  -3.4894565780e-003  -9.2378278997e-005   1.1404880379e-003
  8.5135000000e+008   1.3346175967e-004  -1.1727886471e-003   9.9462418968e-001  -5.8668185109e-003   1.0013473465e+000  -3.2956628032e-003   9.3294480617e-005   1.2526224924e-003
  8.5993750000e+008  -1.5782570666e-004  -1.2309656203e-003   9.9634475800e-001  -5.8553201854e-003   9.9983057997e-001  -3.5923794789e-003   2.6618466608e-004   1.1789373588e-003
  8.6852500000e+008  -5.5764075030e-004  -7.8103685811e-004   9.8831190287e-001  -9.1395640825e-003   9.9933944047e-001  -3.5114562816e-003   4.7820044894e-004   6.5721075180e-004
  8.7711250000e+008  -5.2133586591e-004  -6.4408388852e-004   9.8860967751e-001  -9.1602887310e-003   1.0005730679e+000  -4.0146262240e-003   4.8178975606e-004   1.7066286617e-004
  8.8570000000e+008  -3.3705866389e-004  -3.8467720612e-004   9.9023528983e-001  -7.4514526211e-003   9.9987753373e-001  -4.2877599288e-003   3.6271880106e-004   5.1394092543e-005
  8.9428750000e+008  -3.2359594638e-004  -9.9527208324e-005   9.9108135369e-001  -8.3081526768e-003   1.0008391431e+000  -3.8790502821e-003   7.0025772216e-005  -2.6612624429e-004
  9.0287500000e+008   1.1822969790e-004  -1.6636086381e-004   9.9253082114e-001  -8.9837892766e-003   9.9964568694e-001  -4.2499924964e-003   8.7125961292e-006  -4.1044248012e-004
  9.1146250000e+008   2.8986325209e-004  -1.1973640087e-004   9.9029282514e-001  -8.8562754927e-003   9.9883487013e-001  -3.8457472168e-003  -5.4551947937e-004  -3.9596055059e-004
  9.2005000000e+008   3.4271998686e-004  -3.5212853050e-004   9.9127147895e-001  -8.4935215413e-003   9.9823553968e-001  -4.2200749340e-003  -9.2224799580e-004  -5.6777406021e-004
  9.2863750000e+008   5.4682337872e-004  -5.6279060993e-004   9.9251816428e-001  -6.7642005811e-003   9.9873459394e-001  -4.1403782467e-003  -9.1870085848e-004  -5.1666014266e-004
  9.3722500000e+008   3.5777450679e-004  -8.3123986545e-004   9.9214582720e-001  -7.3313055849e-003   9.9913009978e-001  -3.9309646279e-003  -1.1811252981e-003  -6.5516147153e-004
  9.4581250000e+008   3.0452534687e-004  -1.0489629260e-003   9.9149048526e-001  -5.8077265831e-003   9.9937171504e-001  -3.8938702100e-003  -1.4076794273e-003  -3.3651081138e-004
  9.5440000000e+008  -1.6516477992e-006  -1.2744702427e-003   9.9246046120e-001  -8.3542375628e-003   9.9991524943e-001  -3.2880688332e-003  -1.3546884095e-003  -3.2657266282e-004
  9.6298750000e+008  -3.8206188578e-004  -1.4311075930e-003   9.9272476035e-001  -6.9697261021e-003   9.9983983554e-001  -3.4133684559e-003  -1.4723709066e-003  -3.8515198631e-005
  9.7157500000e+008  -6.6907356919e-004  -1.1781502243e-003   9.9149270012e-001  -8.5372185195e-003   9.9976831475e-001  -3.8314626168e-003  -1.3888652984e-003  -2.6322780934e-005
  9.8016250000e+008  -8.4103142487e-004  -1.0108876572e-003   9.9240063965e-001  -8.5727535782e-003   9.9950237031e-001  -4.3505476611e-003  -1.3700725636e-003   2.2720519481e-004
  9.8875000000e+008  -1.1888343597e-003  -5.7597190584e-004   9.9044236187e-001  -6.5109450798e-003   9.9952608198e-001  -3.7643259177e-003  -1.2629976348e-003   3.0778042813e-004
  9.9733750000e+008  -1.1334196939e-003  -2.2100621141e-004   9.9039472954e-001  -8.1438869250e-003   9.9986375748e-001  -3.7059821630e-003  -9.8421863719e-004   2.8706050061e-004
  1.0059250000e+009  -1.1358374468e-003   7.5114879656e-005   9.9263844573e-001  -7.8288675655e-003   9.9986183222e-001  -4.1931083952e-003  -5.4384174331e-004   4.0650027781e-004
  1.0145125000e+009  -8.0142736826e-004   5.4431930324e-004   9.9144194553e-001  -9.9031779319e-003   9.9928959973e-001  -3.3524186540e-003  -2.3384734053e-004   2.4802914068e-004
  1.0231000000e+009  -5.4129849999e-004   5.8432072198e-004   9.9198776912e-001  -7.7808979816e-003   9.9933200899e-001  -4.3448357421e-003  -2.4388878094e-005   2.3975217189e-004
  1.0316875000e+009  -2.3980505197e-004   8.0042648943e-004   9.9218981959e-001  -8.7708618054e-003   9.9919724024e-001  -4.1871878673e-003   1.4053425989e-004   1.3040435545e-004
  1.0402750000e+009   2.5768316951e-004   7.5101094657e-004   9.9173051815e-001  -7.3418704362e-003   9.9924616906e-001  -2.8021421234e-003   4.7177522316e-004  -1.4468325277e-004
  1.0488625000e+009   4.4539346779e-004   6.6481910844e-004   9.9276139742e-001  -8.0320783805e-003   9.9929273065e-001  -4.3573327991e-003   7.2753148781e-004  -2.7671861106e-004
  1.0574500000e+009   7.4692472401e-004   2.4176553030e-004   9.9013987955e-001  -8.9969118780e-003   9.9955029138e-001  -3.9322668257e-003   7.2752400185e-004  -6.2530537213e-004
