# Hz S RI R 50.000000
! Metas.Vna.Tools, 2.8.8664.20301
! Metas.Vna.Data, 2.8.8664.20285
! Created: UTC 2024.02.11 10:08:44
! FREQ                re:S1,1             im:S1,1             re:S2,1             im:S2,1             re:S1,2             im:S1,2             re:S2,2             im:S2,2          
  1.3000000000e+008   3.8076900980e-004  -1.7040117023e-003   9.9441079079e-001  -5.9546949857e-003   1.0003797291e+000  -1.2121068365e-004   1.4057693594e-003   7.1724087172e-004
  1.3858750000e+008  -1.0851877403e-003  -2.1068835944e-003   9.9465464559e-001  -5.4354023101e-003   1.0012992975e+000   6.4331262798e-004   8.4154135083e-004   7.9997560722e-005
  1.4717500000e+008  -1.8130783778e-003  -1.2189675983e-003   9.9370177817e-001  -6.2721492214e-003   1.0001540454e+000   8.2727011143e-004   6.1129816078e-004  -2.1796773034e-004
  1.5576250000e+008  -1.8616233780e-003   1.2222034583e-004   9.9364423104e-001  -5.5717914425e-003   1.0003435967e+000   2.9734639290e-004   1.1773118147e-003  -8.2001335818e-004
  1.6435000000e+008  -8.2261778133e-004   3.3065126165e-004   9.9638950272e-001  -4.8080988792e-003   1.0007415454e+000   6.1100647357e-005   8.4845121266e-004  -5.2891861582e-004
  1.7293750000e+008  -1.0728573574e-003   7.1095464833e-004   9.9644711476e-001  -4.5794311768e-003   1.0003105473e+000   3.9406556002e-004   3.6811195913e-004  -1.0554500381e-003
  1.8152500000e+008  -4.5331904273e-004   2.6564563258e-004   9.9482559090e-001  -5.7228210494e-003   1.0003014056e+000   2.5369611472e-004   4.7213931946e-004  -4.9160633622e-004
  1.9011250000e+008  -6.7982368034e-004   3.1245631362e-004   9.9598203416e-001  -6.2928060409e-003   1.0010038633e+000  -4.2702260172e-004   5.5149866686e-004  -1.0598691047e-003
  1.9870000000e+008  -3.1098168904e-004   7.0620688091e-004   9.9531602685e-001  -5.6418184158e-003   1.0003574649e+000   3.3854028699e-005   4.8163043813e-004  -1.6893987444e-004
  2.0728750000e+008   1.0206990509e-004   8.8575270295e-005   9.9554210386e-001  -5.7188010310e-003   1.0008908849e+000  -2.8713074664e-004  -7.9326080956e-005  -4.0545164538e-004
  2.1587500000e+008   1.7410610935e-005  -3.4836710258e-004   9.9517443006e-001  -5.3100939172e-003   9.9991608794e-001   1.0413153851e-004  -5.7623202576e-004   2.2768336396e-004
  2.2446250000e+008  -8.4939237319e-006  -2.4489890525e-004   9.9494646384e-001  -5.3018644806e-003   1.0004107765e+000  -4.3169059667e-004  -4.2150598333e-004   3.3885787875e-005
  2.3305000000e+008   4.8992510528e-005   7.5637764023e-005   9.9403999178e-001  -6.2126068588e-003   1.0005695486e+000  -7.6423629450e-005  -1.9976848427e-004   1.7250235491e-005
  2.4163750000e+008  -1.2335236785e-006  -2.5670210627e-004   9.9506018879e-001  -7.6724263235e-003   1.0002725390e+000  -4.9914533321e-004  -7.6987765248e-004   1.1838363573e-004
  2.5022500000e+008  -9.3347672332e-005  -4.9777478690e-004   9.9519062475e-001  -6.0219627074e-003   1.0005905587e+000   6.0610011876e-005  -7.5214176704e-004   8.1816136947e-004
  2.5881250000e+008  -6.2623751560e-004  -6.5462156178e-004   9.9367433940e-001  -6.3932437878e-003   1.0008765900e+000  -1.6806001844e-003  -6.8040495769e-004   6.9183669142e-004
  2.6740000000e+008  -6.7781660614e-004  -6.7235331185e-004   9.9483377302e-001  -7.5614369293e-003   1.0006746219e+000  -1.4341030965e-003  -4.6543568331e-004   3.4016209232e-004
  2.7598750000e+008  -2.5230570780e-004  -1.3171077136e-004   9.9387600206e-001  -6.3303021820e-003   1.0008889621e+000  -3.6796113306e-004  -5.9299955987e-005   5.6728915709e-004
  2.8457500000e+008  -9.5235993683e-004  -3.1226935688e-004   9.9354894045e-001  -6.4276656165e-003   1.0010587972e+000   7.9739773350e-005  -2.4269075128e-004   4.5532347222e-004
  2.9316250000e+008  -4.5012850124e-004  -2.0791586232e-004   9.9234731663e-001  -5.8741918113e-003   1.0003586502e+000  -6.5749450022e-004  -3.5253686902e-004   4.2617837012e-004
  3.0175000000e+008  -9.1912462189e-004   2.0747181778e-004   9.9372638772e-001  -8.6241654964e-003   1.0005731376e+000  -7.3831784553e-005  -3.3176559772e-004   5.2196002551e-004
  3.1033750000e+008  -9.5082853194e-004   8.0489448377e-005   9.9426381803e-001  -6.1938138268e-003   1.0015048025e+000  -6.6392395448e-004  -5.5996660857e-004   5.7652147922e-004
  3.1892500000e+008  -7.6371388494e-004   1.3414517277e-004   9.9420751272e-001  -7.4387847250e-003   9.9959759215e-001  -7.8557041063e-005  -6.7976500006e-004   1.7011720277e-004
  3.2751250000e+008  -4.1397178137e-004   2.9301359009e-004   9.9405390609e-001  -8.5295098915e-003   1.0006778262e+000  -8.8994120862e-004  -7.8945815970e-004   3.7281360107e-004
  3.3610000000e+008  -7.2993228960e-004   1.3900161533e-004   9.9435479923e-001  -5.4560837250e-003   1.0009178149e+000  -9.0071826137e-004  -5.1634887827e-004   2.1643820278e-004
  3.4468750000e+008  -7.9770323716e-004   2.0096738664e-004   9.9342919505e-001  -7.0991429579e-003   1.0008928602e+000  -2.5450414045e-004  -3.5915834078e-004   1.2048477878e-004
  3.5327500000e+008  -4.7307050518e-004   1.2297696451e-004   9.9466555309e-001  -6.6278740202e-003   9.9955032850e-001  -1.5090220100e-003  -8.1855139291e-004   3.0644937660e-004
  3.6186250000e+008  -4.7909568672e-004   8.4209286110e-005   9.9405659539e-001  -7.1882537544e-003   9.9987352964e-001  -3.5309900790e-004  -7.1955916457e-004   4.2837966627e-004
  3.7045000000e+008  -5.5671964720e-004   6.0219071093e-004   9.9196868634e-001  -7.2216862866e-003   1.0011974132e+000  -1.4482589233e-003  -7.6895179774e-004   1.9916464733e-004
  3.7903750000e+008  -3.3455741866e-004   6.4450942066e-004   9.9211193789e-001  -7.2505601636e-003   1.0001640490e+000  -9.4715603649e-004  -4.8782983817e-004   1.2609094082e-004
  3.8762500000e+008  -5.1244345649e-004   6.6871874331e-004   9.9379132559e-001  -6.6639234491e-003   1.0002085499e+000  -1.2141635500e-003  -7.7520180971e-004   5.0787497694e-004
  3.9621250000e+008  -4.6007184033e-005   4.7248613914e-004   9.9124061512e-001  -7.6452145906e-003   1.0002247323e+000  -1.0402567394e-003  -5.3828290669e-004   4.5951125468e-004
  4.0480000000e+008   1.4707973087e-004   3.5693826175e-004   9.9333720089e-001  -7.7389280933e-003   1.0003276758e+000  -1.3313494050e-003  -1.2793031230e-004   3.4320122931e-004
  4.1338750000e+008   3.4352662099e-004   9.9400248614e-006   9.9223262481e-001  -6.0065809881e-003   1.0008781213e+000  -1.3672288939e-003  -1.5361397012e-004   5.4104901311e-004
  4.2197500000e+008  -9.3998166365e-005  -2.1894678876e-004   9.9234568947e-001  -8.4727888395e-003   1.0007376041e+000  -1.3035504944e-003   8.3260454828e-005   5.8823875186e-004
  4.3056250000e+008   8.6947718500e-005   9.4520672780e-005   9.9324648374e-001  -6.8666087396e-003   1.0006230383e+000  -1.2531989490e-003   3.7428516222e-004   4.0623265610e-004
  4.3915000000e+008   1.3680015140e-004  -4.5528268633e-004   9.9406112906e-001  -6.1561123218e-003   1.0005740463e+000  -1.6782510489e-003   4.9623362108e-004   2.1340423374e-004
  4.4773750000e+008   8.5853165703e-005  -3.9518087334e-004   9.9349223117e-001  -6.8441031792e-003   1.0003727455e+000  -1.5626559239e-003   5.3011291092e-004   4.4761160446e-005
  4.5632500000e+008  -1.1929739999e-004  -4.6096819027e-004   9.9123136339e-001  -6.4007649862e-003   1.0006329141e+000  -1.4519075655e-003   6.9808755069e-004   9.6668581754e-005
  4.6491250000e+008  -2.2813542772e-004  -1.2532845296e-004   9.9263256458e-001  -7.7357657425e-003   1.0003312152e+000  -1.3585321622e-003   4.6650496502e-004  -1.0085759027e-004
  4.7350000000e+008  -3.0662673250e-004  -5.0629861433e-004   9.9082155528e-001  -8.2431231430e-003   1.0003688694e+000  -1.2185316199e-003   4.7733223211e-004  -5.9704116941e-005
  4.8208750000e+008  -4.2496331162e-004  -2.0618111196e-004   9.9027872198e-001  -7.3973573902e-003   9.9948635496e-001  -9.5377133425e-004   5.4254025545e-004   7.4689596033e-005
  4.9067500000e+008  -1.2702536537e-004  -4.9781448886e-005   9.8862571669e-001  -7.8810930445e-003   1.0003303536e+000  -1.5256321720e-003   2.7388245870e-004   8.8255734315e-005
  4.9926250000e+008  -1.1326754420e-004  -4.2431372466e-004   9.8937328353e-001  -6.8723518923e-003   9.9965835411e-001  -1.3338991149e-003   4.8476288454e-004  -4.5455109145e-005
  5.0785000000e+008  -4.8769498906e-004  -2.6785554594e-004   9.8887044292e-001  -7.9178854310e-003   9.9956504289e-001  -6.3068420042e-004   4.7996825147e-004   3.4537633231e-004
  5.1643750000e+008  -5.9665360052e-004   2.8517845455e-004   9.8978680016e-001  -6.7628375752e-003   1.0004180956e+000  -1.1876776951e-003   5.1684211154e-004  -7.4445882184e-005
  5.2502500000e+008  -1.6997003449e-004   4.2325706131e-004   9.9026487673e-001  -6.7314355997e-003   1.0004823114e+000  -5.5823911186e-004   2.1153363719e-004  -3.0124402311e-004
  5.3361250000e+008   3.3157635399e-004   1.3004577331e-004   9.9119541746e-001  -8.7907669030e-003   1.0002304616e+000  -1.3087171918e-003   3.3566847539e-005  -5.7297763103e-004
  5.4220000000e+008   7.8752129191e-004  -9.5419029243e-005   9.9154766673e-001  -8.7868047400e-003   1.0004039583e+000  -1.2062513526e-003  -8.8848010282e-004  -3.1585790865e-004
  5.5078750000e+008   6.1282822325e-004  -5.1486410515e-004   9.9117699848e-001  -8.3654035352e-003   1.0009688592e+000  -1.8652283475e-003  -8.2841512578e-004  -2.3020784323e-004
  5.5937500000e+008   4.3678016681e-004  -5.4381567163e-004   9.8937938457e-001  -7.8055069721e-003   9.9985623408e-001  -1.2387441634e-003  -8.6495740000e-004   6.8984270656e-005
  5.6796250000e+008   4.4858031402e-004  -7.7165107282e-004   9.9114415268e-001  -7.9239792195e-003   1.0006441652e+000  -1.4512591717e-003  -1.0086714274e-003   5.6252621063e-004
  5.7655000000e+008  -2.4272313236e-004  -1.1427378048e-003   9.9118278766e-001  -9.3091638964e-003   1.0004430764e+000  -2.1865071700e-003  -7.3386436147e-004   6.3589421779e-004
  5.8513750000e+008  -3.9106612651e-004  -8.3345245152e-004   9.9033185148e-001  -8.2303634241e-003   1.0000175251e+000  -1.4010644777e-003  -6.9788052716e-004   7.3486443109e-004
  5.9372500000e+008  -4.6384094250e-004  -9.9756265667e-004   9.8753242165e-001  -7.5245384201e-003   9.9982214705e-001  -2.0422923144e-003  -7.4607943427e-004   9.3260455881e-004
  6.0231250000e+008  -1.0209880183e-003  -5.8562351289e-004   9.8992879576e-001  -8.2222785127e-003   1.0000884521e+000  -1.8480500365e-003  -3.4730794729e-004   9.1813114081e-004
  6.1090000000e+008  -9.3943369179e-004  -3.9594403788e-004   9.8939689546e-001  -9.8633978251e-003   1.0003000430e+000  -1.3851714333e-003  -4.1860766683e-004   9.9567434143e-004
  6.1948750000e+008  -1.0833547952e-003  -1.6048850853e-004   9.9072372983e-001  -7.5786649347e-003   1.0001637322e+000  -1.6480287973e-003  -3.7099680570e-004   6.6338249584e-004
  6.2807500000e+008  -8.9678495244e-004   2.7503282775e-005   9.9086741187e-001  -9.4526663235e-003   1.0000648552e+000  -1.6794619984e-003  -3.3452849302e-006   4.4564509689e-004
  6.3666250000e+008  -4.0622848037e-004   4.5397441452e-004   9.9176044301e-001  -7.7426153596e-003   9.9987110683e-001  -2.1286705509e-003   7.9273861434e-005   3.4693129648e-004
  6.4525000000e+008  -1.0600795620e-004   3.4142161677e-004   9.9201793708e-001  -7.3791307115e-003   1.0004909937e+000  -1.9057038900e-003   3.5331785453e-004   9.6876455438e-005
  6.5383750000e+008   3.7110493935e-005   3.5139834580e-004   9.9178210194e-001  -8.0301916174e-003   1.0001603008e+000  -1.7038839900e-003   5.0052718037e-004  -2.6254968924e-004
  6.6242500000e+008   4.0752967503e-004   1.8299576050e-004   9.9055278991e-001  -8.7212407237e-003   1.0008579994e+000  -2.7656451805e-003   3.1892373642e-004  -3.6532176263e-004
  6.7101250000e+008   4.2709883146e-004  -9.0623791348e-005   9.9167371716e-001  -6.9015841599e-003   9.9970527714e-001  -1.2080989884e-003   3.1933220336e-004  -5.8446432675e-004
  6.7960000000e+008   7.2629113124e-004  -4.7181695531e-004   9.9106818627e-001  -9.0022873029e-003   1.0006018106e+000  -1.8950703997e-003   1.9613305844e-004  -9.8465151291e-004
  6.8818750000e+008   4.0914184238e-004  -8.4309083761e-004   9.9151012468e-001  -7.7728846789e-003   1.0001982573e+000  -2.5621537030e-003   6.1284903988e-005  -1.1403399625e-003
  6.9677500000e+008   1.7808228037e-004  -9.0057346255e-004   9.9189244301e-001  -7.5336765268e-003   1.0002670815e+000  -2.2260980073e-003  -2.3434637660e-004  -1.2629711567e-003
  7.0536250000e+008  -1.5071217047e-004  -1.0222259425e-003   9.9296455157e-001  -7.3434520740e-003   1.0001017954e+000  -1.8267620207e-003  -3.2835434520e-004  -1.2813739028e-003
  7.1395000000e+008  -4.6039709739e-004  -9.4544856971e-004   9.9285695431e-001  -6.9430606459e-003   1.0002745067e+000  -2.4667385772e-003  -5.2319275188e-004  -1.3796264392e-003
  7.2253750000e+008  -9.8099573393e-004  -8.9215494597e-004   9.9205991235e-001  -7.4874808182e-003   9.9957661003e-001  -2.2359513296e-003  -7.3587863509e-004  -1.3541254116e-003
  7.3112500000e+008  -9.6345426701e-004  -4.5796128092e-004   9.9340944793e-001  -7.8521870017e-003   1.0004700881e+000  -1.8264518010e-003  -1.0548895000e-003  -1.0631744110e-003
  7.3971250000e+008  -1.0259769635e-003  -1.5970904993e-005   9.9471444058e-001  -7.3810914061e-003   9.9981691338e-001  -3.0493578280e-003  -1.0526065084e-003  -8.1412203385e-004
  7.4830000000e+008  -9.4511373082e-004   3.4515813601e-004   9.9402882311e-001  -6.4587367744e-003   1.0003036863e+000  -2.0657976852e-003  -9.9886366128e-004  -7.2681270698e-004
  7.5688750000e+008  -8.8559634045e-004   5.7778642577e-004   9.9405342854e-001  -7.2595254481e-003   9.9928268507e-001  -1.7597371671e-003  -1.2066868825e-003  -4.2854378354e-004
  7.6547500000e+008  -2.8919372945e-004   7.2536921269e-004   9.9467116389e-001  -7.9858500489e-003   9.9957791436e-001  -2.1560343338e-003  -1.1553240577e-003  -4.3702859833e-005
  7.7406250000e+008  -5.7360829558e-005   8.0334546635e-004   9.9359958557e-001  -8.0730088924e-003   1.0004493365e+000  -2.2606971833e-003  -9.1921701170e-004   1.6819500857e-004
  7.8265000000e+008   2.5962754430e-004   7.2273306013e-004   9.9129353599e-001  -8.0343712597e-003   1.0006603815e+000  -2.7538494085e-003  -7.2747152992e-004   7.0475114881e-004
  7.9123750000e+008   6.3370254021e-004   4.3190395129e-004   9.9176062449e-001  -7.0298328721e-003   9.9964010443e-001  -1.9672006610e-003  -6.9567691845e-004   6.1283165837e-004
  7.9982500000e+008   7.5905641341e-004   2.8630854655e-004   9.9294164307e-001  -6.8804571499e-003   9.9992678322e-001  -1.0518707741e-003  -5.2091119963e-004   7.3326243735e-004
  8.0841250000e+008   1.0575614208e-003   2.4598126781e-004   9.9281492561e-001  -7.3933188714e-003   1.0005003355e+000  -1.9574195552e-003  -3.5094828792e-004   1.1488706645e-003
  8.1700000000e+008   1.1800597254e-003  -3.4159316753e-004   9.9302166063e-001  -7.0270619873e-003   1.0000570192e+000  -1.9796669320e-003  -3.8757213492e-004   9.8041141353e-004
  8.2558750000e+008   1.1911969906e-003  -5.9759739457e-004   9.9401567811e-001  -6.6142145595e-003   1.0000039799e+000  -2.4851748412e-003  -3.3191702695e-004   1.1792332586e-003
  8.3417500000e+008   1.0387269194e-003  -1.0298454249e-003   9.9371592328e-001  -8.9978370813e-003   1.0009367944e+000  -2.5274279698e-003  -1.1517286121e-004   1.3069827645e-003
  8.4276250000e+008   6.1220445087e-004  -1.2995632638e-003   9.9283513506e-001  -8.1809997950e-003   1.0002183506e+000  -2.8940144092e-003   2.0232044802e-004   1.2903288409e-003
  8.5135000000e+008   3.3361447820e-005  -1.3002021720e-003   9.9261021718e-001  -8.2820289224e-003   1.0009502124e+000  -1.8278868547e-003   3.1873987735e-004   1.3056630075e-003
  8.5993750000e+008  -1.0039832423e-004  -1.2841158481e-003   9.9225169668e-001  -7.7678345032e-003   1.0002324342e+000  -3.0329667040e-003   3.8807914729e-004   1.0430163362e-003
  8.6852500000e+008  -4.8584282622e-004  -9.7037850934e-004   9.9114179330e-001  -8.6608421252e-003   9.9984756961e-001  -2.4189819990e-003   5.8619447336e-004   6.4431076566e-004
  8.7711250000e+008  -5.9341865347e-004  -5.9920288707e-004   9.9228665761e-001  -6.9691751872e-003   9.9967293837e-001  -2.2956599141e-003   4.2850765203e-004   4.1951833761e-004
  8.8570000000e+008  -4.2889828233e-004  -3.9683689854e-004   9.9370655983e-001  -7.1176072028e-003   1.0003514386e+000  -2.4049764731e-003   4.2943112398e-004   1.7289978206e-004
  8.9428750000e+008  -3.0696646504e-004  -2.9643300362e-004   9.9213879284e-001  -7.6933332832e-003   1.0000093811e+000  -2.1975609685e-003   1.3828694030e-004  -1.6011496633e-004
  9.0287500000e+008   2.7044861314e-005  -1.2874505095e-004   9.9304018579e-001  -7.7797655691e-003   9.9987750205e-001  -3.0129950539e-003  -7.0664453753e-005  -4.0981081407e-004
  9.1146250000e+008   2.4680371339e-004  -3.0339172238e-004   9.9233756393e-001  -7.9375166640e-003   9.9882956426e-001  -2.8627512485e-003  -4.9085939523e-004  -3.7022434227e-004
  9.2005000000e+008   3.2906705375e-004  -3.5461399535e-004   9.9261847271e-001  -7.1717873207e-003   9.9905011468e-001  -2.1114320072e-003  -7.1822136993e-004  -4.7371750254e-004
  9.2863750000e+008   4.4842675609e-004  -5.6300723520e-004   9.9381860751e-001  -6.7754495657e-003   9.9907964757e-001  -4.0146165759e-003  -8.5513146166e-004  -5.3967182602e-004
  9.3722500000e+008   4.3534006689e-004  -6.9936020735e-004   9.9378041366e-001  -5.7030073617e-003   9.9867577572e-001  -2.7999791060e-003  -1.0926784270e-003  -5.8724649862e-004
  9.4581250000e+008   2.9720847341e-004  -1.0373800761e-003   9.9354460063e-001  -6.6573423782e-003   9.9865668114e-001  -1.5418893868e-003  -1.3283315884e-003  -4.4590404821e-004
  9.5440000000e+008   3.2584806526e-005  -1.1951615505e-003   9.9221278716e-001  -7.1118054658e-003   9.9997687667e-001  -2.3141323902e-003  -1.4501065726e-003  -3.5053854559e-004
  9.6298750000e+008  -2.7472130192e-004  -1.3631962729e-003   9.9489113939e-001  -5.6715664746e-003   9.9991761506e-001  -2.7634188224e-003  -1.5625863407e-003  -9.6197430504e-005
  9.7157500000e+008  -5.7555084964e-004  -1.3306835509e-003   9.9325733488e-001  -7.6510956695e-003   1.0003638702e+000  -2.6571508497e-003  -1.5076854774e-003  -1.2339067396e-004
  9.8016250000e+008  -8.3141606256e-004  -1.0208702649e-003   9.9335226515e-001  -6.9546872258e-003   9.9902814281e-001  -3.8500221984e-003  -1.4472448726e-003   7.0187503553e-005
  9.8875000000e+008  -1.0801850423e-003  -7.8522057865e-004   9.9546838918e-001  -6.4323799919e-003   9.9913325839e-001  -2.3823096325e-003  -1.4165099522e-003   1.4840302028e-004
  9.9733750000e+008  -1.1902172050e-003  -4.4324282731e-004   9.9368868793e-001  -8.0332373563e-003   9.9964790153e-001  -2.6435958313e-003  -1.1688875362e-003   1.6304794272e-004
  1.0059250000e+009  -9.9550349130e-004  -1.1532452886e-004   9.9465979055e-001  -7.5731874541e-003   1.0001093441e+000  -2.7559393410e-003  -8.6945159821e-004   2.8913379287e-004
  1.0145125000e+009  -1.0209454159e-003   3.1611693212e-004   9.9468614074e-001  -9.8454794640e-003   9.9975954605e-001  -2.7687469064e-003  -5.1333922528e-004   2.8177952406e-004
  1.0231000000e+009  -6.1945965185e-004   4.0543082026e-004   9.9344224998e-001  -7.4881640085e-003   9.9936022907e-001  -2.9205846861e-003  -8.4650635754e-005   3.4036329941e-004
  1.0316875000e+009  -3.3561120668e-004   7.0324133836e-004   9.9348731492e-001  -9.1407627850e-003   9.9943353703e-001  -3.0323435315e-003   1.4563931161e-004   6.3740052706e-005
  1.0402750000e+009   1.1632643834e-004   6.2621628833e-004   9.9360828804e-001  -8.3043451485e-003   9.9956996328e-001  -1.9587394795e-003   4.4877626232e-004   2.6249043281e-005
  1.0488625000e+009   3.3646281728e-004   5.7301847368e-004   9.9545976559e-001  -7.0500398477e-003   9.9889621531e-001  -2.4404439949e-003   7.5459636369e-004  -2.7015336590e-004
  1.0574500000e+009   5.6774758278e-004   1.7965377541e-004   9.9411126701e-001  -6.8105759334e-003   9.9893716211e-001  -3.1860060037e-003   8.2565306225e-004  -5.2340593648e-004
