# Hz S RI R 50.000000
! Metas.Vna.Tools, 2.8.8664.20301
! Metas.Vna.Data, 2.8.8664.20285
! Created: UTC 2024.02.11 10:08:19
! FREQ                re:S1,1             im:S1,1             re:S2,1             im:S2,1             re:S1,2             im:S1,2             re:S2,2             im:S2,2          
  1.3000000000e+008  -2.6370367161e-004  -9.2265841281e-004   9.9334434924e-001  -5.3724009338e-003   1.0004569250e+000  -7.9427643002e-004   8.2134327985e-004   5.0372986714e-004
  1.3858750000e+008  -6.7767393524e-004  -1.0075178204e-003   9.9387291656e-001  -5.2049170465e-003   1.0009689676e+000  -3.3104163692e-004   1.2421447995e-003   7.1958009694e-004
  1.4717500000e+008  -1.3197515659e-003  -9.2119972961e-004   9.9391685998e-001  -5.9554727575e-003   1.0002781533e+000  -5.9989670700e-004   6.8626205127e-004   2.3755112631e-004
  1.5576250000e+008  -1.5006333139e-003   2.3982204854e-004   9.9412170433e-001  -4.8186296942e-003   1.0005290094e+000  -3.2688416709e-004   1.6499687258e-003  -8.8126093832e-004
  1.6435000000e+008  -8.6373945401e-004   6.1752286470e-004   9.9366890494e-001  -5.1566516085e-003   1.0004343565e+000  -9.6350089362e-004   8.0499200904e-004  -3.7141546966e-004
  1.7293750000e+008  -1.1201767511e-003   4.4121767967e-004   9.9400785796e-001  -5.2491832573e-003   1.0006214106e+000  -6.8525903525e-004   1.0310869889e-003  -8.5884037464e-004
  1.8152500000e+008  -3.4704539219e-004   3.3608809000e-004   9.9339396539e-001  -5.8388700227e-003   1.0002386074e+000  -1.0575774628e-003   4.8057370046e-004  -1.0224352922e-003
  1.9011250000e+008  -5.1869038276e-004   3.1397496246e-004   9.9334928037e-001  -6.8663455994e-003   1.0005161379e+000  -7.8783104441e-004   1.8028203677e-004  -1.1646589471e-003
  1.9870000000e+008  -5.0939008878e-004   6.8004280468e-004   9.9324405660e-001  -5.1436037925e-003   1.0003654166e+000  -1.1599649301e-003   4.7077527020e-004  -1.6671100318e-004
  2.0728750000e+008   9.6787439291e-005   4.8440577439e-004   9.9273490307e-001  -6.5145102907e-003   1.0008375349e+000  -1.1910177156e-003  -1.1148357071e-005  -5.3242021390e-004
  2.1587500000e+008  -6.3365269430e-005  -6.9398026615e-004   9.9337581041e-001  -6.6625928198e-003   9.9987123251e-001  -9.5366290211e-004  -4.8037293306e-004  -5.4058505954e-005
  2.2446250000e+008   2.6556447771e-004  -3.3044737178e-004   9.9250767921e-001  -6.9761886746e-003   1.0008102586e+000  -1.1853298020e-003  -4.9420690162e-004  -3.7259589458e-005
  2.3305000000e+008   2.1450264511e-004  -2.1501583652e-004   9.9251880202e-001  -6.6375095352e-003   1.0004835212e+000  -1.2803001770e-003  -3.6719928793e-004  -1.0356365879e-004
  2.4163750000e+008  -3.1306793301e-004  -2.7251090643e-004   9.9333821904e-001  -7.6021427121e-003   1.0007666082e+000  -1.5737896826e-003  -7.3601760328e-004   3.1080655928e-004
  2.5022500000e+008  -3.7953154462e-004  -6.6553979108e-004   9.9239143563e-001  -5.8804463154e-003   1.0002174587e+000  -1.3284203613e-003  -1.2850694745e-003   2.4762990078e-004
  2.5881250000e+008  -5.2658286685e-004  -7.7634767902e-004   9.9181041590e-001  -6.6362466302e-003   1.0006146234e+000  -1.0078812715e-003  -5.7101460246e-004   6.8277083139e-004
  2.6740000000e+008  -7.2006112754e-004  -4.0943588970e-004   9.9350866743e-001  -5.9688057638e-003   1.0014307018e+000  -1.6923313035e-003  -8.8735347101e-004   6.0027978461e-004
  2.7598750000e+008  -2.7992686869e-004  -1.8746430273e-004   9.9362101247e-001  -6.8022698138e-003   1.0003256583e+000  -1.4902938125e-003  -5.0882348012e-004   6.5617031770e-004
  2.8457500000e+008  -7.6860663314e-004  -3.3102695601e-004   9.9474711800e-001  -5.1137527195e-003   1.0007161204e+000  -1.3842010718e-003  -5.3246663852e-004   7.7279967522e-004
  2.9316250000e+008  -7.5225941495e-004  -7.1203888865e-004   9.9340233012e-001  -5.3287984893e-003   1.0011306583e+000  -1.9648111849e-003  -5.3923043629e-004   4.8248058607e-004
  3.0175000000e+008  -9.3194092544e-004   1.3748339816e-004   9.9150278235e-001  -8.5904447228e-003   1.0006348387e+000  -1.0396480917e-003  -4.1567759078e-004   5.0873631817e-004
  3.1033750000e+008  -7.7646194121e-004  -2.1371656267e-005   9.9375050992e-001  -5.7334119183e-003   1.0014689877e+000  -1.3194637716e-003  -7.5516243811e-004   5.3931449711e-004
  3.1892500000e+008  -7.7068025306e-004   1.2634217354e-004   9.9312656450e-001  -7.1049329649e-003   1.0004600803e+000  -9.9678840310e-004  -7.9801490090e-004   3.7142373363e-004
  3.2751250000e+008  -7.3568623198e-004   1.5419076582e-004   9.9347214729e-001  -7.1338790471e-003   1.0002286001e+000  -2.3625338848e-003  -8.3437615893e-004   4.7541328086e-004
  3.3610000000e+008  -5.3114997411e-004   3.3639693026e-004   9.9413219932e-001  -7.1864544660e-003   1.0011580976e+000  -1.8563964137e-003  -5.8547145259e-004   3.2075718158e-004
  3.4468750000e+008  -5.5803678403e-004   1.7453572116e-004   9.9243126007e-001  -6.5152053927e-003   1.0006216236e+000  -3.7128529522e-004  -4.2005579115e-004   2.6396812070e-004
  3.5327500000e+008  -6.0087240771e-004   3.3861029869e-004   9.9320420896e-001  -7.2826917675e-003   9.9909620010e-001  -1.7906174256e-003  -4.3206729525e-004   2.6927279266e-004
  3.6186250000e+008  -3.2960076399e-004   2.0559812850e-004   9.9374991855e-001  -7.7913144254e-003   1.0010596580e+000  -1.7346853978e-003  -3.9204375979e-004   4.5092865111e-004
  3.7045000000e+008  -6.8983383506e-004   6.1043708828e-004   9.9335351194e-001  -6.6858743809e-003   1.0008010666e+000  -1.9448761240e-003  -5.6220663747e-004   3.5282888296e-004
  3.7903750000e+008  -2.9215838285e-004   6.0204466826e-004   9.9273804668e-001  -6.7408647432e-003   1.0006575143e+000  -1.6102316818e-003  -3.0637344379e-004   2.0365074711e-004
  3.8762500000e+008  -2.1855439989e-004   5.1923471342e-004   9.9516605058e-001  -6.6279548737e-003   9.9990224251e-001  -1.9304392515e-003  -3.4295512991e-004   4.9620812973e-004
  3.9621250000e+008  -8.3739219593e-005   5.7023785261e-005   9.9354417352e-001  -6.5044347773e-003   1.0005679231e+000  -1.4626503548e-003  -3.7484751272e-004   5.6020267840e-004
  4.0480000000e+008   2.0702221806e-004   2.8975763455e-004   9.9403352724e-001  -6.9044639849e-003   1.0005155046e+000  -2.1292230950e-003   8.1147828501e-005   4.4076849822e-004
  4.1338750000e+008   2.5402634582e-004   1.5483526377e-004   9.9243998131e-001  -6.0805023737e-003   1.0010731879e+000  -2.0864332036e-003   9.8384587735e-005   2.6761656660e-004
  4.2197500000e+008  -1.2826533060e-004  -2.2466544427e-004   9.9255681129e-001  -6.8385820514e-003   1.0007337425e+000  -2.1556519673e-003   2.6687724433e-004   4.5031749774e-004
  4.3056250000e+008   2.7224263083e-004  -3.0974763015e-005   9.9470276387e-001  -6.5161307489e-003   1.0003999336e+000  -2.0028686087e-003   5.9180555597e-004   4.4496370741e-004
  4.3915000000e+008   2.2467392562e-004  -2.0971954707e-004   9.9694091950e-001  -5.0371738730e-003   1.0004600770e+000  -2.2631985671e-003   5.3078017934e-004   1.2622151138e-004
  4.4773750000e+008   5.5465590977e-005  -5.0673830084e-004   9.9631910790e-001  -6.1390135674e-003   1.0003476624e+000  -2.3874016116e-003   6.8340374508e-004  -2.1229973807e-005
  4.5632500000e+008  -2.1356631186e-004  -3.3029593801e-004   9.9348264496e-001  -6.3450211377e-003   1.0004403627e+000  -2.3181814789e-003   7.7047338850e-004   4.2864560259e-005
  4.6491250000e+008  -2.5370225617e-004  -1.2777392990e-004   9.9458843892e-001  -7.6109892204e-003   1.0000607992e+000  -2.4046907495e-003   6.0875328391e-004  -3.6153351798e-005
  4.7350000000e+008  -2.9475288770e-004  -3.4651020140e-004   9.9396402870e-001  -6.8003022987e-003   1.0003664425e+000  -2.3001691380e-003   6.2457187154e-004  -6.0845906478e-007
  4.8208750000e+008  -4.4107206484e-004  -1.0299592355e-004   9.9222081444e-001  -8.0203908537e-003   1.0000496244e+000  -1.8445258099e-003   6.5378454064e-004   1.6472733504e-004
  4.9067500000e+008   7.8112341441e-006  -3.9946465531e-004   9.9144445503e-001  -7.0188415522e-003   1.0001385782e+000  -2.1760175573e-003   5.0557013915e-004  -5.2018925876e-005
  4.9926250000e+008   6.8184309452e-006  -4.4762925158e-004   9.9187246868e-001  -6.2521896931e-003   9.9979925225e-001  -1.9276784022e-003   5.9136850538e-004   1.9692547416e-005
  5.0785000000e+008  -4.5817035189e-004  -3.1504625968e-004   9.9107058006e-001  -6.9309945701e-003   9.9978049245e-001  -1.4839491237e-003   6.9197892145e-004   2.7102280274e-004
  5.1643750000e+008  -4.7053592130e-004   6.4399906297e-005   9.9048640558e-001  -6.5930157707e-003   1.0003521799e+000  -1.4766722767e-003   7.6125675446e-004  -1.6457184297e-004
  5.2502500000e+008  -4.2398358380e-004   7.2420024800e-004   9.9264263185e-001  -7.0263053656e-003   1.0009455442e+000  -1.1299983794e-003   2.2265119209e-004  -5.6198712964e-004
  5.3361250000e+008   4.9382822210e-004   3.8105048662e-004   9.9345234539e-001  -7.4485184450e-003   1.0003208149e+000  -1.7969469673e-003  -1.0904523776e-004  -6.7135721129e-004
  5.4220000000e+008   8.3892807346e-004   3.6911922815e-005   9.9183838138e-001  -7.0195167967e-003   1.0010553685e+000  -2.3000295325e-003  -9.8758133614e-004  -4.4505150670e-004
  5.5078750000e+008   6.6895778262e-004  -5.8919581269e-004   9.9325230678e-001  -7.9103022437e-003   1.0006451614e+000  -2.7549387410e-003  -1.0617940226e-003  -2.7435641976e-004
  5.5937500000e+008   4.4048006994e-004  -7.0844360728e-004   9.9102922285e-001  -6.7576969273e-003   1.0007669684e+000  -2.3469740577e-003  -1.1277089273e-003   2.2941628905e-004
  5.6796250000e+008   2.7656941603e-004  -8.3595587270e-004   9.9110805710e-001  -7.8447184385e-003   1.0004241085e+000  -1.7681916979e-003  -1.0741391404e-003   6.3779425515e-004
  5.7655000000e+008  -2.2410532836e-004  -1.0176418037e-003   9.9249742454e-001  -9.0305176556e-003   1.0006374997e+000  -2.8394674853e-003  -9.0675894333e-004   9.0028569629e-004
  5.8513750000e+008  -5.2796512168e-004  -9.2952409597e-004   9.9201553290e-001  -8.0083626415e-003   9.9992752146e-001  -2.6102887164e-003  -9.0680784304e-004   8.9493637492e-004
  5.9372500000e+008  -6.3397677174e-004  -1.0292835434e-003   9.9054977138e-001  -7.4119389928e-003   9.9939348534e-001  -3.0419790957e-003  -5.4867836228e-004   1.1653396649e-003
  6.0231250000e+008  -1.0563118686e-003  -4.2686371656e-004   9.9147850061e-001  -6.8469430021e-003   1.0009414665e+000  -2.3347957271e-003  -1.3508341241e-004   1.0685470908e-003
  6.1090000000e+008  -9.4702415233e-004  -2.3694389673e-004   9.8966696466e-001  -8.5750195739e-003   1.0001822293e+000  -1.9679340640e-003  -2.9202123535e-004   8.6379820652e-004
  6.1948750000e+008  -9.1568242566e-004  -1.0718332168e-005   9.8893617087e-001  -7.8296737916e-003   1.0001115647e+000  -2.5407739060e-003  -8.2179503657e-005   6.8478967186e-004
  6.2807500000e+008  -7.2516311523e-004   1.0709256408e-004   9.9102021511e-001  -9.5359553068e-003   1.0008057347e+000  -2.2148909401e-003   1.3586169606e-004   4.4858052495e-004
  6.3666250000e+008  -3.5831176257e-004   5.0921768539e-004   9.9255706467e-001  -7.2485370468e-003   9.9966703399e-001  -2.6660012209e-003   4.8047152464e-005   2.3418438963e-004
  6.4525000000e+008   1.0291393095e-004   3.2978491344e-004   9.9317403936e-001  -6.6172272539e-003   1.0003472698e+000  -2.9537803287e-003   5.0504590149e-004  -2.1766238499e-004
  6.5383750000e+008   5.3978622548e-005   3.2738539192e-004   9.9223248508e-001  -7.6979324392e-003   9.9976445842e-001  -2.3263576971e-003   3.7547897495e-004  -1.7052351828e-004
  6.6242500000e+008   3.3888852309e-004   2.8710619096e-005   9.8954261458e-001  -8.8939386740e-003   1.0011406882e+000  -3.0488429340e-003   3.4917375559e-004  -5.6048732430e-004
  6.7101250000e+008   5.1272605807e-004  -1.1656872843e-004   9.9082191157e-001  -7.1037886437e-003   1.0001201999e+000  -2.1911121533e-003   2.6803067748e-004  -8.0184284766e-004
  6.7960000000e+008   7.0297580773e-004  -4.5636401838e-004   9.9210894687e-001  -7.1549803891e-003   1.0006696985e+000  -3.1005499210e-003   1.0382908148e-004  -1.1756383393e-003
  6.8818750000e+008   1.9436799201e-004  -8.4892350389e-004   9.9134711319e-001  -8.3011519210e-003   1.0003981873e+000  -3.2170890990e-003   6.7175442535e-005  -1.3445879445e-003
  6.9677500000e+008   1.2701888273e-004  -1.0295623934e-003   9.9059953167e-001  -6.9009641237e-003   9.9995755377e-001  -2.6756907893e-003  -3.6392985447e-004  -1.2880036821e-003
  7.0536250000e+008  -4.1099517873e-004  -9.7637221454e-004   9.9122983522e-001  -7.5736438359e-003   1.0000761189e+000  -3.1708550043e-003  -5.8218929518e-004  -1.3811963847e-003
  7.1395000000e+008  -5.9040719422e-004  -9.6947266660e-004   9.9102832999e-001  -8.1272815866e-003   1.0004161076e+000  -2.9032493480e-003  -6.8841443741e-004  -1.3102130662e-003
  7.2253750000e+008  -9.9433150419e-004  -8.7491147374e-004   9.8830499458e-001  -8.7386311376e-003   9.9988122876e-001  -2.6754696754e-003  -8.7587918303e-004  -1.2098382098e-003
  7.3112500000e+008  -1.0783327874e-003  -4.3614178413e-004   9.9036647408e-001  -7.8454647728e-003   9.9923896490e-001  -3.2450876729e-003  -1.0762454093e-003  -8.8159623367e-004
  7.3971250000e+008  -1.0788848022e-003   1.0934365765e-006   9.9086677833e-001  -9.3953520968e-003   9.9974488658e-001  -3.0187107954e-003  -1.2622903018e-003  -6.4436565973e-004
  7.4830000000e+008  -8.5842145733e-004   4.7293542811e-004   9.9152384007e-001  -6.9457393286e-003   9.9972207953e-001  -3.1349727174e-003  -1.2386225549e-003  -5.8018295901e-004
  7.5688750000e+008  -6.7287821311e-004   7.0797847254e-004   9.8924593017e-001  -9.0840615383e-003   9.9914534154e-001  -3.1659872300e-003  -1.2952611722e-003  -1.5032162680e-004
  7.6547500000e+008  -7.9280190460e-005   9.2337885540e-004   9.8875630236e-001  -9.7123831428e-003   9.9982616700e-001  -3.1121967583e-003  -1.2726930281e-003   8.9500412475e-005
  7.7406250000e+008   1.0683346213e-004   8.5153728666e-004   9.8988490954e-001  -1.0154361646e-002   9.9992313117e-001  -3.1992358848e-003  -8.7829676623e-004   2.6797909884e-004
  7.8265000000e+008   5.1864905080e-004   4.1511985658e-004   9.8824458981e-001  -7.4912405753e-003   9.9936298809e-001  -2.9584691432e-003  -5.8013720905e-004   7.0313560377e-004
  7.9123750000e+008   7.8995835693e-004   2.8800333831e-004   9.8735413475e-001  -8.8806733089e-003   9.9957532993e-001  -2.4427996712e-003  -5.7290112971e-004   5.5939576622e-004
  7.9982500000e+008   5.9294345439e-004   6.9717834739e-005   9.8852061281e-001  -7.3629304711e-003   1.0003114880e+000  -2.1328798121e-003  -5.2354108827e-004   7.1838332786e-004
  8.0841250000e+008   8.8023526467e-004   6.2266143191e-005   9.8991808300e-001  -9.1835731324e-003   9.9995274908e-001  -2.6509849635e-003  -4.0187148977e-004   9.9504651886e-004
  8.1700000000e+008   1.0077787550e-003  -1.8477836492e-004   9.8917505531e-001  -8.0462869334e-003   1.0002663837e+000  -2.7258533925e-003  -5.2779220880e-004   7.8016481619e-004
  8.2558750000e+008   9.5624356124e-004  -6.2444366552e-004   9.8747979457e-001  -9.1561163005e-003   1.0000317611e+000  -3.1640709207e-003  -5.2928886951e-004   8.7290083428e-004
  8.3417500000e+008   9.9601875703e-004  -9.7312219189e-004   9.8859411511e-001  -8.8661791017e-003   1.0012308613e+000  -2.9033087748e-003  -3.5918575008e-004   1.2530363628e-003
  8.4276250000e+008   5.9660104244e-004  -1.2916267784e-003   9.8722598508e-001  -9.5081658191e-003   9.9978085976e-001  -3.5193005268e-003  -1.4853163295e-004   1.1396335260e-003
  8.5135000000e+008   9.3827384381e-005  -1.2430214966e-003   9.8787063032e-001  -9.4155710467e-003   1.0013170037e+000  -2.6284069576e-003   1.9667472674e-004   1.2559654247e-003
  8.5993750000e+008  -1.8096125241e-004  -1.1962211560e-003   9.8910429859e-001  -9.2818275581e-003   1.0000060870e+000  -4.3741139071e-003   4.0717677036e-004   1.1179159374e-003
  8.6852500000e+008  -5.0929846712e-004  -9.2983219407e-004   9.8827870504e-001  -8.3244319717e-003   1.0000136818e+000  -3.0345817649e-003   6.4453799462e-004   9.7182371996e-004
  8.7711250000e+008  -5.6116159914e-004  -6.4279458234e-004   9.8738879951e-001  -8.9197436220e-003   1.0003985199e+000  -4.1610690224e-003   6.6424441253e-004   5.1346781993e-004
  8.8570000000e+008  -4.2902836262e-004  -3.8488735935e-004   9.8893355394e-001  -7.4153855836e-003   1.0004092667e+000  -3.5343314528e-003   5.8065287492e-004   3.6623158686e-005
  8.9428750000e+008  -2.3325531662e-004  -1.9892532973e-004   9.8773474183e-001  -1.0003971369e-002   9.9998251722e-001  -4.5164325632e-003   1.5072825741e-004  -1.9291460656e-004
  9.0287500000e+008   4.3455235225e-005  -2.0223731605e-004   9.9056038525e-001  -8.6964315772e-003   9.9991466386e-001  -4.5477949101e-003   2.0852658350e-004  -4.9919720358e-004
  9.1146250000e+008   2.8446849657e-004  -1.2286880505e-004   9.8896191196e-001  -9.0440343438e-003   9.9884015003e-001  -4.4781883998e-003  -3.5327335329e-004  -4.2489696048e-004
  9.2005000000e+008   3.2973417370e-004  -4.0193923010e-004   9.8958246319e-001  -8.8674741154e-003   9.9847308252e-001  -2.8669786230e-003  -7.0294298841e-004  -5.0594512928e-004
  9.2863750000e+008   5.4665113744e-004  -4.8892049712e-004   9.8876143490e-001  -8.1112622154e-003   9.9889954483e-001  -3.5322495546e-003  -8.5391108550e-004  -5.1992694265e-004
  9.3722500000e+008   3.2215148738e-004  -8.8509520061e-004   9.8789099443e-001  -8.4478476717e-003   9.9927413214e-001  -4.1287988017e-003  -1.1993229527e-003  -6.8647118311e-004
  9.4581250000e+008   1.9179049576e-004  -1.1830640193e-003   9.8937497087e-001  -7.6565069483e-003   9.9970818977e-001  -3.3733867741e-003  -1.4058532147e-003  -4.9464609897e-004
  9.5440000000e+008  -1.4518379306e-005  -1.3057141199e-003   9.8666295904e-001  -1.0033022763e-002   1.0001077480e+000  -3.8638328218e-003  -1.3762573431e-003  -2.6713616813e-004
  9.6298750000e+008  -3.7133282682e-004  -1.3914976728e-003   9.8816974021e-001  -7.7082772701e-003   9.9992664797e-001  -3.2488045716e-003  -1.4135323821e-003  -1.1621076924e-004
  9.7157500000e+008  -6.3471681809e-004  -1.2591943642e-003   9.8771764134e-001  -1.1287809674e-002   1.0000731707e+000  -3.7059623795e-003  -1.4039930874e-003   1.3807559617e-005
  9.8016250000e+008  -8.8847978270e-004  -9.7600906365e-004   9.9022706843e-001  -8.6349271817e-003   9.9974063189e-001  -4.6715804246e-003  -1.4861513552e-003   1.1440837197e-004
  9.8875000000e+008  -1.1323911114e-003  -6.2581790948e-004   9.8764271610e-001  -1.0812410941e-002   9.9915015802e-001  -3.5321988210e-003  -1.1897641201e-003   3.5291342721e-004
  9.9733750000e+008  -1.1624198789e-003  -2.7117058723e-004   9.8711727429e-001  -9.8196316998e-003   9.9935927060e-001  -3.0247581688e-003  -1.0581035745e-003   2.2521818884e-004
  1.0059250000e+009  -9.6942186254e-004   1.6515888165e-004   9.8775666522e-001  -9.3940247039e-003   1.0000288533e+000  -3.6992308469e-003  -7.0340360589e-004   2.3027745165e-004
  1.0145125000e+009  -8.3201627200e-004   4.6708557606e-004   9.8870305550e-001  -1.1596876940e-002   9.9942592136e-001  -3.3041778193e-003  -4.3757332659e-004   2.5799609596e-004
  1.0231000000e+009  -5.1407499335e-004   5.3709324898e-004   9.8841835954e-001  -8.5303431927e-003   9.9931080493e-001  -4.1636814825e-003  -2.0530817904e-004   2.0976152265e-004
  1.0316875000e+009  -2.1514663110e-004   8.4519627148e-004   9.8721768499e-001  -9.5685874894e-003   9.9896561429e-001  -3.7234018660e-003   5.5645960416e-005   5.9109961318e-005
  1.0402750000e+009   3.0231915999e-004   6.6235054716e-004   9.8709174487e-001  -9.6150500948e-003   9.9977483435e-001  -3.1628359313e-003   2.4712313849e-004  -2.1382750552e-004
  1.0488625000e+009   5.8581502398e-004   6.2407123629e-004   9.8869803559e-001  -9.2318980523e-003   9.9923967090e-001  -3.0743048475e-003   4.8419644530e-004  -2.9435940835e-004
  1.0574500000e+009   8.0030189840e-004   2.2121461409e-004   9.8786170885e-001  -9.2618165120e-003   9.9977916508e-001  -3.6738450231e-003   5.1056383898e-004  -5.6957296533e-004
