# Hz S RI R 50.000000
! Metas.Vna.Tools, 2.8.8664.20301
! Metas.Vna.Data, 2.8.8664.20285
! Created: UTC 2024.02.11 10:08:34
! FREQ                re:S1,1             im:S1,1             re:S2,1             im:S2,1             re:S1,2             im:S1,2             re:S2,2             im:S2,2          
  1.3000000000e+008   7.9365699147e-005  -1.3246070233e-003   9.9350611656e-001  -6.9621897348e-003   1.0002691453e+000  -1.3463725912e-004   7.5209477484e-004   3.2470876920e-004
  1.3858750000e+008  -7.7731623507e-004  -1.2606856503e-003   9.9508531138e-001  -5.5468565064e-003   1.0003850188e+000   4.1464488319e-004   9.7408663242e-004  -2.0167682221e-004
  1.4717500000e+008  -1.6474846544e-003  -8.0613519884e-004   9.9394802064e-001  -6.4645818702e-003   1.0005377844e+000   1.0014145867e-004   1.5282943268e-003  -1.5175458608e-004
  1.5576250000e+008  -1.1616459366e-003   6.0656754505e-004   9.9181992129e-001  -6.5910061242e-003   1.0002683704e+000   5.2879852519e-004   9.9495421093e-004  -1.0688582714e-003
  1.6435000000e+008  -6.1635626636e-004   2.5737045613e-004   9.9270098455e-001  -6.2897076086e-003   1.0005051618e+000   1.0675737973e-004   1.1280719794e-003  -6.3749016125e-004
  1.7293750000e+008  -8.4463629064e-004   1.2460673666e-003   9.9174526571e-001  -6.0891630276e-003   1.0007100580e+000  -1.8613791664e-005   7.6102472807e-004  -1.2931559087e-003
  1.8152500000e+008  -3.0587741140e-004   3.3308974253e-004   9.9048158678e-001  -6.9558595412e-003   9.9994011136e-001  -1.4660957332e-004   7.4515367799e-004  -7.4989789818e-004
  1.9011250000e+008  -7.0417861322e-004   6.2861272074e-004   9.9009108826e-001  -8.7237683042e-003   1.0005759144e+000  -4.0193825297e-004   6.5074812622e-004  -9.8391834548e-004
  1.9870000000e+008  -1.4564931390e-004   9.3254528802e-004   9.9112370010e-001  -7.5338216210e-003   1.0010630875e+000  -3.7845892002e-004   1.7992515694e-004  -4.2286902128e-004
  2.0728750000e+008   4.3581633765e-004   3.2426403163e-004   9.9177389536e-001  -6.3884722603e-003   1.0007756533e+000  -2.2412491805e-004   1.2699769789e-004  -2.9986580421e-004
  2.1587500000e+008   3.6862515750e-004  -5.2398317048e-004   9.9369428616e-001  -7.1510151140e-003   1.0000067659e+000  -4.8223041655e-004  -3.3302352247e-004   1.1772893478e-004
  2.2446250000e+008   1.0282829662e-004  -8.4835887153e-004   9.9262801437e-001  -6.7121114675e-003   1.0005306284e+000  -2.2706380611e-004  -5.2804158424e-004   3.2812248491e-005
  2.3305000000e+008   2.2961081575e-004  -1.5152940720e-004   9.9184158581e-001  -6.3148840714e-003   1.0005210759e+000  -5.2307927706e-004  -4.4409876216e-004   1.8259731274e-004
  2.4163750000e+008   5.6079960352e-005  -1.2510573007e-004   9.9255434332e-001  -7.9953936654e-003   1.0005367444e+000  -8.3460442676e-004  -4.3553606379e-004   2.2888492813e-004
  2.5022500000e+008  -4.6750634980e-004  -4.5849365931e-004   9.8954502239e-001  -7.2472795312e-003   1.0006178303e+000  -2.9881024981e-004  -1.1699297169e-003   5.6036067116e-004
  2.5881250000e+008  -4.6107525657e-004  -7.5762969253e-004   9.9346788213e-001  -6.5453455150e-003   1.0004613952e+000  -7.6911382213e-004  -5.7719430246e-004   6.8140785856e-004
  2.6740000000e+008  -9.3114651618e-004  -6.4720578549e-004   9.9270224546e-001  -7.2088926504e-003   1.0009276448e+000  -1.6906532200e-003  -3.3403680174e-004   4.7467534484e-004
  2.7598750000e+008  -2.3008727947e-004  -3.2853995273e-004   9.9144064869e-001  -7.7423451042e-003   1.0007099814e+000  -5.0653594409e-004  -2.6731674452e-004   6.5473309084e-004
  2.8457500000e+008  -1.0290781701e-003  -2.8799135543e-004   9.9017276416e-001  -8.9456610859e-003   1.0005703687e+000  -7.7183994684e-004  -2.2320862514e-004   5.0454730895e-004
  2.9316250000e+008  -4.1954564046e-004  -5.8510215515e-004   9.9196834099e-001  -7.5786429193e-003   1.0010215019e+000  -1.3808849630e-003  -2.3787535606e-004   4.4932226415e-004
  3.0175000000e+008  -6.9236466201e-004   3.9507837172e-004   9.9139806368e-001  -9.5804035086e-003   1.0001647296e+000  -1.2730820119e-003  -4.7171970010e-004   4.9557780807e-004
  3.1033750000e+008  -7.5468180392e-004  -1.2834433589e-004   9.9333242611e-001  -6.5955152435e-003   1.0012267721e+000  -1.3342936814e-003  -6.9638490283e-004   3.1471444264e-004
  3.1892500000e+008  -1.0295568707e-003   2.1052381618e-004   9.9211828373e-001  -7.9116384034e-003   1.0003304738e+000   3.5329455119e-004  -5.2088865266e-004   1.7131959793e-004
  3.2751250000e+008  -9.2668185605e-004   1.9172989732e-004   9.9224845421e-001  -8.2326350245e-003   1.0000647790e+000  -1.3626703620e-003  -7.2869146087e-004   3.4726969122e-004
  3.3610000000e+008  -9.7943336134e-004   1.5372475367e-004   9.9166852551e-001  -7.6350695512e-003   1.0013705010e+000  -1.7921130631e-003  -6.6083813177e-004   2.0610970423e-004
  3.4468750000e+008  -7.3043634326e-004   2.3976980688e-004   9.8966796063e-001  -8.1034690471e-003   1.0006698783e+000  -6.7490470348e-004  -5.2093086769e-004   1.5505732141e-004
  3.5327500000e+008  -5.3104878527e-004   2.6929269412e-004   9.9144807462e-001  -9.2911535944e-003   9.9939607983e-001  -1.6736820528e-003  -7.3279357185e-004   1.8225036824e-004
  3.6186250000e+008  -8.0897239086e-004   3.0945694900e-004   9.9283962466e-001  -8.0133661330e-003   1.0012927430e+000  -8.9633440664e-004  -7.0110939470e-004   3.0307605180e-004
  3.7045000000e+008  -4.6771446738e-004   6.4426898960e-004   9.9458831303e-001  -5.7638045840e-003   1.0004835947e+000  -1.6631138288e-003  -7.4325185156e-004   2.7225272370e-004
  3.7903750000e+008  -3.9707297882e-004   5.8794573020e-004   9.9436923938e-001  -5.8633716412e-003   1.0007581923e+000  -1.3225540681e-003  -3.7721356523e-004   2.2355971206e-004
  3.8762500000e+008  -3.6520002791e-004   3.3682148224e-004   9.9727164396e-001  -5.8732398546e-003   1.0006639681e+000  -1.3568757986e-003  -5.6890202097e-004   4.0076181631e-004
  3.9621250000e+008   6.5617276139e-005   2.2540777966e-004   9.9657574601e-001  -5.6704096247e-003   1.0010662100e+000  -1.0101257676e-003  -5.2938306935e-004   6.4873027041e-004
  4.0480000000e+008   2.7675845004e-004   3.8469480845e-004   9.9755774132e-001  -6.3561231033e-003   1.0007276808e+000  -1.4189125726e-003  -2.5544045148e-004   2.9117894308e-004
  4.1338750000e+008   1.8558572611e-004   2.1261882598e-004   9.9543296435e-001  -6.2791827489e-003   1.0010675849e+000  -1.6707776830e-003   1.3061889726e-004   4.9246171523e-004
  4.2197500000e+008  -7.0572903699e-006  -2.1748959862e-004   9.9623575040e-001  -6.1182507737e-003   1.0002966070e+000  -1.5939360318e-003   3.0666388310e-005   5.2354353334e-004
  4.3056250000e+008   1.3815114285e-004  -1.9154354672e-004   9.9620422834e-001  -6.4667239825e-003   1.0008263542e+000  -1.4362153298e-003   4.2866580357e-004   3.4873592272e-004
  4.3915000000e+008  -1.8352329944e-004  -3.3238487453e-004   9.9502866381e-001  -6.1858042856e-003   1.0004272695e+000  -1.7729222965e-003   4.7961154141e-004   3.1951625114e-004
  4.4773750000e+008  -2.2350362835e-005  -2.3784741493e-004   9.9472822372e-001  -6.6588212355e-003   1.0002927088e+000  -1.7288714772e-003   5.7292581112e-004   1.1249492006e-004
  4.5632500000e+008  -1.5519322248e-004  -4.4112575107e-004   9.9067241357e-001  -7.6030988815e-003   1.0005078235e+000  -1.6205504561e-003   5.9265518639e-004   1.6346541379e-004
  4.6491250000e+008  -3.3823334289e-004  -8.0542181554e-005   9.9372177457e-001  -6.9056784936e-003   1.0004298598e+000  -1.9199584679e-003   5.9177442910e-004   8.8204250928e-005
  4.7350000000e+008  -3.6230114404e-004  -2.4980334054e-004   9.9219511459e-001  -7.7094351758e-003   1.0003637115e+000  -1.5556404407e-003   4.8370390062e-004   2.5611157286e-005
  4.8208750000e+008  -5.7950518172e-004  -1.6799210354e-004   9.9143881248e-001  -7.2475291189e-003   9.9957338798e-001  -1.3345737109e-003   6.7887657898e-004   4.1387373489e-006
  4.9067500000e+008   8.2218572337e-005  -2.6937931107e-004   9.9121676360e-001  -8.0903337600e-003   1.0001454551e+000  -1.8269126512e-003   3.5372169031e-004   1.0727342737e-004
  4.9926250000e+008  -9.6641631804e-005  -4.0671034374e-004   9.9328639480e-001  -7.1017614717e-003   9.9987739472e-001  -1.2938295240e-003   6.1494823626e-004  -1.5308600265e-004
  5.0785000000e+008  -5.7780688838e-004  -2.8775160264e-004   9.9401684723e-001  -6.3916895108e-003   9.9993161191e-001  -7.3628883696e-004   5.1468213324e-004   1.8803684255e-004
  5.1643750000e+008  -2.8787043613e-004  -2.0484010168e-005   9.9172866030e-001  -6.6248763107e-003   1.0008064216e+000  -1.3080917455e-003   8.7050201820e-004  -1.3104072455e-004
  5.2502500000e+008  -2.2090107851e-004   7.3225672906e-004   9.9382453753e-001  -6.4237071850e-003   1.0002981651e+000  -9.0385015042e-004   2.3880686836e-004  -4.2393519409e-004
  5.3361250000e+008   4.1568264508e-004   2.4583950441e-004   9.9455187829e-001  -7.2795527960e-003   1.0002689791e+000  -2.0451511937e-003  -1.0577432651e-004  -6.2274991222e-004
  5.4220000000e+008   6.7639586934e-004   1.2713749314e-004   9.9489827619e-001  -7.6641964890e-003   1.0003987613e+000  -1.7435260480e-003  -7.8521764107e-004  -3.4146389526e-004
  5.5078750000e+008   5.2181773244e-004  -6.5506060437e-004   9.9434800197e-001  -7.4574289802e-003   9.9999199952e-001  -2.0496184826e-003  -1.0859790484e-003  -2.0517832962e-004
  5.5937500000e+008   2.9061679375e-004  -8.1217570783e-004   9.9300282943e-001  -8.1125998140e-003   1.0003229125e+000  -2.2338880550e-003  -8.8513095864e-004   2.6067401744e-004
  5.6796250000e+008   3.4175113782e-004  -9.0018190511e-004   9.9520702912e-001  -7.5585744008e-003   1.0000007359e+000  -2.1452028725e-003  -1.1166643451e-003   5.1556679616e-004
  5.7655000000e+008  -3.9859592300e-004  -1.0311733647e-003   9.9456173970e-001  -9.7856601919e-003   1.0010993991e+000  -1.9994008461e-003  -9.7034393967e-004   8.6325014452e-004
  5.8513750000e+008  -4.6545521335e-004  -9.5961340367e-004   9.9464838254e-001  -7.7636833033e-003   9.9983585245e-001  -1.9851792209e-003  -1.0169092147e-003   8.5240964895e-004
  5.9372500000e+008  -5.4531163739e-004  -8.5207675096e-004   9.9376163332e-001  -6.8167546362e-003   1.0004814895e+000  -2.6723098060e-003  -5.9392272548e-004   1.0737433888e-003
  6.0231250000e+008  -9.7144754464e-004  -4.6932775704e-004   9.9418020158e-001  -6.2738210831e-003   1.0001840740e+000  -2.7942244849e-003  -5.2445342981e-004   1.0494889775e-003
  6.1090000000e+008  -8.7230758420e-004  -4.0514113328e-004   9.9435240641e-001  -7.6631712886e-003   1.0000846148e+000  -2.1048877894e-003  -4.6591842786e-004   8.4314577764e-004
  6.1948750000e+008  -7.9688512253e-004   1.1446464548e-004   9.9394410321e-001  -7.0312934112e-003   9.9958312843e-001  -1.7087251935e-003  -3.3092636543e-004   6.7460743094e-004
  6.2807500000e+008  -7.4273236422e-004   1.0101113676e-004   9.9480653086e-001  -9.2700991943e-003   9.9997118539e-001  -1.9982711109e-003   2.2648414895e-005   6.2407987714e-004
  6.3666250000e+008  -4.0760505665e-004   5.3740802468e-004   9.9594797694e-001  -7.5021559947e-003   9.9935649843e-001  -2.6852948437e-003   6.4847589769e-005   2.7047400662e-004
  6.4525000000e+008  -3.7345300477e-005   4.3247419704e-004   9.9528469993e-001  -6.1593446429e-003   1.0004357772e+000  -2.3299473714e-003   3.6051440527e-004   4.9317486812e-006
  6.5383750000e+008   1.0825193083e-004   3.1329888547e-004   9.9515845894e-001  -7.0139688375e-003   9.9973124436e-001  -1.3180232897e-003   3.9908063882e-004  -2.0603103879e-004
  6.6242500000e+008   3.6327362973e-004   1.6047036470e-004   9.9397843155e-001  -7.2977835420e-003   1.0001715608e+000  -3.2997984068e-003   2.9843323508e-004  -4.4292049429e-004
  6.7101250000e+008   4.2155295102e-004  -2.8621885204e-004   9.9477658189e-001  -5.7300285570e-003   1.0002310293e+000  -1.3311805597e-003   2.7421039375e-004  -6.8976954077e-004
  6.7960000000e+008   6.0260707145e-004  -6.4274232790e-004   9.9421617911e-001  -5.7971185685e-003   1.0003650396e+000  -2.4922654587e-003   1.2391885833e-004  -9.9624904398e-004
  6.8818750000e+008   2.3886232287e-004  -1.0206100705e-003   9.9285137633e-001  -8.2184156049e-003   1.0002063074e+000  -2.8336133366e-003  -8.5929267006e-005  -1.0211030988e-003
  6.9677500000e+008   1.5871160975e-004  -1.0900602530e-003   9.9325688522e-001  -6.2075132938e-003   1.0007083531e+000  -2.6465330447e-003  -8.6781414729e-005  -1.0928874227e-003
  7.0536250000e+008  -2.3514267542e-004  -1.0017566552e-003   9.9310053860e-001  -8.2073051531e-003   1.0000580850e+000  -2.6717136282e-003  -1.6802141430e-004  -1.3746595679e-003
  7.1395000000e+008  -7.3067010925e-004  -1.0630586251e-003   9.9392272065e-001  -8.0172090606e-003   9.9992366750e-001  -2.4738582875e-003  -5.4271795927e-004  -1.3204810679e-003
  7.2253750000e+008  -1.0960114751e-003  -8.6944436119e-004   9.9173893169e-001  -7.6737214454e-003   9.9990450997e-001  -2.5478636946e-003  -8.6537403608e-004  -1.1900563519e-003
  7.3112500000e+008  -1.0724268083e-003  -5.2649563820e-004   9.9176825828e-001  -8.4131037968e-003   1.0005551266e+000  -2.0365960578e-003  -9.2137699152e-004  -9.8275704160e-004
  7.3971250000e+008  -9.7833145351e-004   7.0148927826e-005   9.9295983789e-001  -8.4366630575e-003   9.9977079574e-001  -2.8265759659e-003  -9.5689423821e-004  -6.9631122263e-004
  7.4830000000e+008  -8.2251016561e-004   5.0412038361e-004   9.9468680464e-001  -6.8051943193e-003   9.9967920437e-001  -2.9671050205e-003  -1.0139468062e-003  -6.8996090685e-004
  7.5688750000e+008  -8.0109633775e-004   7.4082280272e-004   9.9267554559e-001  -8.5649027379e-003   1.0000706981e+000  -3.3082152103e-003  -1.2882353985e-003  -2.8494097970e-004
  7.6547500000e+008  -1.3066293844e-004   8.2387992887e-004   9.9329914574e-001  -7.4838484722e-003   1.0002594572e+000  -2.4409972617e-003  -1.2785468518e-003   6.4735163369e-005
  7.7406250000e+008   6.6461276639e-005   8.0801589426e-004   9.9248308245e-001  -8.9837631468e-003   1.0000690389e+000  -2.9628187025e-003  -7.5020469233e-004   3.2951642395e-004
  7.8265000000e+008   3.1537691914e-004   6.2643071399e-004   9.9367659232e-001  -7.1646368810e-003   9.9977086061e-001  -2.3809919930e-003  -7.5536539343e-004   6.7054948529e-004
  7.9123750000e+008   6.2710847825e-004   2.9232333742e-004   9.9422210888e-001  -6.9279817625e-003   1.0000121460e+000  -2.2828409953e-003  -7.5320482136e-004   6.4339692234e-004
  7.9982500000e+008   7.4815010839e-004   3.0166707619e-004   9.9500022990e-001  -7.2104514781e-003   1.0003430504e+000  -1.4097956322e-003  -5.2866793555e-004   7.9870148370e-004
  8.0841250000e+008   1.0237656178e-003   1.5912821402e-004   9.9486711882e-001  -7.4276369183e-003   9.9960792235e-001  -2.3760937899e-003  -4.8565508877e-004   8.6126369886e-004
  8.1700000000e+008   1.2027054330e-003  -1.9702431705e-004   9.9513050187e-001  -6.9387691605e-003   1.0006798476e+000  -1.9848407141e-003  -3.6981221011e-004   1.0041169070e-003
  8.2558750000e+008   1.1295079760e-003  -5.4021016520e-004   9.9460359286e-001  -6.7322932555e-003   1.0012870117e+000  -3.0943963773e-003  -4.3557651108e-004   1.2355885094e-003
  8.3417500000e+008   1.0983451340e-003  -1.1056204032e-003   9.9368465406e-001  -7.3273973786e-003   1.0010105927e+000  -2.8312364225e-003  -2.8471821936e-004   1.3125448041e-003
  8.4276250000e+008   5.7942045140e-004  -1.1660672063e-003   9.9243816569e-001  -8.6252281085e-003   9.9945882850e-001  -2.8880482145e-003   1.1368571444e-004   1.4361409705e-003
  8.5135000000e+008   1.5551416764e-004  -1.2859956431e-003   9.9286234292e-001  -7.3414290224e-003   1.0008153562e+000  -3.2596186081e-003   3.0305227975e-004   1.3263556521e-003
  8.5993750000e+008  -4.2263293918e-005  -1.2107186714e-003   9.9433723509e-001  -7.3785868781e-003   1.0003300965e+000  -3.7887241879e-003   3.9491384474e-004   1.2230230786e-003
  8.6852500000e+008  -4.2593167743e-004  -9.5664030592e-004   9.9065008726e-001  -8.3335386750e-003   9.9948719990e-001  -2.9056860701e-003   5.5476945441e-004   7.9362957342e-004
  8.7711250000e+008  -5.0195095712e-004  -8.1523345365e-004   9.9411160623e-001  -8.7552421372e-003   9.9989570349e-001  -3.4352651380e-003   6.3391485232e-004   4.2756176046e-004
  8.8570000000e+008  -3.8098126618e-004  -4.6238904801e-004   9.9486339304e-001  -6.3198925277e-003   9.9975431284e-001  -2.6565041896e-003   6.0044947164e-004   2.4857651200e-004
  8.9428750000e+008  -2.6680194265e-004  -1.9242000177e-004   9.9255361814e-001  -8.2797609460e-003   9.9998333565e-001  -3.0112091885e-003   2.7598994074e-004  -1.2856666144e-004
  9.0287500000e+008   1.6960580719e-005  -2.3105196134e-004   9.9069034987e-001  -6.9183185939e-003   9.9915033264e-001  -3.9553791334e-003  -3.0969857922e-005  -2.2026094029e-004
  9.1146250000e+008   2.8071982923e-004  -2.6109467718e-004   9.9172826424e-001  -9.2163147788e-003   9.9859036523e-001  -2.6680044254e-003  -3.6784025986e-004  -3.6755977468e-004
  9.2005000000e+008   2.3010991219e-004  -3.2756761738e-004   9.9419393418e-001  -7.6148321993e-003   9.9866973598e-001  -2.4057812305e-003  -6.3179920986e-004  -7.0352728801e-004
  9.2863750000e+008   4.6574202080e-004  -5.5027543142e-004   9.9436719778e-001  -8.5422127740e-003   9.9973792212e-001  -2.9524066207e-003  -8.9591263566e-004  -7.4063470600e-004
  9.3722500000e+008   3.3673312864e-004  -8.3910893271e-004   9.9337498043e-001  -7.8110710775e-003   9.9871353504e-001  -3.6779445166e-003  -1.0675643976e-003  -7.0258825543e-004
  9.4581250000e+008   2.5735909991e-004  -1.0791707445e-003   9.9457393300e-001  -6.9079254414e-003   9.9868219099e-001  -3.3050346274e-003  -1.4152382628e-003  -5.2780690856e-004
  9.5440000000e+008  -9.3822038291e-006  -1.2598494983e-003   9.9260379174e-001  -7.8870501174e-003   9.9955598247e-001  -1.6494061933e-003  -1.4553206527e-003  -3.8362488051e-004
  9.6298750000e+008  -3.8021621373e-004  -1.3928864113e-003   9.9551791180e-001  -6.3814569279e-003   1.0000093748e+000  -4.1971319783e-003  -1.6891659422e-003  -2.4290738756e-004
  9.7157500000e+008  -6.6056174945e-004  -1.2474720860e-003   9.9388497024e-001  -9.3087862415e-003   1.0006247460e+000  -2.7680425039e-003  -1.4756536015e-003  -1.7610432927e-004
  9.8016250000e+008  -8.4838051442e-004  -1.0609920952e-003   9.9511254233e-001  -7.9773839959e-003   9.9991377854e-001  -4.1390223399e-003  -1.6052167875e-003   5.1894299154e-005
  9.8875000000e+008  -1.1565799974e-003  -6.7463932370e-004   9.9418022948e-001  -7.4127435070e-003   9.9972999096e-001  -3.0949894776e-003  -1.4349073767e-003   1.5595341644e-004
  9.9733750000e+008  -1.1291538021e-003  -3.0012635556e-004   9.9468377287e-001  -8.0115093981e-003   9.9958337717e-001  -2.4511782417e-003  -1.3311922257e-003   1.5844065944e-004
  1.0059250000e+009  -1.0193547636e-003   2.4035072213e-006   9.9482602008e-001  -7.7320302342e-003   1.0001610472e+000  -3.0601759388e-003  -8.8301128710e-004   2.0349938873e-004
  1.0145125000e+009  -7.8064044997e-004   2.8813787446e-004   9.9462076502e-001  -1.0937793499e-002   9.9954896736e-001  -2.7033509141e-003  -5.2894599664e-004   2.4995881847e-004
  1.0231000000e+009  -4.5298436289e-004   4.5697875158e-004   9.9377610447e-001  -6.8765920465e-003   9.9887920661e-001  -3.5683724926e-003  -2.3283551432e-004   2.7500040237e-004
  1.0316875000e+009  -2.4446028086e-004   7.4746092999e-004   9.9428236558e-001  -8.6783179492e-003   9.9912703165e-001  -3.8308735265e-003   5.0870471412e-005   8.6800631143e-005
  1.0402750000e+009   9.2723712980e-005   5.9664829471e-004   9.9390139669e-001  -8.4589250160e-003   9.9921272024e-001  -3.0011937250e-003   3.7848834938e-004  -4.7464888689e-005
  1.0488625000e+009   4.2724322294e-004   4.7595780515e-004   9.9396220637e-001  -7.5716240676e-003   9.9897424506e-001  -3.5162902732e-003   6.2146610536e-004  -2.8300236588e-004
  1.0574500000e+009   7.7773651086e-004   1.2064327937e-004   9.9441561055e-001  -8.3187202435e-003   9.9961714566e-001  -3.5547879811e-003   7.7923262220e-004  -4.4336519240e-004
