# Hz S RI R 50.000000
! Metas.Vna.Tools, 2.8.8664.20301
! Metas.Vna.Data, 2.8.8664.20285
! Created: UTC 2024.02.11 10:08:08
! FREQ                re:S1,1             im:S1,1             re:S2,1             im:S2,1             re:S1,2             im:S1,2             re:S2,2             im:S2,2          
  1.3000000000e+008   3.8135864490e-004  -1.0601247338e-003   9.9871634993e-001  -3.9722327387e-003   1.0006242185e+000  -3.1324515425e-003   2.8847390584e-004   4.0775474190e-004
  1.3858750000e+008  -2.6776542057e-004  -7.6600240538e-004   9.9989744303e-001  -2.5465555832e-003   1.0002074875e+000  -1.7758183704e-003   3.6135820249e-004  -2.4673606992e-004
  1.4717500000e+008  -5.8244782537e-004  -1.0163160626e-003   9.9956586886e-001  -3.3671453721e-003   9.9990581027e-001  -1.9570294088e-003   1.6411603974e-004  -2.1855420612e-004
  1.5576250000e+008  -8.2516432445e-004   1.0407918217e-004   9.9973617538e-001  -3.1086496525e-003   9.9975351492e-001  -1.7266643234e-003   6.8415141256e-004  -4.5297348713e-004
  1.6435000000e+008   1.4039283490e-004   1.1306803321e-003   9.9968454351e-001  -2.0065015915e-003   1.0006268514e+000  -2.1728427677e-003  -1.4401527509e-004  -3.1519860895e-004
  1.7293750000e+008  -3.0008470105e-004   9.7172740182e-004   9.9961175948e-001  -2.5448618569e-003   9.9991695373e-001  -1.7519152189e-003   5.6274776448e-004  -4.2959694146e-004
  1.8152500000e+008   2.8181047072e-004   3.3711561833e-004   9.9933233630e-001  -3.0304758305e-003   1.0000024701e+000  -2.2126333900e-003   2.5347318008e-004   8.6907164003e-005
  1.9011250000e+008  -2.1930544029e-004   2.4893980193e-004   9.9985583966e-001  -3.3287879882e-003   1.0004752246e+000  -2.0712264165e-003  -2.6519439987e-004  -6.3282984842e-004
  1.9870000000e+008   7.2158136968e-005   1.2859560712e-004   9.9946726784e-001  -3.2114343463e-003   1.0007162168e+000  -2.3773405076e-003   1.4877151292e-004  -3.0820440651e-004
  2.0728750000e+008   3.0020005657e-004  -1.5094515135e-004   9.9836090737e-001  -2.0285112297e-003   1.0004414462e+000  -2.2194197520e-003   7.1936220620e-005  -4.5271282778e-004
  2.1587500000e+008   3.3262583719e-004  -7.0852212770e-004   9.9790340057e-001  -3.5138232311e-003   9.9971485336e-001  -1.9474882043e-003  -3.0914529581e-004   5.0529241523e-004
  2.2446250000e+008   2.0916914193e-004  -4.0835838542e-004   9.9824508505e-001  -2.9002285242e-003   9.9994767520e-001  -1.5492713754e-003  -2.9816005189e-004   2.4493146740e-004
  2.3305000000e+008  -9.6353155948e-005  -4.8982040900e-004   9.9798419420e-001  -3.0068187162e-003   1.0002772627e+000  -2.0855035745e-003  -3.5397125685e-004   2.1856762456e-004
  2.4163750000e+008  -4.4672418011e-004  -4.1058950406e-004   9.9846520265e-001  -4.5248223799e-003   1.0002123989e+000  -2.8331186918e-003  -5.1199164172e-004   2.5113863740e-004
  2.5022500000e+008  -6.2059099499e-004  -5.2772666226e-004   9.9767986847e-001  -3.6572721680e-003   1.0000322097e+000  -2.5793352830e-003  -4.3975022088e-004   5.3110201957e-004
  2.5881250000e+008  -5.7819798011e-004  -5.4717001836e-004   9.9728455834e-001  -2.7883155074e-003   1.0000676414e+000  -2.9542110180e-003  -1.1752280918e-004   6.2001534860e-004
  2.6740000000e+008  -5.4392993426e-004  -2.0864510065e-004   9.9843067768e-001  -4.6426009999e-003   1.0001907257e+000  -3.4117136478e-003  -3.3319909614e-004   4.4001611642e-005
  2.7598750000e+008  -7.5216130139e-005  -1.1033935278e-004   9.9746976541e-001  -4.8128319003e-003   1.0002303537e+000  -2.4491542241e-003  -1.7598084395e-004   3.8041086106e-004
  2.8457500000e+008  -6.5366036551e-004  -2.8436036364e-004   9.9765158024e-001  -4.0921744184e-003   9.9999052672e-001  -2.5398980992e-003  -9.8646329185e-005   3.9293676595e-004
  2.9316250000e+008  -1.1087903777e-004  -4.2996898484e-004   9.9700241279e-001  -3.3441239733e-003   1.0004877479e+000  -3.0442138193e-003   1.1046698121e-004   2.1248865292e-004
  3.0175000000e+008  -4.2752776821e-004   3.1203407892e-004   9.9884914154e-001  -4.4827352122e-003   1.0000682593e+000  -1.9775573921e-003  -1.7487081871e-004   1.3160613330e-004
  3.1033750000e+008  -8.1505511390e-004   1.7710799924e-004   9.9847459112e-001  -3.2857404384e-003   1.0010567986e+000  -2.6503190163e-003  -3.7396096689e-004   1.6070749619e-004
  3.1892500000e+008  -2.8742015249e-004  -3.7623821376e-005   9.9717555590e-001  -4.6592948368e-003   1.0001165405e+000  -1.8413183298e-003  -2.8250607221e-004  -1.0474641063e-004
  3.2751250000e+008  -2.3603946435e-004   8.1951074120e-005   9.9831684796e-001  -4.1909103574e-003   1.0002590657e+000  -3.0623698441e-003  -5.1929975796e-004  -2.1849303015e-004
  3.3610000000e+008  -3.6379133054e-004  -3.1933719897e-006   9.9979181602e-001  -3.3166931443e-003   1.0006930807e+000  -3.0604898338e-003  -5.5413864904e-004   1.2885478823e-004
  3.4468750000e+008  -4.7070590471e-004   3.2507687128e-005   9.9733562682e-001  -2.4792410555e-003   1.0003809591e+000  -2.0205469345e-003  -3.3507352680e-004  -7.6973530924e-006
  3.5327500000e+008  -2.3596302544e-004   2.6645164349e-004   9.9911738903e-001  -3.3794340436e-003   9.9892961351e-001  -3.2871114536e-003  -2.9497872759e-004   2.0475265397e-004
  3.6186250000e+008  -2.8820396464e-004   1.2271524252e-004   9.9894550780e-001  -4.5871692623e-003   1.0002491464e+000  -3.0118787061e-003  -2.1103400833e-004   7.1983883772e-005
  3.7045000000e+008  -3.6344692274e-004   5.6408159237e-004   9.9719809422e-001  -3.7094170367e-003   1.0005302074e+000  -3.3315902899e-003  -3.4332907900e-004   5.1519526040e-005
  3.7903750000e+008  -2.2041162685e-004   2.3613610580e-004   9.9821277315e-001  -2.9434051653e-003   9.9994999068e-001  -2.9453460933e-003  -2.6610074144e-004   4.5521752224e-005
  3.8762500000e+008  -4.7984960411e-004   2.7069089346e-004   1.0002256648e+000  -3.1396996609e-003   9.9970359769e-001  -2.5595742502e-003  -2.6399943978e-004   4.7804477403e-004
  3.9621250000e+008  -6.7789992614e-005   9.7349303989e-005   9.9954644969e-001  -3.0669500176e-003   1.0000593543e+000  -3.0377364935e-003  -3.0116943500e-004   5.8640222638e-004
  4.0480000000e+008   5.6075836934e-006   1.4956415629e-004   9.9915921878e-001  -3.5689896442e-003   1.0000140402e+000  -2.9467909913e-003   7.1593916228e-005   2.8819367839e-004
  4.1338750000e+008   1.8463505907e-004   2.0591333546e-004   9.9788018404e-001  -2.7691117744e-003   1.0007108751e+000  -2.9630950661e-003   8.7627583020e-005   3.4296856876e-004
  4.2197500000e+008  -3.6515039544e-004  -6.0035801453e-005   9.9972215338e-001  -3.2203430917e-003   1.0000561017e+000  -2.8930674489e-003   1.9401371151e-005   4.9313865875e-004
  4.3056250000e+008   9.4283260261e-005   2.1114566960e-004   9.9890409264e-001  -2.8445621913e-003   1.0000587389e+000  -2.9797920267e-003   4.8998842771e-004   2.7083191630e-004
  4.3915000000e+008   8.0246757988e-005   7.9221658452e-005   1.0012640970e+000  -2.6099336806e-003   1.0000496877e+000  -3.3417387642e-003   4.3726869716e-004   3.7076939648e-004
  4.4773750000e+008   1.6619848813e-004  -7.7252003210e-005   1.0002091586e+000  -3.3036347948e-003   1.0002138306e+000  -3.4429177041e-003   3.0126267474e-004   1.2893922632e-004
  4.5632500000e+008  -1.7427755600e-005  -2.9148958605e-004   9.9895122467e-001  -2.6503924410e-003   1.0001207174e+000  -3.2894148483e-003   5.7393222300e-004   2.4494988213e-004
  4.6491250000e+008  -1.4751392670e-004  -1.1655012600e-006   9.9879325176e-001  -4.4677055483e-003   9.9989228907e-001  -3.3867501636e-003   5.6256235804e-004  -7.2358818161e-005
  4.7350000000e+008  -2.5338993329e-004  -2.5111206433e-004   9.9853385933e-001  -3.4000647964e-003   1.0001681771e+000  -3.2361440312e-003   5.7946688878e-004   7.8529745009e-005
  4.8208750000e+008  -1.7195855579e-004  -4.8904887888e-005   9.9681807271e-001  -4.4893833768e-003   9.9953028474e-001  -3.2212095910e-003   5.9660260156e-004   2.8347404401e-005
  4.9067500000e+008   5.2243464091e-005  -4.9007307022e-004   9.9666994532e-001  -4.5795046966e-003   9.9993068586e-001  -3.5808663960e-003   3.3303709099e-004   1.3603228966e-004
  4.9926250000e+008   1.6456908480e-005  -5.1396532207e-004   9.9798529871e-001  -4.4183186652e-003   9.9980955709e-001  -3.1648297848e-003   6.8695215744e-004  -6.9143759365e-005
  5.0785000000e+008  -4.6946904365e-004  -2.0449102477e-004   9.9654617094e-001  -4.4205363567e-003   9.9987983912e-001  -2.7848077786e-003   4.9481523948e-004   3.5609680801e-004
  5.1643750000e+008  -7.1541331997e-004   3.9574887472e-008   9.9667835135e-001  -4.3875548019e-003   1.0000899955e+000  -3.0454505982e-003   5.4353567634e-004   3.2240434481e-005
  5.2502500000e+008  -5.2379642005e-004   4.1156689590e-004   9.9876325666e-001  -2.7144775182e-003   1.0005346640e+000  -2.4208266349e-003   3.0607685032e-004  -3.3468566110e-004
  5.3361250000e+008   1.2629563149e-004   3.5491962733e-004   9.9909106243e-001  -4.7521885703e-003   1.0001637072e+000  -2.9062237240e-003  -1.9192347423e-005  -7.0635541754e-004
  5.4220000000e+008   4.3983922607e-004   1.3498074607e-004   9.9954007260e-001  -4.5617304863e-003   1.0008580345e+000  -3.1147710689e-003  -5.9378782180e-004  -3.1765485672e-004
  5.5078750000e+008   3.4976619633e-004  -3.3479967159e-004   9.9830580452e-001  -5.4224992808e-003   1.0005852701e+000  -3.8351668676e-003  -6.7907695463e-004  -3.0682343263e-004
  5.5937500000e+008   2.7613003880e-004  -2.8631585819e-004   9.9874895089e-001  -3.7748526626e-003   1.0003349629e+000  -3.3098622986e-003  -7.2450741319e-004  -1.9049757711e-005
  5.6796250000e+008   2.4119109605e-004  -4.6384927857e-004   9.9865178537e-001  -4.7091068274e-003   1.0007066996e+000  -3.0826201858e-003  -8.1269044409e-004   3.2115915323e-004
  5.7655000000e+008  -1.8312160273e-004  -6.7703188596e-004   9.9824693271e-001  -7.3461768364e-003   1.0007481037e+000  -4.4989032401e-003  -5.2818669634e-004   6.0294202819e-004
  5.8513750000e+008  -3.2207068128e-004  -6.7006034862e-004   9.9810069177e-001  -5.2404511507e-003   9.9900057175e-001  -3.2957054175e-003  -5.5654523830e-004   7.7503371477e-004
  5.9372500000e+008  -3.7405079053e-004  -4.9918388986e-004   9.9778390957e-001  -3.8587182930e-003   9.9988663146e-001  -4.1937651454e-003  -3.6323736193e-004   8.0779350827e-004
  6.0231250000e+008  -6.1637822859e-004  -4.1437282356e-004   9.9655423914e-001  -3.5515873825e-003   9.9991980819e-001  -3.7171684921e-003  -1.9110841865e-004   8.0100099054e-004
  6.1090000000e+008  -6.1732184487e-004  -8.1487042794e-005   9.9837918304e-001  -5.0230256372e-003   9.9958522274e-001  -3.8446919376e-003  -2.9266270243e-004   8.2646328743e-004
  6.1948750000e+008  -6.8491640510e-004  -8.3565042272e-005   9.9767538849e-001  -4.0153863489e-003   9.9960919522e-001  -3.4604491985e-003  -2.9702756522e-005   5.3980498314e-004
  6.2807500000e+008  -6.5910831430e-004  -6.6557064493e-005   9.9656574585e-001  -6.0033847614e-003   1.0005721715e+000  -3.2348043974e-003   1.8166389014e-004   2.8013334965e-004
  6.3666250000e+008  -2.8916810962e-004   4.4258252418e-004   1.0001578610e+000  -3.8132380034e-003   1.0000371768e+000  -3.5813831601e-003   1.9199958881e-004   1.0688863348e-004
  6.4525000000e+008   1.8375328815e-005   2.2299888128e-004   9.9842834609e-001  -3.6059993400e-003   1.0001203615e+000  -3.7034007675e-003   4.6990052193e-004  -1.1858084414e-004
  6.5383750000e+008  -3.4671419383e-005   3.2238705807e-004   9.9770009982e-001  -4.9879732666e-003   9.9977218238e-001  -2.9224000652e-003   2.9572718791e-004  -1.9821235087e-004
  6.6242500000e+008   1.4801719758e-004   5.8518482904e-005   9.9694105748e-001  -3.7406779353e-003   1.0007452409e+000  -3.7795625189e-003   3.3271640633e-004  -2.7430575686e-004
  6.7101250000e+008   2.9501905331e-004  -9.9913280950e-005   9.9898532156e-001  -3.3140062643e-003   9.9963914226e-001  -3.1920789690e-003   2.8112719496e-004  -4.8952959200e-004
  6.7960000000e+008   3.4095850970e-004  -2.1747340380e-004   9.9926968356e-001  -3.9249791063e-003   1.0003226075e+000  -3.5654567703e-003   1.5936013379e-004  -7.9544905675e-004
  6.8818750000e+008   7.2334159898e-005  -5.3973388935e-004   9.9942953589e-001  -3.4423189242e-003   9.9982707890e-001  -3.6552366621e-003   1.9208489712e-004  -8.2583943408e-004
  6.9677500000e+008   4.1168856086e-005  -5.3042480094e-004   9.9933652297e-001  -3.0648384891e-003   9.9998069019e-001  -3.9434149731e-003  -1.1735422232e-004  -8.5465452465e-004
  7.0536250000e+008  -2.5228701443e-004  -6.5081037041e-004   9.9945904266e-001  -4.6411271287e-003   9.9975875658e-001  -3.6818795623e-003  -1.4866653120e-004  -9.5896291592e-004
  7.1395000000e+008  -5.6587510920e-004  -5.3678015506e-004   9.9845607271e-001  -3.6500508029e-003   9.9975668194e-001  -3.6659201852e-003  -5.6706764047e-004  -9.3093295137e-004
  7.2253750000e+008  -7.7991999660e-004  -4.4498389795e-004   9.9735422334e-001  -4.6120167474e-003   9.9970026847e-001  -3.5204755043e-003  -6.5639496950e-004  -7.2728754476e-004
  7.3112500000e+008  -6.6522432428e-004  -1.0805610191e-004   9.9825146270e-001  -4.2586545069e-003   9.9980784524e-001  -3.9716986582e-003  -7.6875758961e-004  -5.5932020802e-004
  7.3971250000e+008  -5.4412250568e-004   2.4198464834e-005   9.9847196623e-001  -5.4048553581e-003   9.9998996152e-001  -4.5365891237e-003  -9.1730590747e-004  -4.3830517405e-004
  7.4830000000e+008  -5.3921991369e-004   4.8975850186e-004   9.9767875428e-001  -3.5705722345e-003   9.9979697802e-001  -3.8171779690e-003  -6.9421446755e-004  -3.4388420473e-004
  7.5688750000e+008  -4.8479274037e-004   5.4231356498e-004   9.9725333834e-001  -4.8120587208e-003   9.9914401855e-001  -4.1207920168e-003  -9.0436394589e-004  -8.0910522751e-005
  7.6547500000e+008  -1.4506248740e-005   5.2553462331e-004   9.9802486134e-001  -5.2990381912e-003   9.9897012087e-001  -4.0621976193e-003  -9.3646723386e-004   1.7263021385e-004
  7.7406250000e+008   1.3329299516e-004   6.3311996772e-004   9.9849761365e-001  -4.9033855575e-003   9.9992472330e-001  -4.0380760115e-003  -4.4789556851e-004   3.0801470581e-004
  7.8265000000e+008   1.5799952588e-004   2.7547935623e-004   9.9873697281e-001  -3.4104086408e-003   9.9992315009e-001  -3.8187099089e-003  -5.6652145423e-004   5.6875153806e-004
  7.9123750000e+008   2.6910933515e-004   2.7986711769e-004   9.9908455194e-001  -3.2965342402e-003   1.0002425093e+000  -3.0110657101e-003  -5.3862457042e-004   4.3532598359e-004
  7.9982500000e+008   3.3058724446e-004   2.1523264486e-004   9.9887483206e-001  -3.1454032338e-003   9.9975214060e-001  -3.4738972618e-003  -2.7944317944e-004   5.3952369443e-004
  8.0841250000e+008   4.1355466291e-004   3.2396622457e-004   9.9773905937e-001  -4.7434616177e-003   1.0001301443e+000  -2.2023267920e-003  -2.6727646901e-004   6.2992620839e-004
  8.1700000000e+008   6.9444995518e-004   1.2993841516e-004   1.0001485279e+000  -3.5423640614e-003   9.9934087779e-001  -3.8409935941e-003  -2.1198148830e-004   6.1999814548e-004
  8.2558750000e+008   8.4095438955e-004  -2.5676788458e-005   1.0008788330e+000  -3.0344604071e-003   1.0006290363e+000  -4.1811495132e-003  -5.0017473690e-004   7.4648177271e-004
  8.3417500000e+008   9.8796601332e-004  -4.8479524704e-004   9.9885730884e-001  -4.4278185745e-003   1.0006182330e+000  -4.4931156773e-003  -1.9888289202e-004   7.7416933193e-004
  8.4276250000e+008   6.5975080766e-004  -7.5437264059e-004   9.9547936905e-001  -5.3148049620e-003   9.9971186091e-001  -4.4095686130e-003  -6.0847422737e-006   7.7624117988e-004
  8.5135000000e+008   1.5119610632e-004  -8.4725760231e-004   9.9606567842e-001  -4.1585618316e-003   1.0007587561e+000  -3.6404168342e-003   1.4983582656e-004   9.6724789273e-004
  8.5993750000e+008  -3.0776605069e-005  -1.0238857806e-003   9.9780760241e-001  -4.5377915321e-003   9.9968374650e-001  -5.0466587650e-003   3.7615621599e-004   8.2927197046e-004
  8.6852500000e+008  -3.6142389116e-004  -7.8382709239e-004   9.9600382667e-001  -5.2045634153e-003   9.9917315212e-001  -3.3774043331e-003   3.9259318545e-004   6.7607314365e-004
  8.7711250000e+008  -3.4110243309e-004  -5.0480117339e-004   9.9539240513e-001  -5.5487426220e-003   1.0002903401e+000  -4.2041239236e-003   4.2357366605e-004   1.9631607314e-004
  8.8570000000e+008  -4.6798071794e-004  -3.4420686321e-004   9.9638296827e-001  -4.8929994471e-003   1.0000316938e+000  -4.1298376161e-003   4.5540176965e-004   5.4662434355e-005
  8.9428750000e+008  -3.1376828187e-004  -5.9032254989e-005   9.9594211982e-001  -5.2236164700e-003   1.0003459206e+000  -4.7336538241e-003   2.1546944520e-004  -2.4065488666e-004
  9.0287500000e+008  -8.8621020548e-005  -1.2154892126e-004   9.9784494744e-001  -4.8903325362e-003   9.9928887478e-001  -4.2126943755e-003   9.6567881982e-006  -3.8691563892e-004
  9.1146250000e+008   5.7654719665e-005  -1.4519074499e-004   9.9697596986e-001  -5.1549726344e-003   9.9842406779e-001  -4.7399096575e-003  -1.8412301579e-004  -3.8696098023e-004
  9.2005000000e+008   5.9598915379e-005  -2.8168798308e-004   9.9774390590e-001  -3.8713583134e-003   9.9895297282e-001  -3.4020346252e-003  -5.3314037327e-004  -4.7065006334e-004
  9.2863750000e+008   2.5550503218e-004  -3.2446326523e-004   9.9727185282e-001  -4.8830017030e-003   9.9890374256e-001  -5.0887758846e-003  -7.3786906138e-004  -5.0398522197e-004
  9.3722500000e+008   2.1270018555e-004  -5.2831080176e-004   9.9667802173e-001  -4.7804273138e-003   9.9880542071e-001  -4.0053906934e-003  -8.8421715835e-004  -6.0257250242e-004
  9.4581250000e+008   1.4417651217e-004  -7.5428548022e-004   9.9834201453e-001  -3.5335410038e-003   9.9887476486e-001  -3.6147340529e-003  -1.0109912349e-003  -2.8406345287e-004
  9.5440000000e+008  -1.7570693960e-004  -7.4823740422e-004   9.9853033467e-001  -5.2294870335e-003   9.9937250251e-001  -4.1655708320e-003  -1.0671913690e-003  -1.9195529835e-004
  9.6298750000e+008  -3.4591880620e-004  -9.5489852360e-004   9.9996118220e-001  -4.0611131592e-003   9.9917461500e-001  -4.6096062806e-003  -1.1371727555e-003   1.2402969417e-004
  9.7157500000e+008  -5.3998262455e-004  -8.7532464864e-004   9.9906760400e-001  -6.1207766686e-003   1.0000568537e+000  -4.3734325598e-003  -1.0305221952e-003  -3.3731178693e-005
  9.8016250000e+008  -6.7833907193e-004  -6.6943162485e-004   9.9988276675e-001  -5.3564246904e-003   9.9994733415e-001  -5.5400472133e-003  -1.0636544130e-003   1.5201490015e-004
  9.8875000000e+008  -8.7154192409e-004  -4.3774773082e-004   9.9925338383e-001  -3.1802761774e-003   9.9940596298e-001  -4.8396747254e-003  -8.8050890223e-004   3.0120800352e-004
  9.9733750000e+008  -9.3715136778e-004  -8.6282401835e-005   9.9928003299e-001  -4.3114848568e-003   9.9981716814e-001  -3.6556958465e-003  -7.8049932436e-004   3.2019795916e-004
  1.0059250000e+009  -7.3075260753e-004   1.7129809654e-004   1.0006439754e+000  -4.5637006471e-003   9.9969090228e-001  -4.2038766155e-003  -4.0280033811e-004   4.1334425645e-004
  1.0145125000e+009  -7.7114811821e-004   4.7193399629e-004   9.9909049137e-001  -6.5141969397e-003   9.9946292521e-001  -4.7636194123e-003  -2.3353639229e-004   3.2320847565e-004
  1.0231000000e+009  -4.9371168963e-004   4.6068248579e-004   9.9792432353e-001  -4.3210245330e-003   9.9959382563e-001  -5.0465377034e-003  -1.1972812438e-004   3.1041296811e-004
  1.0316875000e+009  -3.1190261581e-004   7.2253994740e-004   9.9886462306e-001  -5.1432141050e-003   9.9946407660e-001  -5.0600558472e-003   1.3250735483e-004   2.6902150592e-004
  1.0402750000e+009   5.6025117247e-005   7.3769018839e-004   9.9778868017e-001  -5.4668531078e-003   9.9979210732e-001  -4.1978533631e-003   3.6460091782e-004   8.8520742165e-005
  1.0488625000e+009   1.8530360065e-004   5.7264263341e-004   9.9883985402e-001  -5.2128211194e-003   9.9934554471e-001  -4.8705842663e-003   6.3767460579e-004  -1.6043794721e-004
  1.0574500000e+009   3.1927368164e-004   3.3876999965e-004   9.9855857797e-001  -4.2018489094e-003   9.9960007263e-001  -4.7619925272e-003   6.0306388173e-004  -3.5167180162e-004
