# Hz S RI R 50.000000
! Metas.Vna.Tools, 2.8.8664.20301
! Metas.Vna.Data, 2.8.8664.20285
! Created: UTC 2024.02.11 10:08:33
! FREQ                re:S1,1             im:S1,1             re:S2,1             im:S2,1             re:S1,2             im:S1,2             re:S2,2             im:S2,2          
  1.3000000000e+008   1.7817698140e-004  -1.7136815019e-003   9.9313743200e-001  -5.7246166014e-003   1.0011545199e+000  -2.9014215147e-004   1.2328933152e-003   6.2148681964e-004
  1.3858750000e+008  -6.5004766483e-004  -1.0665200106e-003   9.9249408048e-001  -5.6699232584e-003   1.0006358368e+000   2.4494069413e-004   1.3811989441e-003   2.2678984231e-004
  1.4717500000e+008  -1.2880403055e-003  -1.2797434620e-003   9.9353576938e-001  -6.4610814473e-003   1.0001911460e+000   4.8104903731e-004   6.4882016070e-004   2.3940218309e-004
  1.5576250000e+008  -9.6377551961e-004   3.0338138647e-004   9.9267650020e-001  -6.7527267244e-003   1.0006961858e+000  -1.6980961313e-004   9.2705970954e-004  -7.9605638766e-004
  1.6435000000e+008  -9.6868901985e-004   1.1035225322e-004   9.9339015593e-001  -6.5464360381e-003   1.0007577044e+000  -8.1931068741e-005   9.3481654671e-004  -6.4774763471e-004
  1.7293750000e+008  -1.0171863657e-003   1.5594728322e-003   9.9431234320e-001  -4.9815507065e-003   1.0005382981e+000  -2.6833084255e-004   1.2449108493e-003  -7.0860210049e-004
  1.8152500000e+008  -5.8295843243e-004   4.6163282671e-004   9.8984939955e-001  -7.3502682417e-003   1.0001060434e+000  -2.3789920984e-004   4.6426847512e-004  -3.6765995800e-004
  1.9011250000e+008  -7.6838440441e-004   5.1811364741e-004   9.9338406387e-001  -7.1910884606e-003   1.0009582577e+000  -8.0292598092e-004   5.6790798137e-004  -1.1114059081e-003
  1.9870000000e+008   2.6778426316e-004   6.9410979696e-004   9.9264933348e-001  -6.2070594854e-003   1.0003305325e+000  -3.4031821893e-004   2.7810376333e-004  -2.7026113891e-004
  2.0728750000e+008   4.6012751631e-004   4.1625855606e-004   9.9104908178e-001  -7.1134841186e-003   1.0007917564e+000  -5.7804413137e-004   2.1255055049e-004  -4.7990572449e-004
  2.1587500000e+008   1.0524110920e-004  -4.1355095571e-004   9.9202401890e-001  -7.1569107456e-003   9.9971424729e-001  -5.7174152364e-004  -3.2612281406e-004   5.8699548596e-005
  2.2446250000e+008   2.3882816176e-004  -6.1220372978e-005   9.9088898961e-001  -6.6181117974e-003   1.0005301719e+000  -2.4113097374e-004  -4.1195198729e-004   1.3323712736e-004
  2.3305000000e+008   7.3303701292e-005   1.1715431195e-004   9.9070699222e-001  -7.1474121341e-003   1.0003326714e+000  -5.0853780639e-004  -2.3805098254e-005   2.6955550848e-004
  2.4163750000e+008  -2.8620575584e-004  -2.7758229758e-004   9.9302512348e-001  -8.2792643912e-003   1.0001348378e+000  -5.2745692243e-004  -5.7679118595e-004   3.7890525312e-004
  2.5022500000e+008  -2.7166096046e-004  -7.4591184736e-004   9.9179465220e-001  -6.5326623465e-003   1.0003556144e+000  -7.1852619396e-004  -1.0078723472e-003   6.1890862668e-004
  2.5881250000e+008  -6.3285777811e-004  -9.5741775841e-004   9.8848704078e-001  -7.9031823540e-003   1.0007086797e+000  -5.1123089555e-004  -7.9982425432e-004   6.3430620985e-004
  2.6740000000e+008  -8.7422143440e-004  -8.2183983381e-004   9.9191106602e-001  -7.1580590904e-003   1.0002165382e+000  -1.4611903108e-003  -6.4144617525e-004   5.2022702451e-004
  2.7598750000e+008  -1.9478015837e-004  -9.2201995193e-005   9.9106810520e-001  -6.8031358926e-003   1.0003866592e+000  -4.6099705757e-004  -3.2526679844e-004   6.0819916486e-004
  2.8457500000e+008  -8.5661392083e-004  -4.2938856295e-004   9.9144568597e-001  -7.4221344189e-003   1.0007174318e+000  -4.8251927087e-004  -3.8447749406e-004   8.8661946952e-004
  2.9316250000e+008  -3.8311803874e-004  -3.0700639858e-004   9.9051115852e-001  -8.2431895999e-003   1.0009158371e+000  -1.4979945739e-003  -2.6864738798e-004   3.6355374917e-004
  3.0175000000e+008  -8.0039348243e-004   1.7169125083e-004   9.9093715841e-001  -8.5573692434e-003   1.0004812847e+000  -4.8864614511e-004  -5.4878041229e-004   1.6617035845e-004
  3.1033750000e+008  -6.6201161163e-004  -1.5648599569e-005   9.9148287929e-001  -5.4688807732e-003   1.0009708228e+000  -1.1851534124e-003  -8.5516224851e-004   5.0470142754e-004
  3.1892500000e+008  -6.2261716145e-004  -8.6556193557e-005   9.9157657185e-001  -7.2330678723e-003   1.0004037236e+000  -6.0271036837e-004  -6.2528774176e-004   4.1042711328e-004
  3.2751250000e+008  -5.2523129961e-004  -3.4597689271e-005   9.9376773203e-001  -7.3654265848e-003   1.0010198347e+000  -1.2896053398e-003  -6.5312219278e-004   6.6176334768e-005
  3.3610000000e+008  -8.3854024986e-004   1.5273522027e-004   9.9276665085e-001  -6.4583593406e-003   1.0007479535e+000  -1.3601538784e-003  -6.5070177058e-004   2.4247057399e-004
  3.4468750000e+008  -9.1609179964e-004  -1.7741679255e-004   9.9122917388e-001  -7.1124165922e-003   1.0007869266e+000  -3.8911710516e-004  -4.3171560089e-004   1.2370770490e-004
  3.5327500000e+008  -6.2608473635e-004   1.6375365831e-004   9.9079986724e-001  -8.9437710936e-003   9.9943595899e-001  -1.8214171197e-003  -6.7564836427e-004   6.3674857604e-005
  3.6186250000e+008  -6.0224605056e-004   1.5203955130e-004   9.9108695454e-001  -8.6385001487e-003   1.0007224293e+000  -1.2435478953e-003  -5.2199815392e-004   1.2801152329e-004
  3.7045000000e+008  -6.5731514199e-004   4.8962598941e-004   9.9403931119e-001  -6.7002660226e-003   1.0009327836e+000  -1.4468764897e-003  -4.5499122946e-004   2.0913885932e-004
  3.7903750000e+008  -1.8062890240e-004   4.0305392677e-004   9.9329559279e-001  -5.6450858821e-003   1.0010909062e+000  -1.2361370140e-003  -5.8084509441e-004  -2.1238169349e-005
  3.8762500000e+008  -2.0352266768e-004   5.6665304041e-004   9.9535307265e-001  -7.2859033043e-003   1.0001596644e+000  -8.7612567321e-004  -2.8506533332e-004   3.0808690518e-004
  3.9621250000e+008  -5.3458699066e-005   2.7516485206e-004   9.9347430528e-001  -7.4432325238e-003   1.0006304218e+000  -1.2582255178e-003  -5.2806171058e-004   3.6964843510e-004
  4.0480000000e+008   3.8896345734e-005   1.5798948265e-004   9.9442940151e-001  -7.4437835026e-003   1.0002045228e+000  -1.4083435278e-003  -8.3767471901e-005   3.2865403809e-004
  4.1338750000e+008   2.6254399144e-004   2.5289677138e-004   9.9446182689e-001  -6.6449464714e-003   1.0009831615e+000  -1.2727175478e-003   1.2029477211e-004   3.6541464805e-004
  4.2197500000e+008   6.7113608966e-005  -7.2274995522e-005   9.9541437499e-001  -6.4971783730e-003   1.0006307486e+000  -1.0597250902e-003   1.6563086027e-004   5.8576334532e-004
  4.3056250000e+008   7.3190744796e-005  -7.9533083159e-005   9.9499846878e-001  -6.8759526829e-003   1.0007437694e+000  -1.2868713066e-003   3.8868508056e-004   3.2927403774e-004
  4.3915000000e+008  -3.7733141247e-005  -2.1063259181e-004   9.9654519849e-001  -4.9517099599e-003   1.0004185269e+000  -1.5240460588e-003   5.3597520637e-004   2.7331475105e-004
  4.4773750000e+008   1.6439941075e-004  -2.3302255864e-004   9.9686373531e-001  -6.1849023628e-003   1.0004027527e+000  -1.7956813328e-003   6.0656032090e-004   2.1377183674e-004
  4.5632500000e+008  -1.6829517916e-004  -5.2172356349e-004   9.9433477757e-001  -6.3377826317e-003   1.0003998490e+000  -1.6745994632e-003   8.2367440955e-004   2.1545995209e-004
  4.6491250000e+008  -3.4248645239e-004   3.9142674142e-006   9.9447014641e-001  -7.2134036429e-003   1.0002899227e+000  -1.5853766723e-003   5.1889713581e-004   5.4956488447e-005
  4.7350000000e+008  -4.7521674574e-004  -1.4214749289e-004   9.9466959438e-001  -6.6057425027e-003   1.0004537265e+000  -1.3742642920e-003   6.9008036105e-004   1.7372970827e-004
  4.8208750000e+008  -2.0026053741e-004   6.5778106727e-005   9.9302055400e-001  -6.8545185762e-003   9.9969357020e-001  -1.0742531726e-003   7.2017935674e-004   2.1298138393e-004
  4.9067500000e+008  -2.1448443832e-004  -1.5052434375e-004   9.9013823732e-001  -8.4640137716e-003   1.0000813123e+000  -1.4910710220e-003   3.2353021273e-004  -9.3145587079e-005
  4.9926250000e+008  -2.6126112446e-004  -3.0299581674e-004   9.9117987007e-001  -7.2328989519e-003   1.0000118809e+000  -1.4698492490e-003   5.5035789580e-004  -7.5987866300e-005
  5.0785000000e+008  -5.7896567014e-004  -2.2925332498e-004   9.9139779813e-001  -6.7585255072e-003   9.9981140605e-001  -8.6242502753e-004   5.1685315287e-004   3.6730303037e-004
  5.1643750000e+008  -4.1717157022e-004   2.0777800517e-004   9.9081037973e-001  -5.5602669054e-003   1.0006075123e+000  -1.3781728261e-003   7.2655147530e-004  -1.4499459597e-004
  5.2502500000e+008  -3.9552123167e-004   6.1403264379e-004   9.9199903607e-001  -6.6208776076e-003   1.0008729550e+000  -7.1542876797e-004   1.5376522232e-004  -2.9049064441e-004
  5.3361250000e+008   4.1145169158e-004   3.3141008690e-004   9.9243394424e-001  -7.4971611420e-003   1.0006896226e+000  -1.7404332167e-003  -1.0862493185e-004  -7.4516780892e-004
  5.4220000000e+008   7.0516131219e-004   4.3357916178e-006   9.9168801046e-001  -7.8550795570e-003   1.0007430463e+000  -1.5203917986e-003  -8.7712077674e-004  -4.5414755302e-004
  5.5078750000e+008   6.7838828773e-004  -7.1372803939e-004   9.9215356979e-001  -7.5464236098e-003   1.0004429128e+000  -1.9623877408e-003  -9.2486203177e-004  -2.6398457745e-004
  5.5937500000e+008   4.0427860217e-004  -7.0040806084e-004   9.9107220447e-001  -7.4631077456e-003   1.0008714982e+000  -2.1853056487e-003  -1.1029576363e-003   9.0831438389e-005
  5.6796250000e+008   3.7173130431e-004  -8.1379147500e-004   9.9395193771e-001  -6.8340838998e-003   1.0003463861e+000  -1.1826182096e-003  -1.1027223842e-003   4.1456851537e-004
  5.7655000000e+008  -3.1083176974e-004  -9.1707904291e-004   9.9241300784e-001  -1.0553033654e-002   1.0004303640e+000  -2.3373161028e-003  -7.8598945862e-004   6.0086199929e-004
  5.8513750000e+008  -4.2266821224e-004  -8.1460476562e-004   9.9280131097e-001  -7.5947173365e-003   9.9999122823e-001  -1.6430997888e-003  -8.2067933686e-004   9.0675529757e-004
  5.9372500000e+008  -6.0177230717e-004  -8.5339870887e-004   9.9044896804e-001  -8.9423674348e-003   9.9994396002e-001  -2.7378712830e-003  -6.1180605273e-004   9.5820499947e-004
  6.0231250000e+008  -1.1837910037e-003  -5.2676641398e-004   9.9214865110e-001  -6.2385433061e-003   1.0002459264e+000  -1.3638323668e-003  -4.2944278500e-004   1.0706739586e-003
  6.1090000000e+008  -1.0252561869e-003  -3.9245158321e-004   9.9158909662e-001  -9.9260078297e-003   1.0002495082e+000  -1.4317309379e-003  -5.3824048433e-004   1.0281777852e-003
  6.1948750000e+008  -9.7450304342e-004   7.7716322208e-005   9.9052264706e-001  -6.7077000844e-003   1.0004547013e+000  -2.3529957142e-003  -3.9971943714e-004   7.2656771042e-004
  6.2807500000e+008  -7.6390384608e-004  -3.3687870267e-005   9.9377021433e-001  -8.4075570574e-003   1.0001674954e+000  -1.7959175938e-003  -1.0777157222e-004   6.4063474652e-004
  6.3666250000e+008  -5.5353749361e-004   5.3864095801e-004   9.9186944495e-001  -6.9827505670e-003   1.0002406193e+000  -2.1825167867e-003   2.2434816258e-005   4.2728928800e-004
  6.4525000000e+008  -4.3505067617e-005   4.4422350050e-004   9.9136980425e-001  -8.0732660498e-003   1.0003773225e+000  -1.9806866924e-003   2.0563015522e-004   4.6878764606e-005
  6.5383750000e+008   1.6116422787e-004   2.7173404578e-004   9.9302071943e-001  -7.2109286274e-003   9.9934985175e-001  -1.2851390410e-003   2.7801615467e-004  -1.6022615193e-004
  6.6242500000e+008   4.7162922898e-004   2.7220013569e-004   9.9089580430e-001  -8.6100324713e-003   1.0004747503e+000  -2.1914885334e-003   3.2004254906e-004  -4.1451421762e-004
  6.7101250000e+008   4.0640021760e-004  -1.4381607314e-004   9.9301663647e-001  -7.1114850670e-003   9.9973448294e-001  -1.7402811773e-003   2.8872321628e-004  -5.1018337213e-004
  6.7960000000e+008   6.6630266319e-004  -5.4225189971e-004   9.9496534196e-001  -7.8193172129e-003   1.0010270421e+000  -2.4667328544e-003   2.3109793445e-004  -1.0523251171e-003
  6.8818750000e+008   1.6375147335e-004  -8.1349135569e-004   9.9233522886e-001  -6.7765516688e-003   1.0003874765e+000  -2.8344368310e-003   1.0955213419e-004  -1.2029350172e-003
  6.9677500000e+008   1.2336000252e-004  -9.8737836957e-004   9.9248348014e-001  -6.9836631557e-003   1.0001415344e+000  -1.9905484999e-003  -6.4041992457e-005  -1.1727339269e-003
  7.0536250000e+008  -3.2954059671e-004  -1.1205069655e-003   9.9140055714e-001  -7.6037871821e-003   1.0000077781e+000  -2.5330940363e-003  -2.9770539212e-004  -1.3087226838e-003
  7.1395000000e+008  -7.6293914480e-004  -1.0217349113e-003   9.9185719476e-001  -7.6684599327e-003   9.9983954211e-001  -1.8769952778e-003  -3.2713955024e-004  -1.3264471129e-003
  7.2253750000e+008  -1.1167866008e-003  -9.0323776460e-004   9.9148847805e-001  -8.8995662689e-003   1.0003731233e+000  -2.5335414298e-003  -8.0967374231e-004  -1.3409076825e-003
  7.3112500000e+008  -1.0810975497e-003  -5.4379165351e-004   9.9060022566e-001  -8.2350156283e-003   1.0002136609e+000  -2.0187786646e-003  -9.0621203847e-004  -1.0086835465e-003
  7.3971250000e+008  -1.1270474924e-003  -1.1107883916e-004   9.9147319505e-001  -8.9545475224e-003   9.9881423787e-001  -2.5395796836e-003  -1.0952406046e-003  -9.1675601657e-004
  7.4830000000e+008  -8.7356110228e-004   5.1795399754e-004   9.9372163779e-001  -6.6953060055e-003   9.9916365820e-001  -2.4335133271e-003  -1.0927005406e-003  -6.9832808103e-004
  7.5688750000e+008  -7.8589011834e-004   6.1547522845e-004   9.9130482677e-001  -8.2713038506e-003   9.9912119586e-001  -2.2891228822e-003  -1.2102197161e-003  -3.5594089474e-004
  7.6547500000e+008  -2.6510487935e-004   9.5278898703e-004   9.8913380000e-001  -9.2522182553e-003   9.9964832884e-001  -2.3206551085e-003  -1.2134065489e-003   3.7895245056e-005
  7.7406250000e+008   1.1525242614e-004   8.3553800252e-004   9.8938422114e-001  -7.9748263068e-003   9.9974739267e-001  -1.9658574289e-003  -8.7153101222e-004   1.5447013885e-004
  7.8265000000e+008   3.5399893606e-004   7.1872647111e-004   9.9253325646e-001  -7.9603468692e-003   9.9953553885e-001  -1.5599983173e-003  -8.7350538756e-004   5.1178928922e-004
  7.9123750000e+008   6.9878542076e-004   3.6785321767e-004   9.9310010721e-001  -6.4560019871e-003   9.9932922542e-001  -1.5610656986e-003  -8.3808373010e-004   5.3529057683e-004
  7.9982500000e+008   7.1655170756e-004   2.8441375258e-004   9.9373573591e-001  -6.9810920915e-003   1.0003065896e+000  -1.5808476420e-003  -6.7849137049e-004   8.8263862815e-004
  8.0841250000e+008   1.0139054547e-003   5.9672912240e-005   9.9187062208e-001  -9.1027849268e-003   1.0000903938e+000  -1.7142232072e-003  -5.3401644544e-004   8.4204042408e-004
  8.1700000000e+008   1.0133017056e-003  -2.6659379332e-004   9.9314316204e-001  -7.6697155335e-003   9.9968234283e-001  -2.0770600318e-003  -5.0499642419e-004   9.5481091471e-004
  8.2558750000e+008   1.0216741710e-003  -5.9675035315e-004   9.9387957038e-001  -6.2678471771e-003   1.0006122061e+000  -2.9652761841e-003  -5.0586784175e-004   1.0760573851e-003
  8.3417500000e+008   1.0297015176e-003  -1.0933281897e-003   9.9325332705e-001  -7.8894127196e-003   1.0010684302e+000  -2.1252829314e-003  -2.3934030750e-004   1.2525474329e-003
  8.4276250000e+008   6.4646276629e-004  -1.4233407143e-003   9.9278338553e-001  -8.2108409320e-003   9.9997446013e-001  -2.5240636379e-003   1.1721853859e-005   1.3405403157e-003
  8.5135000000e+008   1.0879090794e-004  -1.3826424741e-003   9.9373211491e-001  -8.2495665122e-003   1.0010382672e+000  -2.7007505880e-003   2.8646824878e-004   1.4944706660e-003
  8.5993750000e+008  -1.6736704484e-004  -1.3067513780e-003   9.9251029694e-001  -7.3118017900e-003   1.0004475553e+000  -2.7930427207e-003   3.8430900299e-004   1.2121111681e-003
  8.6852500000e+008  -5.4680978833e-004  -1.0116856698e-003   9.9101290464e-001  -8.8781371374e-003   1.0005865885e+000  -3.1061640591e-003   6.9490185014e-004   9.6508811855e-004
  8.7711250000e+008  -6.0144587717e-004  -6.4827489796e-004   9.9045359903e-001  -8.6670441950e-003   1.0006190845e+000  -2.3815278455e-003   7.0572606183e-004   3.6271823532e-004
  8.8570000000e+008  -4.0516283893e-004  -3.8375210087e-004   9.9476198254e-001  -7.4970329534e-003   9.9994121145e-001  -2.9051087768e-003   6.3814008684e-004   1.0468520944e-004
  8.9428750000e+008  -3.9473773297e-004  -2.4659658448e-004   9.9228700327e-001  -7.4347507003e-003   9.9913623766e-001  -2.6733033271e-003   2.9091285020e-004  -1.5452742757e-004
  9.0287500000e+008   1.3495907198e-004  -1.4218593277e-004   9.9217658511e-001  -8.3521832883e-003   9.9967019967e-001  -3.4566798592e-003   1.5859630006e-004  -3.4689052204e-004
  9.1146250000e+008   2.7335968350e-004  -2.3942978574e-004   9.9269821671e-001  -7.8203834676e-003   9.9899458159e-001  -2.7545177958e-003  -3.6280181327e-004  -3.3189082317e-004
  9.2005000000e+008   3.1969683873e-004  -3.8961618676e-004   9.9092272890e-001  -7.7866312437e-003   9.9903582853e-001  -1.6940099054e-003  -5.4851893576e-004  -6.3405717049e-004
  9.2863750000e+008   4.9040382448e-004  -5.8857038613e-004   9.9137558025e-001  -8.6763444888e-003   9.9924536384e-001  -3.3408205852e-003  -7.8413926075e-004  -6.1516010842e-004
  9.3722500000e+008   4.3167673193e-004  -9.4625606690e-004   9.9216092856e-001  -8.7917559488e-003   9.9893513619e-001  -2.6553719163e-003  -1.1082815091e-003  -7.4439761674e-004
  9.4581250000e+008   3.3623669675e-004  -1.1911271379e-003   9.9172717353e-001  -7.9424023960e-003   9.9929421115e-001  -2.8195808378e-003  -1.4314825871e-003  -5.4320669964e-004
  9.5440000000e+008  -3.9502050817e-005  -1.2415250392e-003   9.9042901994e-001  -7.9076412379e-003   1.0004558220e+000  -2.0038640871e-003  -1.4379427414e-003  -5.5086956945e-004
  9.6298750000e+008  -3.7507002200e-004  -1.3545789022e-003   9.9348432019e-001  -7.0315988816e-003   1.0001970803e+000  -2.5383670398e-003  -1.4712245630e-003  -2.4122671915e-004
  9.7157500000e+008  -6.9614128843e-004  -1.2562565227e-003   9.9312032280e-001  -9.0232184769e-003   1.0011282506e+000  -2.7754437189e-003  -1.6567062010e-003  -3.6914129397e-004
  9.8016250000e+008  -8.9947353475e-004  -1.0400534569e-003   9.9172417759e-001  -8.6753085085e-003   1.0003226044e+000  -3.0476217987e-003  -1.4715261777e-003   1.0075738826e-004
  9.8875000000e+008  -1.0403867022e-003  -8.3847464478e-004   9.9243906235e-001  -7.4785070565e-003   9.9981255305e-001  -2.7316584364e-003  -1.4867434283e-003   1.9618669014e-004
  9.9733750000e+008  -1.1290002196e-003  -3.2251202001e-004   9.9098420865e-001  -8.7750816668e-003   9.9920595759e-001  -2.1623825092e-003  -1.2541122945e-003   1.6083904868e-004
  1.0059250000e+009  -1.1285574279e-003   8.9953129014e-005   9.9185827979e-001  -7.3384002483e-003   1.0005858316e+000  -3.2963359954e-003  -9.8050543416e-004   2.6753921024e-004
  1.0145125000e+009  -8.9732989029e-004   4.2166396172e-004   9.9232296318e-001  -1.0131680867e-002   9.9995072862e-001  -3.2681838134e-003  -6.2902271483e-004   4.5260628450e-004
  1.0231000000e+009  -4.7587598327e-004   4.7859025710e-004   9.9345752044e-001  -7.0968948335e-003   9.9961742071e-001  -2.5938628453e-003  -3.9059520450e-004   3.7315869569e-004
  1.0316875000e+009  -2.3657919711e-004   7.4283938920e-004   9.9119563830e-001  -9.9401349350e-003   9.9886410196e-001  -2.7248754441e-003   2.7691100831e-005   3.1445261961e-004
  1.0402750000e+009   2.2848866217e-004   7.0129927391e-004   9.9077974309e-001  -7.7779834381e-003   9.9955714838e-001  -2.2415307082e-003   3.3097426309e-004   2.2303789613e-005
  1.0488625000e+009   5.3157934215e-004   5.1822081381e-004   9.9205818294e-001  -9.1299281368e-003   9.9910581999e-001  -2.5991005560e-003   6.3394938608e-004  -1.8384567021e-004
  1.0574500000e+009   7.0430759508e-004   1.9098215814e-004   9.9117790637e-001  -9.0022361689e-003   9.9953925168e-001  -3.1980540835e-003   9.4195678698e-004  -2.9185098735e-004
