# Hz S RI R 50.000000
! Metas.Vna.Tools, 2.8.8664.20301
! Metas.Vna.Data, 2.8.8664.20285
! Created: UTC 2024.02.11 10:08:11
! FREQ                re:S1,1             im:S1,1             re:S2,1             im:S2,1             re:S1,2             im:S1,2             re:S2,2             im:S2,2          
  1.3000000000e+008   2.1296354663e-005  -1.4728959274e-003   9.9442205011e-001  -6.1235300817e-003   1.0005214202e+000  -2.4972131654e-003   7.6219748364e-004   5.1652213142e-004
  1.3858750000e+008  -7.0621345487e-004  -1.5197120958e-003   9.9591867001e-001  -5.0869700527e-003   1.0005465156e+000  -1.4801729321e-003   9.4755493923e-004   2.9726214717e-006
  1.4717500000e+008  -1.2343958827e-003  -9.1727332848e-004   9.9539149765e-001  -6.4450132306e-003   1.0000157653e+000  -1.8743459667e-003   8.8460485030e-004  -4.0829362693e-004
  1.5576250000e+008  -1.0308001246e-003   3.3641651636e-004   9.9561115380e-001  -5.4324900409e-003   1.0004179205e+000  -1.0425406309e-003   1.3566493161e-003  -1.2263298610e-003
  1.6435000000e+008  -9.8480800074e-004   5.6602661752e-004   9.9632167268e-001  -5.3713859843e-003   1.0006847176e+000  -1.6791444671e-003   8.5008766380e-004  -5.4085582940e-004
  1.7293750000e+008  -9.0054956176e-004   7.4304993619e-004   9.9635285995e-001  -5.0179141510e-003   1.0004980731e+000  -1.7493414058e-003   6.8611176128e-004  -4.2318888845e-004
  1.8152500000e+008  -6.5180960627e-004   1.3637613387e-004   9.9486856403e-001  -5.9993029718e-003   9.9993471215e-001  -2.1445570741e-003   5.4131380491e-004  -5.3400317709e-004
  1.9011250000e+008  -4.2177041245e-004   9.1357605964e-004   9.9678599357e-001  -6.9620030945e-003   1.0012716701e+000  -1.2475805412e-003  -5.3718172834e-005  -8.8883041524e-004
  1.9870000000e+008  -1.2548297632e-004   8.3804925926e-004   9.9688254992e-001  -6.4358524092e-003   1.0004426008e+000  -1.9740074417e-003   3.6651999132e-004  -3.5640721942e-004
  2.0728750000e+008   4.1793737374e-004   2.1027068475e-004   9.9526533209e-001  -4.4011978230e-003   1.0008591059e+000  -1.8814751398e-003   5.8858076130e-005  -3.9425022745e-004
  2.1587500000e+008   2.2954967401e-004  -2.2416386100e-004   9.9687023713e-001  -6.0254473906e-003   1.0004374748e+000  -1.4774462776e-003   2.0898405331e-004   2.8463796073e-004
  2.2446250000e+008   4.9033163247e-004  -6.7878292819e-004   9.9481900418e-001  -5.9342748815e-003   1.0006774656e+000  -2.0016178757e-003   1.0757602070e-004   3.9405135073e-004
  2.3305000000e+008   1.6642191294e-004   9.2634595065e-005   9.9585447265e-001  -5.3574454458e-003   1.0002472116e+000  -1.7986798014e-003   3.7909719716e-005  -2.9287756807e-005
  2.4163750000e+008  -4.9540363111e-004  -3.4519820535e-004   9.9480024270e-001  -7.0956786062e-003   1.0000119976e+000  -2.7541303973e-003  -1.6662032785e-004   1.1746305190e-004
  2.5022500000e+008  -4.6213012817e-004  -4.6535014837e-004   9.9800960606e-001  -6.0184183928e-003   1.0004151399e+000  -2.3443903541e-003  -8.5510941709e-004   8.2407921035e-004
  2.5881250000e+008  -4.8824141232e-004  -7.3254854045e-004   9.9573926554e-001  -5.7884944839e-003   1.0003362652e+000  -2.7562657020e-003  -5.0857117702e-004   5.5566027456e-004
  2.6740000000e+008  -8.9694715301e-004  -5.0176523064e-004   9.9490254475e-001  -6.3235982293e-003   1.0006594184e+000  -3.3976691159e-003  -3.0993918986e-004   1.8051576906e-004
  2.7598750000e+008  -1.8322764183e-004  -3.6692745629e-004   9.9407510960e-001  -7.0132152596e-003   1.0004035098e+000  -2.3621673214e-003  -3.6731787178e-004   6.1257768175e-004
  2.8457500000e+008  -6.0082236106e-004  -4.4659532767e-004   9.9581921861e-001  -5.6548107591e-003   1.0007824253e+000  -2.4290880571e-003  -3.2225476278e-004   4.2866990943e-004
  2.9316250000e+008  -4.8009679855e-004  -4.4700522804e-005   9.9648992648e-001  -5.8479176505e-003   1.0014636518e+000  -3.5092201981e-003  -1.6773254432e-004   3.8157850701e-004
  3.0175000000e+008  -8.7088774653e-004   3.3235843296e-004   9.9629320818e-001  -6.3384243699e-003   1.0006535601e+000  -1.8752489149e-003  -3.3548174859e-004   2.0736721184e-004
  3.1033750000e+008  -8.4785627510e-004   1.7212625928e-004   9.9749025176e-001  -5.0128961909e-003   1.0008070939e+000  -2.5871999005e-003  -5.6166432157e-004   4.7853306662e-004
  3.1892500000e+008  -9.4680158126e-004   5.2956406929e-005   9.9677373821e-001  -6.4935702972e-003   1.0004389262e+000  -2.4475318916e-003  -5.0256386054e-004   2.1075263926e-005
  3.2751250000e+008  -5.7903101145e-004   2.7549307653e-005   9.9608377353e-001  -6.7029952679e-003   1.0009088540e+000  -2.8339073418e-003  -6.1132310763e-004   2.6122620454e-004
  3.3610000000e+008  -3.6475044478e-004   1.3892611714e-004   9.9748052812e-001  -5.7458222840e-003   1.0017001493e+000  -2.4768997549e-003  -3.8814790290e-004  -4.6546068377e-005
  3.4468750000e+008  -8.5296767012e-004   2.6749417372e-004   9.9536932790e-001  -5.8697052595e-003   1.0001116335e+000  -2.5415990486e-003  -5.5257071333e-004  -5.3005695722e-005
  3.5327500000e+008  -5.3064678089e-004   1.4514243391e-004   9.9601508230e-001  -6.9297112822e-003   9.9946989075e-001  -3.1708266017e-003  -6.7691677950e-004  -1.5767293813e-004
  3.6186250000e+008  -6.9708563056e-004   2.1245119874e-004   9.9670462069e-001  -6.3521652532e-003   1.0002932749e+000  -2.5885939711e-003  -5.7340174427e-004   1.6342818411e-004
  3.7045000000e+008  -7.4238694459e-004   4.6826128014e-004   9.9378954300e-001  -7.7933344062e-003   1.0001134141e+000  -3.2050951980e-003  -7.0157506988e-004   2.3626333076e-004
  3.7903750000e+008  -2.9172875269e-004   4.2644090037e-004   9.9611260158e-001  -6.5370860580e-003   1.0000951427e+000  -2.8449039454e-003  -4.8624901898e-004   1.3170200191e-004
  3.8762500000e+008  -8.9328729148e-005   7.0779877606e-004   9.9708138965e-001  -6.4168255705e-003   9.9974334681e-001  -2.7110716449e-003  -6.0914388711e-004   5.4446873132e-004
  3.9621250000e+008  -8.9772606617e-005   3.3867736162e-004   9.9803016246e-001  -5.8557255740e-003   1.0000377400e+000  -3.1734390428e-003  -5.8826377824e-004   4.9669193967e-004
  4.0480000000e+008   3.7908667906e-004   3.8010175416e-004   9.9836189873e-001  -6.6748945586e-003   1.0005548529e+000  -3.1895604054e-003  -3.4882515072e-004   3.2101504506e-004
  4.1338750000e+008   1.9410775341e-004   2.8849515261e-004   9.9744122400e-001  -5.2675553334e-003   1.0007902433e+000  -3.2153653940e-003   2.6448993379e-004   3.8206607636e-004
  4.2197500000e+008   3.5596192676e-005   8.2002483437e-005   9.9855643251e-001  -6.1871061532e-003   1.0006773293e+000  -3.3292080273e-003   1.6506550322e-004   4.8122334595e-004
  4.3056250000e+008   2.3230775665e-004   4.1960257886e-005   9.9862345219e-001  -5.7773903287e-003   1.0006095157e+000  -2.8330824520e-003   2.9331365988e-004   3.6151954300e-004
  4.3915000000e+008  -6.9492132112e-005  -1.9448079350e-004   9.9981791109e-001  -5.1550849130e-003   1.0004542264e+000  -3.4824193977e-003   5.3957092085e-004   2.5905998150e-004
  4.4773750000e+008   8.9111100925e-005  -2.3313774553e-004   9.9994939110e-001  -5.0864666791e-003   1.0003974099e+000  -3.5114309219e-003   7.6074706285e-004   1.0145096584e-004
  4.5632500000e+008  -4.4381437766e-005  -2.8061693661e-004   9.9735119614e-001  -5.2643846383e-003   1.0005296845e+000  -3.2346145097e-003   6.8352204401e-004   3.5625116332e-004
  4.6491250000e+008  -1.8565363231e-004  -1.3552818622e-004   9.9886025403e-001  -6.5661836919e-003   9.9999313983e-001  -3.1519557551e-003   5.9070984743e-004  -4.1038287190e-005
  4.7350000000e+008  -4.8075860137e-004  -2.8927827505e-004   9.9819828077e-001  -5.7460089812e-003   1.0003632163e+000  -3.4318286644e-003   4.7345704003e-004   2.4227816111e-005
  4.8208750000e+008  -2.8518734152e-004   8.5103891051e-005   9.9573627676e-001  -7.2236897123e-003   9.9966485083e-001  -3.0699055244e-003   5.2188450124e-004   3.8279615418e-005
  4.9067500000e+008  -1.0376576136e-004  -3.6825560515e-004   9.9480375979e-001  -7.3579651342e-003   9.9965220168e-001  -3.4456586663e-003   3.3034179365e-004   2.4619991205e-004
  4.9926250000e+008   3.9076520195e-005  -6.3548951703e-004   9.9511276458e-001  -6.2903262114e-003   9.9975613719e-001  -2.9008242686e-003   4.6154641035e-004   2.4391500512e-005
  5.0785000000e+008  -6.1215423333e-004  -4.7409390227e-004   9.9368616635e-001  -6.1765942795e-003   1.0000312845e+000  -2.6342687214e-003   5.9617433199e-004   3.1732616221e-004
  5.1643750000e+008  -5.8970432551e-004  -3.3593853234e-005   9.9421264793e-001  -5.3733820301e-003   1.0005696677e+000  -2.7205425262e-003   8.0643646527e-004   1.8221482946e-004
  5.2502500000e+008  -4.7318341728e-004   6.2019793523e-004   9.9601276703e-001  -4.8732143757e-003   1.0008612318e+000  -2.5634696910e-003   4.8470933890e-004  -3.5914402379e-004
  5.3361250000e+008   4.4993631189e-004   4.6597126835e-004   9.9604045741e-001  -6.6591389705e-003   1.0007991757e+000  -2.8263537469e-003   2.5156078007e-004  -7.6175828986e-004
  5.4220000000e+008   7.9889340460e-004   1.7002989043e-004   9.9577633165e-001  -6.6347258962e-003   1.0007931049e+000  -2.5948547400e-003  -7.3804329157e-004  -4.6849851495e-004
  5.5078750000e+008   6.7326181348e-004  -6.0566868238e-004   9.9611532619e-001  -7.2406474143e-003   1.0008436471e+000  -3.7313301238e-003  -8.2086348508e-004  -3.9057030123e-004
  5.5937500000e+008   5.1815826968e-004  -8.2861916977e-004   9.9594517298e-001  -6.6642442450e-003   1.0004031256e+000  -3.8120622309e-003  -9.4641164404e-004   1.1431907825e-004
  5.6796250000e+008   2.8747407321e-004  -9.0560276856e-004   9.9698517606e-001  -8.0598395596e-003   1.0006889311e+000  -3.9358736025e-003  -1.0342877017e-003   4.5973332875e-004
  5.7655000000e+008  -3.4288582516e-004  -1.0095709293e-003   9.9756136546e-001  -8.0144944413e-003   1.0002171345e+000  -4.0571636730e-003  -8.3703583941e-004   5.9348443943e-004
  5.8513750000e+008  -3.5894550697e-004  -9.9883729588e-004   9.9532699825e-001  -8.2793781072e-003   9.9971937450e-001  -3.3809129972e-003  -6.3614534384e-004   8.6755070655e-004
  5.9372500000e+008  -7.1995333078e-004  -8.6423355612e-004   9.9527902081e-001  -7.1698643331e-003   1.0001002696e+000  -3.9177366712e-003  -5.8472903118e-004   9.3249407957e-004
  6.0231250000e+008  -1.0728647507e-003  -5.1617170610e-004   9.9610106425e-001  -6.1146640119e-003   9.9983811179e-001  -3.2498806856e-003  -2.5751454580e-004   1.1410458817e-003
  6.1090000000e+008  -8.0323323165e-004  -1.9395720115e-004   9.9584623544e-001  -8.4414302621e-003   9.9980214963e-001  -2.9958562339e-003  -4.9627049451e-004   1.0743722063e-003
  6.1948750000e+008  -8.5207841312e-004   1.1184001584e-004   9.9407210339e-001  -6.5835378139e-003   9.9951856198e-001  -3.8187426743e-003  -3.0124153038e-004   7.6614939940e-004
  6.2807500000e+008  -7.9163074333e-004   1.3652609289e-004   9.9663328915e-001  -8.8704384524e-003   9.9983821433e-001  -3.4908123894e-003   2.7005112213e-005   6.0878121968e-004
  6.3666250000e+008  -4.3514029646e-004   3.8105477049e-004   9.9579876287e-001  -6.2339652965e-003   1.0003819358e+000  -4.7604932080e-003   1.4937726334e-004   4.6202581361e-004
  6.4525000000e+008  -7.3772706360e-005   3.9051432360e-004   9.9653168818e-001  -6.5008279096e-003   9.9978338408e-001  -3.4804982957e-003   2.7586881236e-004  -1.1465550993e-005
  6.5383750000e+008   2.6594616569e-004   3.5807940549e-004   9.9656327930e-001  -6.9125173685e-003   9.9970688033e-001  -3.7875549638e-003   2.9296899824e-004  -1.1198096828e-004
  6.6242500000e+008   4.7014309414e-004   1.1373243077e-004   9.9390929706e-001  -7.0911972300e-003   1.0005579686e+000  -4.4492390694e-003   3.5287621091e-004  -3.2846442196e-004
  6.7101250000e+008   3.9144436029e-004  -1.1202083818e-004   9.9652245334e-001  -6.7092404327e-003   1.0000113180e+000  -3.3086692633e-003   2.6217917619e-004  -5.9468295434e-004
  6.7960000000e+008   6.0687765276e-004  -5.4994635450e-004   9.9644827407e-001  -7.1143460158e-003   1.0008500968e+000  -3.8520558376e-003   2.3647557800e-004  -9.5551444842e-004
  6.8818750000e+008   2.4072068078e-004  -9.2687139215e-004   9.9425712889e-001  -7.7239217349e-003   1.0000662062e+000  -3.7309129853e-003   6.7078464669e-005  -1.1306289532e-003
  6.9677500000e+008   2.2136936870e-005  -9.6303913562e-004   9.9679257588e-001  -5.8986603753e-003   1.0004250089e+000  -3.9637825838e-003  -1.0041039492e-004  -1.1824408649e-003
  7.0536250000e+008  -3.3239575120e-004  -1.0379753750e-003   9.9477685006e-001  -7.4646537705e-003   1.0000576846e+000  -3.9791309694e-003  -2.3889109664e-004  -1.3628978643e-003
  7.1395000000e+008  -6.5789122377e-004  -1.0337612901e-003   9.9434160717e-001  -7.0470289255e-003   1.0003169594e+000  -3.8538052966e-003  -5.8466686681e-004  -1.2312938229e-003
  7.2253750000e+008  -1.1678814263e-003  -8.3683182325e-004   9.9218420433e-001  -8.6576708865e-003   1.0002471173e+000  -4.0160159219e-003  -8.2066021917e-004  -1.1660538802e-003
  7.3112500000e+008  -1.1414514189e-003  -4.3118530583e-004   9.9495741475e-001  -8.1833783045e-003   1.0003139005e+000  -3.2858581527e-003  -9.0468596212e-004  -1.1710138633e-003
  7.3971250000e+008  -1.0415125298e-003   1.6489438264e-004   9.9551459720e-001  -8.4717897659e-003   9.9960973151e-001  -5.0265254796e-003  -1.1618617247e-003  -6.5609748881e-004
  7.4830000000e+008  -8.8928065840e-004   4.6097559045e-004   9.9608684624e-001  -6.7281896364e-003   9.9947625960e-001  -4.1317927287e-003  -1.0018085099e-003  -5.6106886599e-004
  7.5688750000e+008  -6.2282595953e-004   7.8757327870e-004   9.9619978513e-001  -6.4209768226e-003   9.9911474992e-001  -4.3497874505e-003  -1.1292360807e-003  -1.9277980325e-004
  7.6547500000e+008  -2.9429094656e-004   7.9045961624e-004   9.9677935922e-001  -7.9176992962e-003   9.9937512676e-001  -4.0093024587e-003  -1.2166798511e-003  -3.2382576207e-005
  7.7406250000e+008   1.8260557190e-004   6.5599014197e-004   9.9518204755e-001  -7.4940696033e-003   9.9961627205e-001  -3.6622036104e-003  -7.3519695578e-004   2.4959970805e-004
  7.8265000000e+008   3.1363775578e-004   4.8872083176e-004   9.9630106147e-001  -6.6946476562e-003   9.9904212325e-001  -4.3039353041e-003  -6.0956744697e-004   7.1300923362e-004
  7.9123750000e+008   5.7279186957e-004   1.9489150241e-004   9.9396563190e-001  -6.9957300513e-003   9.9875913332e-001  -3.4464700891e-003  -4.3271209761e-004   5.8782553121e-004
  7.9982500000e+008   5.5411175046e-004   2.1844350056e-004   9.9773393102e-001  -5.5629735524e-003   1.0001355205e+000  -2.8883891701e-003  -2.8461239893e-004   6.7416623712e-004
  8.0841250000e+008   8.1803358534e-004   2.2456601179e-004   9.9603164162e-001  -6.9879499963e-003   9.9981445691e-001  -3.1133617151e-003  -1.2276488804e-004   7.1736660121e-004
  8.1700000000e+008   1.0141809422e-003   8.3056632207e-005   9.9700920856e-001  -6.0613718037e-003   9.9968014296e-001  -3.4193654239e-003  -2.0768322384e-004   7.7191798009e-004
  8.2558750000e+008   1.1465342336e-003  -1.9788048628e-004   9.9820469677e-001  -6.7128705212e-003   1.0005405100e+000  -3.7807969298e-003  -4.3984029955e-004   1.0202285500e-003
  8.3417500000e+008   1.2011470337e-003  -8.4467852527e-004   9.9775909372e-001  -6.4881774540e-003   1.0012228450e+000  -4.2956136859e-003  -3.1315226323e-004   1.1042316028e-003
  8.4276250000e+008   7.9772428096e-004  -1.2504547071e-003   9.9610718915e-001  -6.8358087600e-003   9.9998287415e-001  -4.5320468242e-003   1.1699372201e-004   1.2008777136e-003
  8.5135000000e+008   3.7973325063e-004  -1.3398718456e-003   9.9647639160e-001  -6.5363215078e-003   1.0009209435e+000  -4.3599114684e-003   2.7911910810e-004   1.3100697104e-003
  8.5993750000e+008  -7.5459492996e-005  -1.3913842727e-003   9.9668769707e-001  -7.5019019546e-003   1.0007726023e+000  -4.7099384534e-003   4.5577507542e-004   1.1544550987e-003
  8.6852500000e+008  -5.2724702738e-004  -1.0407437948e-003   9.9539521924e-001  -7.0229696560e-003   9.9949943262e-001  -4.2107516017e-003   6.2558981362e-004   8.9249034874e-004
  8.7711250000e+008  -6.7697063005e-004  -7.2859340122e-004   9.9515241595e-001  -8.4538971752e-003   1.0002224908e+000  -5.0557240989e-003   6.9691885155e-004   3.8787141824e-004
  8.8570000000e+008  -5.3897074504e-004  -5.1707701740e-004   9.9716713616e-001  -5.9710663177e-003   9.9945966635e-001  -5.2659748127e-003   5.9436891767e-004   1.3942555370e-004
  8.9428750000e+008  -4.7237612496e-004  -1.6565344569e-004   9.9671344247e-001  -7.8978092358e-003   1.0004813148e+000  -5.3199916319e-003   2.9358076643e-004  -2.5566140148e-004
  9.0287500000e+008  -7.6749541014e-005  -1.8004390582e-004   9.9802734855e-001  -8.0722815258e-003   9.9987730446e-001  -5.8459070098e-003   1.1178895830e-004  -4.9509789078e-004
  9.1146250000e+008   2.0774406753e-004  -1.9546643258e-005   9.9664880568e-001  -6.0356287016e-003   9.9925283201e-001  -4.8461027610e-003  -2.2553883661e-004  -3.8784959892e-004
  9.2005000000e+008   2.6835613927e-004  -2.1076426972e-004   9.9887952833e-001  -5.4728157021e-003   9.9885014571e-001  -3.7384610239e-003  -5.6980086702e-004  -7.1071440179e-004
  9.2863750000e+008   5.2406667957e-004  -4.9570259586e-004   9.9825968941e-001  -6.2125767418e-003   9.9959080520e-001  -4.9222408463e-003  -7.9843287552e-004  -6.2798729976e-004
  9.3722500000e+008   4.0917118417e-004  -7.5453684700e-004   9.9770720539e-001  -6.5292610828e-003   9.9870583021e-001  -4.9683930394e-003  -1.1227094179e-003  -8.3278640655e-004
  9.4581250000e+008   2.3684900061e-004  -1.0230379718e-003   9.9799710653e-001  -5.7148514099e-003   9.9960133612e-001  -4.0650261892e-003  -1.3199979647e-003  -4.2402687385e-004
  9.5440000000e+008  -2.4420827750e-005  -1.3031580015e-003   9.9853145527e-001  -5.5675426011e-003   9.9972957426e-001  -4.0127631301e-003  -1.4381645578e-003  -4.5457875322e-004
  9.6298750000e+008  -3.2317360942e-004  -1.2061451246e-003   1.0001189906e+000  -5.9319367433e-003   9.9932052739e-001  -5.1132041248e-003  -1.5803973477e-003  -8.2429433103e-005
  9.7157500000e+008  -6.1219407247e-004  -1.2989282355e-003   9.9893675710e-001  -7.3006378710e-003   1.0002987227e+000  -4.9732090560e-003  -1.5882783358e-003  -1.4299973562e-004
  9.8016250000e+008  -9.4508987727e-004  -9.7351610859e-004   9.9850730126e-001  -7.1032578969e-003   9.9957126722e-001  -5.9401329867e-003  -1.5992616215e-003   1.5511909425e-004
  9.8875000000e+008  -1.0566639722e-003  -6.9908935980e-004   9.9894515277e-001  -5.4394373554e-003   9.9967047066e-001  -4.7499017373e-003  -1.3627979078e-003   2.8153664895e-004
  9.9733750000e+008  -1.2360235447e-003  -3.3368220223e-004   9.9817151609e-001  -6.6040035906e-003   9.9887240034e-001  -4.4451676126e-003  -1.2300437570e-003   3.1592591798e-004
  1.0059250000e+009  -9.7536174391e-004   1.8931201673e-004   9.9895718181e-001  -6.4525240433e-003   1.0003976599e+000  -5.1937767653e-003  -7.2153296948e-004   3.7124517394e-004
  1.0145125000e+009  -9.4020407692e-004   4.9049066229e-004   9.9854743566e-001  -8.6113909258e-003   9.9984619646e-001  -4.5059607618e-003  -5.0923931157e-004   4.1620518775e-004
  1.0231000000e+009  -5.7610174723e-004   5.2142843557e-004   9.9887099573e-001  -5.9939998777e-003   9.9894978639e-001  -4.4088248233e-003  -2.3039180159e-004   4.8612682338e-004
  1.0316875000e+009  -3.4506201210e-004   8.5294617945e-004   9.9761935921e-001  -7.7218489990e-003   9.9924818647e-001  -5.3800319860e-003   8.7183698118e-005   3.8395696304e-004
  1.0402750000e+009   1.3659435057e-004   8.0353370598e-004   9.9716506169e-001  -7.2583158910e-003   9.9984044198e-001  -4.3707547362e-003   4.0466398291e-004   2.9304137703e-005
  1.0488625000e+009   4.9161849050e-004   6.9133514537e-004   9.9814890385e-001  -7.2952006187e-003   9.9964992011e-001  -4.6562691829e-003   7.0968002437e-004   4.9197365518e-005
  1.0574500000e+009   6.4351023395e-004   1.5559292844e-004   9.9674255416e-001  -7.0428209226e-003   1.0001610027e+000  -4.6907373955e-003   9.4092339083e-004  -2.5425575096e-004
