# Hz S RI R 50.000000
! Metas.Vna.Tools, 2.8.8664.20301
! Metas.Vna.Data, 2.8.8664.20285
! Created: UTC 2024.02.11 10:08:16
! FREQ                re:S1,1             im:S1,1             re:S2,1             im:S2,1             re:S1,2             im:S1,2             re:S2,2             im:S2,2          
  1.3000000000e+008   4.5885999507e-004  -1.0302186818e-003   9.8809645249e-001  -7.4864057990e-003   1.0007601666e+000  -1.6798435424e-003   1.0643583640e-003   8.7621973384e-004
  1.3858750000e+008  -4.9939701793e-004  -1.2580971104e-003   9.8951342681e-001  -6.3004584397e-003   1.0004924032e+000  -1.1604385834e-003   1.3131811130e-003  -7.3595702942e-004
  1.4717500000e+008  -1.5405282181e-003  -1.0122306922e-003   9.8885119631e-001  -7.3619282734e-003   1.0008859684e+000  -7.4514292739e-004   9.9005313166e-004  -6.6429472066e-005
  1.5576250000e+008  -1.3586225806e-003   1.1449853478e-004   9.9024822692e-001  -6.8451613799e-003   1.0004102102e+000  -8.8715017799e-004   9.5734920486e-004  -9.1365275890e-004
  1.6435000000e+008  -9.5521200195e-004   6.0939973299e-004   9.9030017904e-001  -6.3776773095e-003   1.0013342385e+000  -1.4299401918e-003   9.0222175430e-004  -9.1922284240e-004
  1.7293750000e+008  -6.2953958548e-004   1.0974990890e-003   9.9012452321e-001  -6.2795437331e-003   1.0002475511e+000  -5.6085202991e-004   9.8796300558e-004  -1.2663518486e-003
  1.8152500000e+008  -3.6041089012e-004   4.7411527940e-004   9.8968233202e-001  -7.0309246259e-003   9.9999358066e-001  -1.4216230181e-003   4.8243612159e-004  -6.5504967024e-004
  1.9011250000e+008  -5.1855854917e-004   7.5404035740e-004   9.9025000485e-001  -8.2436109366e-003   1.0006851308e+000  -1.3549486426e-003   2.2196260592e-005  -8.7468202406e-004
  1.9870000000e+008  -2.1883517296e-005   4.6721727056e-004   9.9008382705e-001  -6.9959665552e-003   1.0000519059e+000  -1.2623235377e-003   2.2738607794e-004  -3.0849012202e-004
  2.0728750000e+008   3.7936801779e-004   3.2851105052e-004   9.8995881973e-001  -5.8246241025e-003   1.0011340356e+000  -9.8673699536e-004   1.5605373417e-004  -1.7386629146e-004
  2.1587500000e+008   3.0707271594e-004  -4.3553527797e-004   9.8864782763e-001  -8.2320813843e-003   9.9941690620e-001  -9.3957160887e-004  -5.8488952797e-004   2.9755770718e-004
  2.2446250000e+008   4.6150625386e-004  -5.3614994744e-004   9.9016219045e-001  -6.8731028828e-003   1.0000721832e+000  -1.1187410096e-003  -2.7928696416e-004   2.8354814061e-004
  2.3305000000e+008   1.7033381860e-004  -2.5565641838e-005   9.9004657433e-001  -6.6292166368e-003   1.0001141206e+000  -1.3072616907e-003  -2.5037314039e-004   3.2260226039e-004
  2.4163750000e+008  -1.1224056285e-004  -4.1069659408e-004   9.9082724377e-001  -8.4679793040e-003   9.9987679575e-001  -1.9903212147e-003  -1.1096508617e-003   4.4332135539e-004
  2.5022500000e+008  -6.8162410286e-004  -3.7093063041e-004   9.8936469728e-001  -7.5401072366e-003   9.9974198136e-001  -1.9353668253e-003  -9.7499526552e-004   9.3202764355e-004
  2.5881250000e+008  -5.7130897393e-004  -4.2681546708e-004   9.8855565078e-001  -6.8659306864e-003   1.0002860929e+000  -2.0972648608e-003  -4.5474459981e-004   8.0952310796e-004
  2.6740000000e+008  -7.9784557359e-004  -4.3391287332e-004   9.9021181467e-001  -7.2319554205e-003   1.0004401975e+000  -2.1606490044e-003  -7.3618273962e-004   5.3994978525e-004
  2.7598750000e+008  -2.4845986287e-004  -2.4947673963e-004   9.9315574972e-001  -7.3501245269e-003   1.0008425882e+000  -1.0251586447e-003  -5.5104944616e-004   7.5253080376e-004
  2.8457500000e+008  -6.5441779871e-004  -2.1339708706e-004   9.9355987514e-001  -6.1896985782e-003   1.0010717297e+000  -1.4086412271e-003  -5.1875871876e-004   4.9374008428e-004
  2.9316250000e+008  -5.5274187524e-004  -4.7723308726e-004   9.9567439070e-001  -4.9598466081e-003   1.0009023515e+000  -2.4081407577e-003  -1.6723401812e-004   7.7256987348e-004
  3.0175000000e+008  -1.1877082483e-003   1.5838972468e-004   9.9629275761e-001  -7.5722847751e-003   1.0004977533e+000  -1.4186834540e-003  -5.6062695250e-004   6.5815554274e-004
  3.1033750000e+008  -1.0570486142e-003   2.0852520830e-004   9.9674822874e-001  -3.9853949483e-003   1.0016564161e+000  -1.8018846407e-003  -8.8426186719e-004   6.3832826399e-004
  3.1892500000e+008  -8.4078387547e-004   2.3397691666e-005   9.9488287879e-001  -6.8319611361e-003   1.0001583050e+000  -1.1230706290e-003  -6.3432391105e-004   2.1748083926e-004
  3.2751250000e+008  -6.3042160135e-004   2.6589031389e-004   9.9632535333e-001  -7.2744354765e-003   1.0002880859e+000  -1.9392756833e-003  -4.3636228755e-004   3.5564940842e-004
  3.3610000000e+008  -8.9035827196e-004  -3.2685615276e-005   9.9567062096e-001  -5.8854181560e-003   1.0009451930e+000  -2.9008545335e-003  -7.4112466845e-004   2.3051764526e-004
  3.4468750000e+008  -6.7163344370e-004   2.5476766836e-004   9.9474271716e-001  -5.4435705257e-003   1.0005170860e+000  -1.7888483814e-003  -2.0879390071e-004   1.3539206968e-004
  3.5327500000e+008  -3.0482998084e-004   3.5159841155e-004   9.9586657100e-001  -6.3191397818e-003   9.9973888041e-001  -1.9029539141e-003  -4.4554568682e-004   4.7754616634e-005
  3.6186250000e+008  -6.2413344463e-004   4.5254210821e-004   9.9571945385e-001  -6.0733591355e-003   1.0008483399e+000  -1.4897004487e-003  -4.2573035878e-004   3.6947422257e-004
  3.7045000000e+008  -7.1565514938e-004   4.8886690401e-004   9.9361392477e-001  -5.8599278705e-003   1.0006297557e+000  -2.5774922806e-003  -5.7416468123e-004   4.1271747957e-005
  3.7903750000e+008  -2.9095517959e-004   6.0471907985e-004   9.9385887676e-001  -5.7343841370e-003   9.9999115969e-001  -2.3356492647e-003  -4.2314179881e-004   2.8223923777e-004
  3.8762500000e+008  -3.8562442782e-004   3.8102764887e-004   9.9648407842e-001  -5.6490820088e-003   9.9988325180e-001  -1.7430571211e-003  -3.4921811187e-004   2.8885309530e-004
  3.9621250000e+008   9.4419141239e-006   9.5580139063e-005   9.9429114521e-001  -6.0698971825e-003   1.0000638757e+000  -2.1426977427e-003  -4.7922049593e-004   4.2131947630e-004
  4.0480000000e+008   6.9676661948e-005   2.4597259447e-004   9.9757279158e-001  -6.5817948635e-003   9.9989158320e-001  -2.4173655884e-003  -1.2601339397e-004   3.1813091602e-004
  4.1338750000e+008   4.0955339931e-004   3.2094449576e-004   9.9592458832e-001  -4.7361936559e-003   1.0007614871e+000  -2.2842552144e-003   1.8819257105e-004   3.1236504432e-004
  4.2197500000e+008  -6.3701924597e-005  -2.2569358739e-004   9.9556264229e-001  -6.0311018811e-003   1.0003177470e+000  -2.3990749819e-003  -4.6859838761e-005   4.9563068058e-004
  4.3056250000e+008   1.5039353268e-005   2.7019496996e-005   9.9717972227e-001  -5.8432307411e-003   1.0003622278e+000  -2.3777428475e-003   3.9192685342e-004   3.0892112816e-004
  4.3915000000e+008  -3.3816055162e-005  -1.7986980947e-004   9.9854671083e-001  -4.4813659406e-003   1.0006097614e+000  -2.4099994441e-003   6.8465817894e-004   2.3684799515e-004
  4.4773750000e+008   1.0384804375e-004  -2.8212210967e-004   9.9848086360e-001  -5.1646630003e-003   1.0004631936e+000  -2.3375867916e-003   6.0947197249e-004   1.5923907526e-004
  4.5632500000e+008  -2.0236455806e-005  -2.6967623439e-004   9.9511454071e-001  -5.2243287347e-003   9.9997512049e-001  -2.3532374533e-003   7.6598148892e-004   3.2066418490e-004
  4.6491250000e+008  -3.0400912113e-004  -1.2741164115e-004   9.9386709389e-001  -7.5002382262e-003   9.9979023483e-001  -2.5901219708e-003   6.4201315892e-004   9.3837254715e-005
  4.7350000000e+008  -1.5378235698e-004  -2.1238066490e-004   9.9334302954e-001  -6.8882777834e-003   1.0003053432e+000  -2.2457309138e-003   5.4467941123e-004   1.1570728270e-004
  4.8208750000e+008  -3.2364618333e-004  -1.4732761404e-004   9.9007491486e-001  -7.1759010345e-003   9.9983613525e-001  -1.8996964170e-003   6.7752700202e-004   1.6007036631e-004
  4.9067500000e+008   1.3407770749e-005  -3.0692520579e-004   9.9009369821e-001  -7.6316965988e-003   9.9979813647e-001  -2.3475235693e-003   3.1178621161e-004   1.8676660228e-005
  4.9926250000e+008  -3.1596067762e-004  -4.3818489785e-004   9.8937580913e-001  -7.4383932291e-003   9.9984496846e-001  -2.3199501856e-003   5.3898199420e-004   9.5405067643e-005
  5.0785000000e+008  -5.5818488865e-004  -4.3553706912e-004   9.9339076819e-001  -5.7539220085e-003   1.0000238404e+000  -1.7230020757e-003   6.8267583530e-004   3.9898234159e-004
  5.1643750000e+008  -6.7149445224e-004  -1.1756721682e-005   9.9215349829e-001  -6.3610351908e-003   1.0002239884e+000  -1.8704651265e-003   7.7155788534e-004  -1.4129988317e-004
  5.2502500000e+008  -4.6994678425e-004   6.1861129242e-004   9.9373993381e-001  -5.0819424008e-003   1.0006101686e+000  -1.7177206333e-003   3.4450606829e-004  -6.4625839384e-004
  5.3361250000e+008   2.9397965164e-004   4.7598439458e-004   9.9556689296e-001  -6.0273486565e-003   1.0006297927e+000  -2.3555583156e-003  -1.1735043888e-004  -8.1241561637e-004
  5.4220000000e+008   6.7660905423e-004   1.2555085744e-006   9.9530482592e-001  -6.4512166005e-003   1.0011132554e+000  -1.8640867513e-003  -9.7196023090e-004  -5.1437174178e-004
  5.5078750000e+008   6.0598068670e-004  -4.9377140950e-004   9.9368976123e-001  -8.4349872011e-003   1.0006951662e+000  -2.2932364542e-003  -1.0247133140e-003  -4.3447455692e-004
  5.5937500000e+008   3.3905289992e-004  -7.1671342123e-004   9.9204840552e-001  -6.9919802067e-003   1.0003964615e+000  -2.2867719376e-003  -1.1028165415e-003   2.9084584720e-005
  5.6796250000e+008   4.4254762341e-004  -8.9486919187e-004   9.9133152753e-001  -6.7785300154e-003   1.0002119457e+000  -2.3636486840e-003  -1.2025627062e-003   5.6345644250e-004
  5.7655000000e+008  -1.2286745853e-004  -9.7281502757e-004   9.9099423612e-001  -9.5289984229e-003   1.0003601556e+000  -2.8754635502e-003  -9.0556125936e-004   7.7575936075e-004
  5.8513750000e+008  -5.5307722071e-004  -7.9641484905e-004   9.9086526508e-001  -8.9527750915e-003   1.0000269250e+000  -2.1473354705e-003  -8.6468941648e-004   7.9186575911e-004
  5.9372500000e+008  -5.3225252536e-004  -8.3693994118e-004   9.8980982331e-001  -7.4522831903e-003   9.9942808725e-001  -2.9025829298e-003  -5.7503639056e-004   9.1919003454e-004
  6.0231250000e+008  -7.9459669057e-004  -6.1013744472e-004   9.9095424519e-001  -8.0789813119e-003   1.0001409053e+000  -2.7820830479e-003  -3.5376111664e-004   9.8296837615e-004
  6.1090000000e+008  -7.0837202458e-004  -1.2770663326e-004   9.9306708200e-001  -7.7840494980e-003   1.0001090271e+000  -2.3319149894e-003  -6.1844370425e-004   1.0428171657e-003
  6.1948750000e+008  -9.6272974965e-004  -9.9436125143e-008   9.9243510054e-001  -6.7767602142e-003   9.9976570487e-001  -3.0460905403e-003  -1.5752113431e-004   7.7591574325e-004
  6.2807500000e+008  -7.1899896559e-004  -3.9545948261e-005   9.9321810544e-001  -9.2253883257e-003   1.0003465109e+000  -2.4958310604e-003   8.4147918561e-005   4.4047200143e-004
  6.3666250000e+008  -5.5895610874e-004   4.6944306383e-004   9.9447001525e-001  -7.8843923030e-003   1.0000978907e+000  -2.5777377616e-003   1.7621519260e-004   2.7160910279e-004
  6.4525000000e+008   4.4497806205e-005   3.4476931164e-004   9.9392242845e-001  -7.1059276187e-003   1.0005688828e+000  -2.6109042629e-003   4.0720381139e-004   5.8387874585e-005
  6.5383750000e+008   1.1060113088e-004   3.3121799938e-004   9.9299405692e-001  -6.7695952557e-003   9.9950313587e-001  -1.7878188290e-003   5.3399697000e-004   1.2313103106e-005
  6.6242500000e+008   1.9344845812e-004   3.0050592582e-005   9.9134030307e-001  -8.0812362775e-003   1.0000912688e+000  -3.0536745033e-003   3.1465135003e-004  -4.2650407832e-004
  6.7101250000e+008   3.2009149100e-004  -8.5511969520e-005   9.9363900674e-001  -6.3767883702e-003   9.9976056186e-001  -2.5118484293e-003   4.9825512249e-004  -5.8977350087e-004
  6.7960000000e+008   5.3272544025e-004  -3.2222906657e-004   9.9248668928e-001  -8.3324795630e-003   1.0002945683e+000  -2.9566529751e-003   1.8284668737e-004  -9.9003635422e-004
  6.8818750000e+008   1.6137977698e-004  -7.5181301537e-004   9.9386986882e-001  -7.0025934210e-003   1.0006265472e+000  -3.2304388332e-003   1.5113831296e-004  -1.1547715837e-003
  6.9677500000e+008   1.6920612852e-004  -8.6480545292e-004   9.9481112741e-001  -6.7728865166e-003   9.9973122664e-001  -2.9097301413e-003  -2.2145799291e-004  -1.2545815834e-003
  7.0536250000e+008  -2.0030021762e-004  -9.0405910250e-004   9.9413409263e-001  -6.9680628129e-003   9.9999326335e-001  -3.1447927516e-003  -2.4857277953e-004  -1.3312339496e-003
  7.1395000000e+008  -6.0599526994e-004  -9.8861322275e-004   9.9362124631e-001  -7.2261927357e-003   9.9979942586e-001  -2.8802359834e-003  -6.1301973435e-004  -1.3103462363e-003
  7.2253750000e+008  -1.0312648613e-003  -8.2080526511e-004   9.9246809433e-001  -7.4573192131e-003   1.0000919006e+000  -2.7918567026e-003  -9.0984998324e-004  -1.3045269782e-003
  7.3112500000e+008  -9.6125506707e-004  -3.5684236018e-004   9.9319141292e-001  -6.4280647068e-003   9.9984332339e-001  -3.1663058796e-003  -9.4394350239e-004  -1.0545093981e-003
  7.3971250000e+008  -1.0658777379e-003  -1.6085134469e-005   9.9090950884e-001  -8.5864745766e-003   9.9962828986e-001  -3.1068468998e-003  -1.2071257082e-003  -7.9168673721e-004
  7.4830000000e+008  -8.7734754554e-004   4.0047768706e-004   9.9089171303e-001  -6.9022360610e-003   9.9943117116e-001  -2.9845133505e-003  -1.0407707211e-003  -6.8723376449e-004
  7.5688750000e+008  -7.0831465901e-004   7.1038813274e-004   9.9121332495e-001  -7.6905641756e-003   9.9895397304e-001  -3.3716378708e-003  -1.2569354312e-003  -2.6283867544e-004
  7.6547500000e+008  -2.1265531400e-004   7.5769058729e-004   9.9244122991e-001  -7.6926123767e-003   9.9879135745e-001  -3.5017882719e-003  -1.3550979284e-003  -1.1502265700e-004
  7.7406250000e+008   7.2802742250e-005   6.8993599372e-004   9.9285881035e-001  -7.6419449057e-003   9.9984608605e-001  -3.1208572030e-003  -9.6382491701e-004   1.7283374595e-004
  7.8265000000e+008   2.8243239423e-004   4.6986711504e-004   9.9432916475e-001  -7.1869126653e-003   9.9937303898e-001  -2.9633310251e-003  -8.9741554707e-004   5.5596313465e-004
  7.9123750000e+008   5.3342937163e-004   3.8020557348e-004   9.9247477169e-001  -6.8713982330e-003   9.9917524332e-001  -2.3713114002e-003  -8.4311968882e-004   5.5468067238e-004
  7.9982500000e+008   4.8268303737e-004   2.7373641722e-004   9.9422097240e-001  -6.5985254332e-003   1.0001664354e+000  -2.1812642909e-003  -7.0979065692e-004   6.9202133640e-004
  8.0841250000e+008   7.5872564256e-004   1.9195366667e-004   9.9355954118e-001  -8.6955330396e-003   9.9955044983e-001  -1.9992721163e-003  -5.4664861553e-004   9.3868726673e-004
  8.1700000000e+008   9.6155926106e-004  -5.9443148797e-005   9.9447935058e-001  -5.8768284380e-003   1.0007785645e+000  -2.5735678747e-003  -5.6057015936e-004   9.1420730387e-004
  8.2558750000e+008   1.1069246075e-003  -2.4187193008e-004   9.9406107913e-001  -5.3764953458e-003   1.0000257309e+000  -3.3310766740e-003  -7.7219642639e-004   1.1020954170e-003
  8.3417500000e+008   1.1881165153e-003  -8.2634271696e-004   9.9385737557e-001  -8.0075261752e-003   1.0005586460e+000  -3.5715158985e-003  -4.5542289081e-004   1.3470249912e-003
  8.4276250000e+008   8.7828261959e-004  -1.1338898094e-003   9.9268123084e-001  -7.3065792974e-003   9.9999243600e-001  -3.1903135654e-003  -3.3789613872e-004   1.4854060444e-003
  8.5135000000e+008   2.0793593742e-004  -1.2574682627e-003   9.9391077006e-001  -7.2054521925e-003   1.0011968080e+000  -3.5992516178e-003   3.4547856718e-004   1.7092118739e-003
  8.5993750000e+008  -1.2677548123e-004  -1.3065376021e-003   9.9274021718e-001  -7.1983856236e-003   9.9982768779e-001  -3.8756850833e-003   3.5790844246e-004   1.3583709090e-003
  8.6852500000e+008  -5.3240502143e-004  -1.0566314669e-003   9.9237503162e-001  -8.3032236120e-003   9.9973926345e-001  -3.4116363901e-003   6.9631907504e-004   1.1072014537e-003
  8.7711250000e+008  -5.6295924235e-004  -8.1767012221e-004   9.9280475759e-001  -7.4923314697e-003   1.0013484093e+000  -3.7091910423e-003   8.4406499993e-004   5.5915578406e-004
  8.8570000000e+008  -5.1147623664e-004  -5.3350052601e-004   9.9221358442e-001  -7.9803257135e-003   9.9965119796e-001  -3.7893220992e-003   7.4554711983e-004   1.4159419355e-004
  8.9428750000e+008  -3.9083378796e-004  -2.3687848285e-004   9.9221701158e-001  -7.6699046842e-003   9.9993914205e-001  -4.0474240862e-003   5.0671489553e-004  -2.7989522817e-004
  9.0287500000e+008  -7.0028190509e-005  -1.6612511654e-004   9.9304261806e-001  -8.1768683606e-003   9.9944300111e-001  -4.1835546249e-003   2.3664758556e-004  -6.1841183182e-004
  9.1146250000e+008   6.8595986527e-005  -1.0427606356e-004   9.9281550182e-001  -8.9907444884e-003   9.9898532883e-001  -3.4483600089e-003  -2.6295720902e-004  -5.5522049195e-004
  9.2005000000e+008   1.6540922655e-004  -2.3730685352e-004   9.9264297476e-001  -7.2929542542e-003   9.9964870309e-001  -3.4209477456e-003  -5.6113008403e-004  -7.2613797832e-004
  9.2863750000e+008   5.1769186574e-004  -5.3593536485e-004   9.9443480540e-001  -6.3624267210e-003   9.9902619991e-001  -3.8120359268e-003  -7.1551318207e-004  -9.5216010354e-004
  9.3722500000e+008   4.2978954241e-004  -7.4571480760e-004   9.9399520934e-001  -6.9485159522e-003   9.9890482803e-001  -3.3351184819e-003  -1.0330273632e-003  -8.7275039095e-004
  9.4581250000e+008   3.1787970273e-004  -9.7142765568e-004   9.9392870767e-001  -7.6450610979e-003   9.9951140200e-001  -2.8635950924e-003  -1.2884787677e-003  -7.9669392990e-004
  9.5440000000e+008   1.2699015363e-004  -1.1154011227e-003   9.9295217280e-001  -7.9295232802e-003   1.0003595522e+000  -3.1286144475e-003  -1.4499953812e-003  -5.4399233746e-004
  9.6298750000e+008  -3.6824748295e-004  -1.2617263364e-003   9.9393976018e-001  -7.3697564333e-003   1.0004817021e+000  -3.9155525292e-003  -1.6767009356e-003  -2.8028059473e-004
  9.7157500000e+008  -5.1943088601e-004  -1.2387087748e-003   9.9486858957e-001  -7.3326679863e-003   9.9955363049e-001  -3.4862423726e-003  -1.6136725545e-003  -1.8668830232e-004
  9.8016250000e+008  -7.4132072346e-004  -1.0362496698e-003   9.9572178554e-001  -6.5913484091e-003   9.9985373662e-001  -4.3168633079e-003  -1.6652224505e-003  -2.8532336638e-005
  9.8875000000e+008  -1.0780645593e-003  -8.0878798607e-004   9.9431917156e-001  -6.7388675047e-003   9.9950249338e-001  -3.8498818128e-003  -1.4651365686e-003   2.6054994986e-004
  9.9733750000e+008  -9.7946416994e-004  -3.6133682486e-004   9.9351402780e-001  -7.2387673520e-003   9.9925193038e-001  -3.1023089580e-003  -1.3339071194e-003   2.4581121218e-004
  1.0059250000e+009  -1.0829607690e-003  -3.7235778855e-005   9.9392026106e-001  -6.5323379605e-003   1.0004085614e+000  -3.5358650089e-003  -9.0101908147e-004   3.6522201689e-004
  1.0145125000e+009  -9.1227960470e-004   3.2751775107e-004   9.9340933011e-001  -1.0270836228e-002   9.9916880108e-001  -3.9496581808e-003  -5.7001988558e-004   4.5690719797e-004
  1.0231000000e+009  -6.7383203307e-004   3.7304699421e-004   9.9310839154e-001  -7.1225356248e-003   9.9996728378e-001  -4.2742443513e-003  -3.3968926767e-004   3.2211531529e-004
  1.0316875000e+009  -3.2059449223e-004   8.2474002727e-004   9.9455279334e-001  -8.5515834943e-003   9.9917907542e-001  -4.0966890692e-003  -1.8170293534e-004   3.6797953912e-004
  1.0402750000e+009   1.5965138951e-004   7.8386392012e-004   9.9411469514e-001  -8.0065717716e-003   9.9962813111e-001  -3.3032832562e-003   3.4942364811e-004   1.2783297438e-004
  1.0488625000e+009   3.4181244176e-004   6.0267766010e-004   9.9297778706e-001  -7.2004007868e-003   9.9871052011e-001  -3.3304368032e-003   5.6390420517e-004  -1.2099018969e-004
  1.0574500000e+009   6.1440546825e-004   4.0181954451e-004   9.9278756592e-001  -7.5856227383e-003   9.9944794009e-001  -4.0364113713e-003   7.3467334750e-004  -3.6381569356e-004
