# Hz S RI R 50.000000
! Metas.Vna.Tools, 2.8.8664.20301
! Metas.Vna.Data, 2.8.8664.20285
! Created: UTC 2024.02.11 10:08:52
! FREQ                re:S1,1             im:S1,1             re:S2,1             im:S2,1             re:S1,2             im:S1,2             re:S2,2             im:S2,2          
  1.3000000000e+008   4.3201631657e-004  -1.0821711611e-003   9.9454269674e-001  -5.4827564491e-003   1.0004526782e+000   2.1647161226e-004   7.2195778718e-004   8.9904289902e-004
  1.3858750000e+008  -3.2123396323e-004  -1.0012174919e-003   9.9388939029e-001  -5.1274177794e-003   9.9980840474e-001   1.0666609029e-003   1.1055776270e-003  -1.2772466507e-004
  1.4717500000e+008  -1.6928913402e-003  -1.1915361011e-003   9.9437006440e-001  -6.5465751029e-003   1.0001505332e+000   6.5258030227e-004   8.0807923499e-004   2.4438651998e-004
  1.5576250000e+008  -1.9783470361e-003  -1.9319680060e-004   9.9627080255e-001  -5.3011257655e-003   1.0001769222e+000   2.1102701009e-004   1.6499501851e-003  -9.3247169203e-004
  1.6435000000e+008  -1.0953669550e-003   2.6207555306e-004   9.9581018097e-001  -4.8651355871e-003   1.0008789531e+000   8.3401306041e-005   1.1652333261e-003  -2.1815255898e-004
  1.7293750000e+008  -1.2956726181e-003   8.2094629518e-004   9.9561949174e-001  -5.6624665919e-003   1.0003669301e+000   1.2994165164e-004   9.0859890307e-004  -8.5649728429e-004
  1.8152500000e+008  -4.8313659611e-004   4.6135107425e-004   9.9484288846e-001  -5.4266196784e-003   1.0005837854e+000  -3.7087233039e-004   5.3167719875e-004  -7.3132174772e-004
  1.9011250000e+008  -4.3236738834e-004   9.6782763440e-004   9.9527596539e-001  -6.3819707932e-003   1.0011092579e+000  -1.8327151581e-004   4.0031184736e-004  -9.3448301080e-004
  1.9870000000e+008  -3.9350120701e-004   1.0728137582e-003   9.9549976812e-001  -5.8089448962e-003   1.0006060784e+000  -4.1205192512e-004   6.5329666569e-004  -5.3425967654e-004
  2.0728750000e+008  -1.0411929686e-004   2.0242133067e-004   9.9446301260e-001  -5.7690373134e-003   1.0007885245e+000  -7.8373841232e-006   2.4040376408e-004  -5.8488285840e-004
  2.1587500000e+008   1.3245355481e-004  -6.4213533687e-004   9.9481539156e-001  -5.1663170786e-003   9.9971152538e-001   9.0229273822e-005  -3.2582031336e-004   2.2734832284e-004
  2.2446250000e+008   2.1087344629e-004  -3.9177271212e-004   9.9381382453e-001  -6.1350100942e-003   1.0008831145e+000  -2.1657402593e-004  -6.9466056967e-005  -1.9515566156e-004
  2.3305000000e+008  -1.5121490788e-004   7.2749365628e-005   9.9535290662e-001  -5.9536975474e-003   1.0007372282e+000  -2.9096751320e-004  -4.5315534604e-004   3.3061268811e-005
  2.4163750000e+008  -1.4565070796e-005  -1.9195778291e-004   9.9546820370e-001  -7.0319182044e-003   1.0004833612e+000  -9.8964656414e-004  -2.8131264019e-004   1.1323129825e-004
  2.5022500000e+008  -5.4262272846e-004  -6.5917387189e-004   9.9656224371e-001  -5.1875426566e-003   1.0000565943e+000  -8.3493617250e-004  -9.4844499636e-004   7.9442440157e-004
  2.5881250000e+008  -3.6161671499e-004  -6.0010846960e-004   9.9593097832e-001  -5.2218176755e-003   1.0006774696e+000  -1.5243415598e-003  -6.9561473757e-004   6.1536517576e-004
  2.6740000000e+008  -8.7659639225e-004  -5.3849216530e-004   9.9618917767e-001  -6.5595299366e-003   9.9982018373e-001  -1.3032461095e-003  -4.7925205978e-004   2.0577372171e-004
  2.7598750000e+008  -4.0801920937e-004  -3.1136258546e-004   9.9542281333e-001  -7.2187602309e-003   1.0010366468e+000  -7.0118296943e-004  -3.9670676881e-004   5.9670208623e-004
  2.8457500000e+008  -5.8790973058e-004  -2.6263017316e-004   9.9498505897e-001  -5.9900143227e-003   1.0009262751e+000   1.1107024700e-004  -5.4385451193e-004   5.6288600104e-004
  2.9316250000e+008  -7.9197567066e-004  -5.2294405852e-004   9.9595012353e-001  -5.6306018374e-003   1.0004490434e+000  -1.4545918958e-003  -2.5458764003e-004   4.4098800070e-004
  3.0175000000e+008  -9.6796839739e-004   1.7127402943e-004   9.9499886024e-001  -6.7616857794e-003   1.0007493750e+000   2.5537707435e-004  -6.1844491627e-004   3.5218378604e-004
  3.1033750000e+008  -9.2424306886e-004   4.4335007784e-004   9.9771734660e-001  -5.5949068313e-003   1.0020809898e+000  -7.8719100537e-004  -7.9940955063e-004   5.7068022502e-004
  3.1892500000e+008  -9.6581130504e-004  -1.4465869602e-005   9.9595962675e-001  -6.2951223256e-003   1.0001991724e+000  -8.7878185159e-004  -6.4097415947e-004   3.8856008941e-004
  3.2751250000e+008  -9.0871602024e-004   9.4449667881e-005   9.9423482584e-001  -7.4610743588e-003   1.0005618576e+000  -7.6006982498e-004  -4.6058990400e-004   1.9410334985e-004
  3.3610000000e+008  -6.2314729830e-004   4.9851759596e-006   9.9366600894e-001  -7.0817378501e-003   1.0011153220e+000  -1.2420152235e-003  -7.5533221025e-004   9.3973133749e-005
  3.4468750000e+008  -7.4463801687e-004   3.3118372122e-004   9.9618977949e-001  -5.7759037455e-003   1.0011186695e+000  -4.0249806507e-004  -5.3582936141e-004   2.4165628165e-005
  3.5327500000e+008  -5.0971334135e-004   4.9552208011e-004   9.9843962171e-001  -4.7993468758e-003   9.9937796371e-001  -1.1085401963e-003  -7.0770047379e-004   1.1864867437e-004
  3.6186250000e+008  -4.3370151543e-004   5.5813299818e-004   9.9667437451e-001  -6.5494634132e-003   1.0002966740e+000  -1.4837824719e-004  -6.1387731088e-004   5.2333992695e-004
  3.7045000000e+008  -5.8459225848e-004   7.1297717479e-004   9.9337120062e-001  -7.7603930182e-003   1.0011134680e+000  -1.3381853369e-003  -6.4425241266e-004   2.4962809299e-004
  3.7903750000e+008  -4.4759789383e-004   5.7093263707e-004   9.9357479733e-001  -6.1397995762e-003   1.0007389687e+000  -7.6781737202e-004  -6.3402664948e-004   2.3936613935e-005
  3.8762500000e+008  -4.2465739715e-004   4.5503580580e-004   9.9620400145e-001  -6.1872281868e-003   9.9999465647e-001  -7.2084281621e-004  -3.7094437050e-004   7.8899096077e-004
  3.9621250000e+008  -1.8427500536e-004   1.7236818998e-004   9.9449133297e-001  -6.8090480895e-003   1.0008517452e+000  -8.5084169762e-004  -6.2081751006e-004   4.6678496623e-004
  4.0480000000e+008   3.1632751425e-004   1.2886027444e-004   9.9611535729e-001  -7.2209513667e-003   1.0003546290e+000  -1.0408459774e-003  -2.2647774272e-004   1.8675205308e-004
  4.1338750000e+008   3.9183857602e-004   2.0371694238e-004   9.9509455015e-001  -6.7648746724e-003   1.0010391923e+000  -1.0195746585e-003   1.0603606128e-004   3.8112371876e-004
  4.2197500000e+008  -9.3418444832e-005  -1.4878749869e-004   9.9399389701e-001  -7.1845020587e-003   1.0005639791e+000  -9.0075332172e-004   9.5946352636e-005   5.0656027495e-004
  4.3056250000e+008   2.5935589195e-004   1.6014949535e-006   9.9589354541e-001  -6.1601205383e-003   1.0003709035e+000  -1.0518148414e-003   3.2931206483e-004   3.1486047793e-004
  4.3915000000e+008  -9.7616994689e-005  -3.9349150021e-004   9.9734557160e-001  -4.5318809517e-003   1.0003396465e+000  -1.3254078055e-003   5.6608443884e-004   2.3504230303e-004
  4.4773750000e+008  -1.4088702334e-005  -4.4493696946e-004   9.9537842812e-001  -6.5669987996e-003   1.0006990675e+000  -1.3043362325e-003   5.6391510788e-004   2.4756608430e-005
  4.5632500000e+008  -1.2731395280e-004  -3.1521532173e-004   9.9653631311e-001  -5.3766550305e-003   1.0004547397e+000  -1.2116526116e-003   5.3351669775e-004   2.8083174149e-004
  4.6491250000e+008  -2.5424186967e-004  -2.8321482754e-004   9.9749468196e-001  -6.0667079635e-003   1.0004262780e+000  -1.1789805418e-003   2.4388466914e-004  -4.4966068153e-005
  4.7350000000e+008  -4.2149303370e-004  -2.7843390892e-004   9.9796406515e-001  -6.2684709120e-003   1.0006041227e+000  -8.9420310140e-004   5.7973964689e-004   1.3303149606e-004
  4.8208750000e+008  -4.3533862164e-004  -5.8444532663e-005   9.9287899714e-001  -7.4890536752e-003   9.9979207377e-001  -1.0465495081e-003   5.8638801594e-004   1.7081087715e-005
  4.9067500000e+008  -6.5608132083e-005  -2.1634675417e-004   9.9221632403e-001  -7.3895115848e-003   1.0000515200e+000  -1.2158520737e-003   3.1425880984e-004   2.8043287456e-005
  4.9926250000e+008  -3.0433943176e-004  -2.0051624447e-004   9.9053494271e-001  -7.8291110906e-003   1.0000414424e+000  -9.8519030241e-004   3.9886372212e-004   8.4460814023e-007
  5.0785000000e+008  -4.0102935868e-004  -1.6582267617e-004   9.9064117428e-001  -7.7152478870e-003   1.0000154448e+000  -8.8276605927e-004   3.1263882249e-004   2.9302710793e-004
  5.1643750000e+008  -3.6637284276e-004   1.0793161578e-004   9.9117630083e-001  -5.8407155792e-003   1.0007261615e+000  -1.3007643345e-003   7.0853273285e-004   1.9642230032e-004
  5.2502500000e+008  -1.6311783589e-004   4.9195749194e-004   9.9386585703e-001  -5.8862528068e-003   1.0006837364e+000  -7.3246024482e-004   2.4650658298e-004  -3.4545939962e-004
  5.3361250000e+008   5.3971865204e-004   3.8229491687e-004   9.9340009431e-001  -7.0612841413e-003   1.0005406293e+000  -1.6571805833e-003  -8.7328999548e-005  -5.1579392776e-004
  5.4220000000e+008   6.1514257685e-004   1.1637927849e-004   9.9346229111e-001  -7.9296549369e-003   1.0003185332e+000  -1.4530568917e-003  -6.7542180037e-004  -1.8817859079e-004
  5.5078750000e+008   5.2139997611e-004  -6.0599617651e-004   9.9270380797e-001  -8.4933666323e-003   1.0004626164e+000  -1.4660115218e-003  -7.0252410222e-004  -2.3623307659e-004
  5.5937500000e+008   2.5784825860e-004  -6.2063310955e-004   9.9245370940e-001  -6.8549462200e-003   1.0002718448e+000  -1.3294696415e-003  -7.6546591970e-004   1.5181432202e-004
  5.6796250000e+008   3.1048787244e-004  -8.8781576970e-004   9.9315673252e-001  -6.8045709316e-003   1.0002445770e+000  -1.7882406568e-003  -9.1136717669e-004   3.8509282398e-004
  5.7655000000e+008  -2.4144183869e-004  -1.0492949557e-003   9.9350960576e-001  -9.3209961522e-003   1.0004545783e+000  -1.3122898814e-003  -8.1599210228e-004   7.4454036538e-004
  5.8513750000e+008  -3.2198744064e-004  -7.8594674367e-004   9.9383836982e-001  -8.0228227166e-003   9.9971730814e-001  -1.1064867319e-003  -7.1928910378e-004   7.9656605696e-004
  5.9372500000e+008  -6.1284745629e-004  -7.9091562584e-004   9.9133992299e-001  -6.4892245938e-003   1.0005880168e+000  -1.5972204924e-003  -5.2340920396e-004   9.1915734167e-004
  6.0231250000e+008  -1.0649981347e-003  -5.1085206589e-004   9.9171921696e-001  -7.4124465812e-003   1.0003487371e+000  -1.9782551188e-003  -3.6617170158e-004   9.0253795099e-004
  6.1090000000e+008  -9.6581439592e-004  -2.7103276821e-004   9.9333737293e-001  -7.6078455735e-003   1.0004931088e+000  -1.2660441389e-003  -5.4135123248e-004   7.3605689267e-004
  6.1948750000e+008  -8.3833742639e-004  -2.6934969728e-005   9.9425723446e-001  -6.3010595339e-003   9.9963468472e-001  -1.8407241309e-003  -2.5027206603e-004   7.2484517824e-004
  6.2807500000e+008  -8.5598839948e-004  -4.2618748681e-005   9.9527283234e-001  -8.6792308234e-003   1.0002792337e+000  -1.2511339914e-003  -6.4163718104e-005   4.6759106116e-004
  6.3666250000e+008  -4.4403035292e-004   5.5301526130e-004   9.9722163507e-001  -6.1527633625e-003   1.0002925969e+000  -2.2190154406e-003   1.1823449832e-004   3.3859226011e-004
  6.4525000000e+008  -5.9303328991e-006   4.1914184136e-004   9.9606846812e-001  -5.8943404597e-003   9.9989277906e-001  -1.4433727750e-003   1.7435245881e-004  -6.0769760798e-005
  6.5383750000e+008   8.1876184329e-005   3.8746919153e-004   9.9533154353e-001  -7.4267216536e-003   1.0007080791e+000  -1.2035420918e-003   3.5650213496e-004  -1.7485808726e-004
  6.6242500000e+008   3.1961775794e-004   1.2390792698e-004   9.9354202243e-001  -7.8231261265e-003   1.0005321541e+000  -1.6407306155e-003   2.6796132773e-004  -2.7645573670e-004
  6.7101250000e+008   3.8045959213e-004  -1.6818760697e-004   9.9499444441e-001  -6.4229511494e-003   9.9948611213e-001  -1.2487531128e-003   1.4336389474e-004  -5.9665413111e-004
  6.7960000000e+008   6.1808890557e-004  -4.9731096428e-004   9.9568959993e-001  -7.3574982335e-003   1.0003008297e+000  -2.1248591589e-003   5.9370453999e-005  -9.4287678118e-004
  6.8818750000e+008   2.5496271357e-004  -8.6288697539e-004   9.9329218781e-001  -7.0856412307e-003   1.0001607551e+000  -2.0912779827e-003   5.5276023597e-005  -9.5096243700e-004
  6.9677500000e+008   1.6394427036e-004  -9.7638475618e-004   9.9425369016e-001  -6.6305147498e-003   1.0004018441e+000  -2.0163613399e-003  -1.6510867448e-004  -1.1303373700e-003
  7.0536250000e+008  -2.1443527883e-004  -1.0321894878e-003   9.9386558256e-001  -7.5521651646e-003   9.9986586390e-001  -2.0564802988e-003  -3.3925101860e-004  -1.2941083446e-003
  7.1395000000e+008  -6.4538607593e-004  -1.0163085742e-003   9.9534888920e-001  -6.1455714038e-003   9.9974253798e-001  -2.4474736550e-003  -5.3180574009e-004  -1.1480916848e-003
  7.2253750000e+008  -1.0648189926e-003  -9.1713966188e-004   9.9283673096e-001  -7.6997574892e-003   1.0000065121e+000  -1.7776573089e-003  -8.0935001362e-004  -1.1454752438e-003
  7.3112500000e+008  -1.0145718293e-003  -4.4935100187e-004   9.9612531726e-001  -6.8438339970e-003   9.9999055542e-001  -1.4396383591e-003  -8.7258785548e-004  -9.5296245793e-004
  7.3971250000e+008  -1.1033809037e-003   2.3298366864e-005   9.9579510659e-001  -7.4839507948e-003   1.0001631341e+000  -2.0365264486e-003  -1.0401411053e-003  -7.8224595271e-004
  7.4830000000e+008  -9.6787344246e-004   4.4474369723e-004   9.9564077034e-001  -6.7580760235e-003   9.9980619150e-001  -1.1378983202e-003  -8.8743677987e-004  -5.9431915354e-004
  7.5688750000e+008  -7.6222894948e-004   5.7797808601e-004   9.9434757442e-001  -7.4267293204e-003   9.9916590017e-001  -1.9818281258e-003  -1.0796267889e-003  -3.6876755313e-004
  7.6547500000e+008  -2.9331317380e-004   8.1166077110e-004   9.9528016434e-001  -7.9885810975e-003   9.9961030831e-001  -1.6919094417e-003  -1.1611268556e-003  -9.3852674205e-005
  7.7406250000e+008  -6.5034497478e-005   7.9148843392e-004   9.9512550114e-001  -7.0248011155e-003   9.9988814297e-001  -1.4208355802e-003  -7.6368564743e-004   2.6971851955e-004
  7.8265000000e+008   3.5107560218e-004   5.1915115577e-004   9.9337289347e-001  -8.0575393843e-003   9.9929506816e-001  -1.5011622252e-003  -7.6275278554e-004   5.7738671400e-004
  7.9123750000e+008   7.4891161335e-004   5.1726265327e-004   9.9444225385e-001  -7.7048616521e-003   9.9962900986e-001  -1.5048078823e-003  -7.9937731791e-004   5.4813725708e-004
  7.9982500000e+008   7.4977476394e-004   2.9494564600e-004   9.9262724369e-001  -6.4645558541e-003   1.0002423676e+000  -1.9108472184e-003  -4.8166971457e-004   8.7515036854e-004
  8.0841250000e+008   1.1224808756e-003   8.7929983446e-005   9.9006076168e-001  -8.9497611730e-003   9.9945899660e-001  -1.5369925443e-003  -3.7333467417e-004   8.8237511122e-004
  8.1700000000e+008   1.2103432246e-003  -3.6783700241e-004   9.9301088572e-001  -7.4312804942e-003   9.9971420687e-001  -1.6843398232e-003  -3.5018157647e-004   8.3092217409e-004
  8.2558750000e+008   1.0921263805e-003  -7.1394989847e-004   9.9438769779e-001  -6.6803432667e-003   1.0007811363e+000  -2.8674977412e-003  -3.5474309173e-004   1.1731303457e-003
  8.3417500000e+008   9.5233588610e-004  -9.6296569218e-004   9.9340326967e-001  -7.3307299486e-003   1.0009335767e+000  -2.0005388635e-003  -4.0200902334e-005   1.1300679549e-003
  8.4276250000e+008   4.8887532353e-004  -1.3431271924e-003   9.9206601333e-001  -7.9870988224e-003   9.9913475106e-001  -2.3139569955e-003   2.0598185192e-004   1.0935165501e-003
  8.5135000000e+008   4.8228104896e-005  -1.2398951953e-003   9.9256972355e-001  -7.4746465010e-003   1.0007361969e+000  -2.0286007490e-003   3.3300121630e-004   1.1459523591e-003
  8.5993750000e+008  -2.5107669714e-004  -1.2415442103e-003   9.9300840283e-001  -7.5322060460e-003   9.9981908494e-001  -2.6265341510e-003   2.4249710867e-004   8.8801335258e-004
  8.6852500000e+008  -5.7108256669e-004  -9.4334287448e-004   9.9301713617e-001  -8.0019079814e-003   1.0001648278e+000  -1.9902876489e-003   5.7871984749e-004   8.3452411801e-004
  8.7711250000e+008  -4.3687213072e-004  -5.5627092641e-004   9.9255858616e-001  -9.1728634237e-003   9.9987838309e-001  -2.3729510064e-003   2.5086281719e-004   2.2917842302e-004
  8.8570000000e+008  -4.1804806209e-004  -5.5220795935e-004   9.9373219564e-001  -6.2566335558e-003   9.9966058822e-001  -3.0049926808e-003   2.7000659466e-004   8.0303296019e-005
  8.9428750000e+008  -2.7011069015e-004  -2.6524043493e-004   9.9636717723e-001  -7.2096415813e-003   9.9937518444e-001  -2.8460129090e-003   8.6384760667e-005  -2.1780696033e-004
  9.0287500000e+008  -6.2047507897e-006  -2.5808494584e-004   9.9662139645e-001  -7.9918062899e-003   9.9943461287e-001  -3.0263178757e-003   1.1014262486e-004  -3.8506824949e-004
  9.1146250000e+008   2.7886964464e-004  -2.8250225896e-004   9.9179043979e-001  -9.0521020977e-003   9.9837697867e-001  -2.3440336952e-003  -5.9524205203e-004  -2.6961370290e-004
  9.2005000000e+008   2.3898758824e-004  -4.2540077367e-004   9.9411615681e-001  -6.3796404719e-003   9.9967607810e-001  -1.5002308356e-003  -7.2690627309e-004  -5.8423552929e-004
  9.2863750000e+008   4.5824564100e-004  -7.0061581109e-004   9.9348206813e-001  -6.6540022586e-003   9.9906470648e-001  -2.5832269727e-003  -8.1247482900e-004  -4.2751696269e-004
  9.3722500000e+008   3.0495392642e-004  -9.4725349224e-004   9.9415380369e-001  -7.0206172719e-003   9.9906588753e-001  -2.5754722069e-003  -1.0571557420e-003  -6.2159938015e-004
  9.4581250000e+008   2.9344025327e-004  -9.7376044335e-004   9.9331797003e-001  -6.5951395184e-003   9.9982580371e-001  -2.1351267627e-003  -1.2319117061e-003  -3.3402482805e-004
  9.5440000000e+008  -8.1909395934e-005  -1.3043573539e-003   9.9301387957e-001  -7.1134191788e-003   9.9923822194e-001  -1.4430615502e-003  -1.2925785617e-003  -3.6303256529e-004
  9.6298750000e+008  -3.8153569532e-004  -1.3467252490e-003   9.9325332463e-001  -7.4116987274e-003   1.0003564555e+000  -3.0478384402e-003  -1.4222881205e-003  -7.6756956777e-005
  9.7157500000e+008  -6.3820168328e-004  -1.1954492766e-003   9.9220804833e-001  -8.3681148135e-003   1.0008591250e+000  -2.4612443681e-003  -1.3987767018e-003  -9.3849013649e-005
  9.8016250000e+008  -8.7669368291e-004  -9.8934509875e-004   9.9385039847e-001  -7.5636090911e-003   1.0000284651e+000  -3.1987839643e-003  -1.3921904124e-003   1.2022048760e-004
  9.8875000000e+008  -1.0555413765e-003  -6.8826911698e-004   9.9310284821e-001  -7.3224497787e-003   9.9865333809e-001  -1.9872323819e-003  -1.1240134300e-003   2.3164570492e-004
  9.9733750000e+008  -1.1953202333e-003  -3.4458868407e-004   9.9271026928e-001  -7.8605227399e-003   9.9984657792e-001  -1.6003142062e-003  -1.0057792069e-003  -1.5312601911e-005
  1.0059250000e+009  -9.9930321809e-004  -6.7179032806e-005   9.9324539180e-001  -8.3567643538e-003   1.0005252268e+000  -2.7340287678e-003  -7.0278324038e-004   1.8709195309e-004
  1.0145125000e+009  -8.1821233453e-004   3.9433705482e-004   9.9307472988e-001  -1.0386498307e-002   9.9955945172e-001  -2.1783342948e-003  -3.8221517450e-004   9.6567850834e-005
  1.0231000000e+009  -5.9529653134e-004   5.0966301293e-004   9.9224068095e-001  -7.3225658969e-003   9.9975597092e-001  -2.5812005923e-003  -1.7927874055e-004   1.5636789396e-004
  1.0316875000e+009  -2.7173630636e-004   6.5618557952e-004   9.9392308373e-001  -8.4216532309e-003   9.9950380486e-001  -3.1551098494e-003   2.1425737672e-006   1.0053601046e-004
  1.0402750000e+009   2.5859067489e-004   4.9690618841e-004   9.9200738661e-001  -7.9651770458e-003   9.9960248846e-001  -2.5581786137e-003   4.6582973520e-004  -1.2638756636e-004
  1.0488625000e+009   4.3787523626e-004   4.7959372129e-004   9.9464287157e-001  -7.6210738047e-003   9.9922215546e-001  -2.6510930534e-003   5.6271128735e-004  -2.1505398848e-004
  1.0574500000e+009   6.1002495812e-004   7.8047718085e-005   9.9343391696e-001  -6.8200284770e-003   9.9978387209e-001  -3.0778827269e-003   7.6838135803e-004  -4.4403059542e-004
