# Hz S RI R 50.000000
! Metas.Vna.Tools, 2.8.8664.20301
! Metas.Vna.Data, 2.8.8664.20285
! Created: UTC 2024.02.11 10:08:27
! FREQ                re:S1,1             im:S1,1             re:S2,1             im:S2,1             re:S1,2             im:S1,2             re:S2,2             im:S2,2          
  1.3000000000e+008   4.2049690433e-004  -1.1821679766e-003   9.9534632098e-001  -5.3751514230e-003   1.0004555587e+000  -4.1949982273e-004   1.4623305100e-003   4.0060144666e-004
  1.3858750000e+008  -9.5138643978e-004  -1.0931948740e-003   9.9629646070e-001  -4.8070903804e-003   1.0004822924e+000   5.3514487938e-004   1.4888535207e-003  -4.9807632834e-004
  1.4717500000e+008  -1.6039689384e-003  -1.2902952499e-003   9.9479404519e-001  -6.2030689230e-003   1.0002599303e+000   2.6759827089e-004   1.0310594675e-003   4.5502497113e-004
  1.5576250000e+008  -1.3688187811e-003   2.7051527310e-004   9.9394513907e-001  -6.0032291974e-003   1.0005351356e+000  -2.4745055921e-004   1.1563132144e-003  -1.0144341732e-003
  1.6435000000e+008  -1.4177345115e-003   1.2340729061e-004   9.9371007186e-001  -5.3439777872e-003   1.0005055744e+000   3.8468301397e-005   1.2023344839e-003  -3.0177458096e-004
  1.7293750000e+008  -1.2472334260e-003   8.2849820585e-004   9.9537989517e-001  -4.8380993885e-003   9.9985163777e-001  -1.4341579003e-004   5.3806142786e-004  -9.8665720644e-004
  1.8152500000e+008  -8.2591283561e-005   4.4152112175e-004   9.9368561146e-001  -6.2106822318e-003   1.0003205048e+000  -6.7917156538e-004   3.7391982881e-004  -6.8340685125e-004
  1.9011250000e+008  -6.7665102126e-004   5.0174206188e-004   9.9664798042e-001  -7.0960275319e-003   1.0008476283e+000  -5.7537672910e-004   4.3199808077e-005  -1.0418020143e-003
  1.9870000000e+008  -2.6153245896e-005   6.4415994643e-004   9.9580738165e-001  -6.0947014276e-003   1.0001467992e+000  -6.6097430510e-004  -1.5130917369e-004  -7.2803284194e-004
  2.0728750000e+008   7.5085862088e-005   4.8835788982e-004   9.9449805995e-001  -5.2619871223e-003   1.0005099764e+000  -4.6871109226e-004  -1.1928681285e-004  -2.5866286249e-004
  2.1587500000e+008   1.6831051041e-004  -4.9281265682e-004   9.9592427529e-001  -5.5491640885e-003   9.9984694720e-001  -4.5888809149e-004  -5.3865370327e-004   2.1313354683e-004
  2.2446250000e+008   5.2513581042e-004  -3.6929002928e-004   9.9738541916e-001  -5.8794034874e-003   1.0006039138e+000  -2.4009271976e-004  -4.1820123774e-004   7.6935509196e-005
  2.3305000000e+008   3.0385865846e-004  -1.9855148838e-004   9.9680664481e-001  -5.7900754194e-003   1.0005125646e+000  -1.0932031529e-003  -2.7431999483e-004   1.3901999626e-004
  2.4163750000e+008  -2.0126687238e-004  -5.0516888868e-004   9.9569918751e-001  -6.5042776014e-003   1.0004121059e+000  -1.1833252810e-003  -4.2160099457e-004   3.5598087336e-004
  2.5022500000e+008  -5.3055128249e-004  -6.2775330298e-004   9.9682738597e-001  -5.4638156813e-003   1.0002454335e+000  -7.1981201793e-004  -9.4008218478e-004   9.6487412103e-004
  2.5881250000e+008  -3.6023963709e-004  -7.5040549074e-004   9.9392810936e-001  -5.8134401858e-003   1.0006597076e+000  -1.4626080525e-003  -8.3732433324e-004   8.3983049456e-004
  2.6740000000e+008  -8.5125987194e-004  -6.3773888641e-004   9.9327440249e-001  -6.6151946749e-003   1.0008137873e+000  -1.0918500159e-003  -7.1309306471e-004   4.2300734494e-004
  2.7598750000e+008  -2.6871567652e-004  -3.1733626339e-004   9.9305973339e-001  -7.0053775569e-003   1.0012121125e+000  -7.5164366001e-004  -5.6039741856e-004   5.1673871465e-004
  2.8457500000e+008  -1.0306570000e-003  -5.1914177437e-004   9.9344772884e-001  -6.9539875880e-003   1.0006069201e+000  -1.4954249564e-004  -5.6007660348e-004   8.9961907927e-004
  2.9316250000e+008  -5.9527257443e-004  -2.4709861384e-004   9.9272927549e-001  -6.4273737636e-003   1.0002535470e+000  -1.2124090342e-003  -4.5141033036e-004   3.7688989361e-004
  3.0175000000e+008  -6.7958454720e-004   1.9894277249e-004   9.9292831659e-001  -8.2672203803e-003   1.0001280044e+000  -1.2314439550e-003  -5.3708682886e-004   4.9732668058e-004
  3.1033750000e+008  -7.1506059422e-004   1.8328421256e-004   9.9394690523e-001  -5.8891253939e-003   1.0014055532e+000  -1.6467798222e-003  -8.1961570476e-004   3.5515917235e-004
  3.1892500000e+008  -6.7652017592e-004   3.8529530973e-005   9.9366484042e-001  -7.1659280169e-003   9.9974307723e-001   2.3644153010e-005  -5.5680769646e-004   3.6685202427e-004
  3.2751250000e+008  -1.0982394307e-003   2.1737142908e-004   9.9337371304e-001  -8.2057219469e-003   1.0006465942e+000  -1.7819295268e-003  -7.3235556878e-004   8.6879729611e-005
  3.3610000000e+008  -9.2355313897e-004   2.6216453455e-004   9.9486437226e-001  -6.8749100820e-003   1.0016390680e+000  -1.6210817279e-003  -6.0711573619e-004  -1.2693585950e-005
  3.4468750000e+008  -6.2221567849e-004   3.5838246217e-004   9.9432151809e-001  -6.0745907145e-003   1.0003740301e+000  -1.2877245036e-003  -4.8158190493e-004   1.7642864459e-004
  3.5327500000e+008  -3.8679857857e-004   3.7631779563e-004   9.9572300225e-001  -8.4605037438e-003   1.0000031647e+000  -2.1698417271e-003  -5.1979657569e-004   5.6857674722e-005
  3.6186250000e+008  -3.5771531999e-004   5.0114552812e-004   9.9547688222e-001  -6.2489790387e-003   1.0011910984e+000  -6.6387430904e-004  -6.3436072002e-004   4.1831733391e-004
  3.7045000000e+008  -7.3337802304e-004   4.3086593074e-004   9.9371771823e-001  -7.9060192722e-003   1.0011876716e+000  -1.7733682296e-003  -6.0405248012e-004   1.1752384753e-004
  3.7903750000e+008  -3.3779069231e-004   5.9059545911e-004   9.9418825060e-001  -6.2035415690e-003   1.0007361321e+000  -1.1529809448e-003  -4.6988921117e-004   1.5807279603e-004
  3.8762500000e+008  -1.4424084318e-004   6.7027158667e-004   9.9673956148e-001  -6.6327691307e-003   1.0006696801e+000  -1.3607824990e-003  -3.1577833471e-004   5.4927906909e-004
  3.9621250000e+008   1.4173341316e-004   1.8997066149e-004   9.9422076351e-001  -6.9383142558e-003   1.0007262822e+000  -1.2502975420e-003  -4.4443068911e-004   5.9850650810e-004
  4.0480000000e+008   1.2096162539e-004   2.6657954206e-004   9.9540383143e-001  -7.0494348322e-003   1.0005546379e+000  -1.3228631531e-003   1.8014673208e-005   3.3744801077e-004
  4.1338750000e+008   1.1528618459e-004   1.1334513942e-004   9.9513148182e-001  -5.8706244015e-003   1.0007635621e+000  -1.5924481314e-003  -8.2557412177e-005   5.4768985038e-004
  4.2197500000e+008   2.3622788161e-004  -1.9152028999e-005   9.9621964102e-001  -6.7820527727e-003   1.0004236615e+000  -1.4432602165e-003  -2.3750227228e-005   4.9312803401e-004
  4.3056250000e+008   2.7188696097e-004   2.5661133657e-005   9.9667368957e-001  -6.9167701669e-003   1.0005527761e+000  -1.9205955275e-003   5.7645778708e-004   3.9592257916e-004
  4.3915000000e+008   3.9704762157e-005  -8.1140413804e-005   9.9765587578e-001  -6.0563707719e-003   1.0005073230e+000  -1.9700692528e-003   4.7146759437e-004   3.6084621615e-004
  4.4773750000e+008   9.3439876036e-005  -2.9619735099e-004   9.9706017729e-001  -6.2355845829e-003   1.0002758479e+000  -1.8992466060e-003   6.8360472950e-004   1.9220686011e-004
  4.5632500000e+008  -3.7351805060e-004  -2.1660309351e-004   9.9392706338e-001  -6.9256612034e-003   1.0006841182e+000  -1.6254901559e-003   7.6209439075e-004   1.5356462593e-004
  4.6491250000e+008  -3.8110300694e-004  -1.6185150799e-004   9.9506644002e-001  -7.7046268687e-003   1.0001559625e+000  -2.1131723621e-003   6.2143832058e-004   7.2406629142e-006
  4.7350000000e+008  -2.5521849569e-004  -3.4270120715e-004   9.9367946197e-001  -6.7983219924e-003   1.0002945212e+000  -1.7994388747e-003   6.8150488837e-004   1.1137652444e-004
  4.8208750000e+008  -3.3922401006e-004  -1.1127455169e-004   9.9193984674e-001  -7.9971782031e-003   9.9971856369e-001  -1.4115670570e-003   6.2085543342e-004   2.1236002738e-004
  4.9067500000e+008  -4.9485200927e-005  -1.3867109985e-004   9.8997807039e-001  -7.7867741146e-003   9.9982623584e-001  -1.9283042348e-003   3.8914811450e-004  -3.6539120086e-005
  4.9926250000e+008  -2.2270860545e-004  -4.7325213979e-004   9.9131856477e-001  -7.5840846199e-003   1.0000819952e+000  -1.5049979227e-003   5.9762618858e-004   1.2783461837e-006
  5.0785000000e+008  -6.0096927631e-004  -2.3807066691e-004   9.9214513989e-001  -7.3552001901e-003   9.9990689037e-001  -6.8552254288e-004   4.8040190219e-004   1.3538743749e-004
  5.1643750000e+008  -6.2459163760e-004   1.4829254703e-004   9.9320530632e-001  -6.3764674646e-003   1.0004936054e+000  -1.6974587494e-003   7.5777089872e-004  -1.2884837112e-004
  5.2502500000e+008  -4.2892608826e-004   5.2633458982e-004   9.9307898100e-001  -7.1828056494e-003   1.0003886156e+000  -1.0966078994e-003   2.5507398160e-004  -6.3455435797e-004
  5.3361250000e+008   3.7956603343e-004   5.0104161004e-004   9.9498992603e-001  -7.5254703856e-003   1.0003765123e+000  -1.5419876544e-003  -3.0917336844e-005  -7.9553389617e-004
  5.4220000000e+008   7.4185947952e-004   1.9676813883e-004   9.9351826234e-001  -9.0460941807e-003   1.0007220026e+000  -1.9169260611e-003  -9.9384786988e-004  -3.9292373695e-004
  5.5078750000e+008   5.6777930573e-004  -6.0055896803e-004   9.9347584718e-001  -8.6342962351e-003   1.0001596781e+000  -2.2486378107e-003  -9.7022538581e-004  -3.1736977575e-004
  5.5937500000e+008   4.9230931069e-004  -7.8671643422e-004   9.9228537228e-001  -6.0898325750e-003   1.0001244672e+000  -1.9897250856e-003  -9.9652521631e-004   2.0155165906e-004
  5.6796250000e+008   3.0990640649e-004  -9.3502240921e-004   9.9287804316e-001  -8.0792376927e-003   1.0001975645e+000  -2.0820307086e-003  -1.2255148368e-003   5.1757189886e-004
  5.7655000000e+008  -1.7368179493e-004  -1.0434104935e-003   9.9296156532e-001  -9.7442667159e-003   1.0010857114e+000  -2.1478010504e-003  -9.6728653752e-004   8.4117815919e-004
  5.8513750000e+008  -4.0374419442e-004  -1.0557750601e-003   9.9162374985e-001  -8.1658479755e-003   9.9949376289e-001  -2.5695580711e-003  -7.9171005960e-004   1.0140500419e-003
  5.9372500000e+008  -6.8249749645e-004  -9.3039441513e-004   9.9265268353e-001  -6.9322791085e-003   9.9997371379e-001  -2.6049338276e-003  -6.4245958354e-004   1.1154278439e-003
  6.0231250000e+008  -9.4148713266e-004  -7.8341498937e-004   9.9258209042e-001  -7.2673758602e-003   1.0003214908e+000  -2.1604292103e-003  -3.8302325259e-004   1.0605673700e-003
  6.1090000000e+008  -8.4930641074e-004  -3.3608308313e-004   9.9180388492e-001  -1.0047985580e-002   1.0003176611e+000  -1.8414147145e-003  -5.1079886753e-004   1.0926294282e-003
  6.1948750000e+008  -8.6334714179e-004  -1.7541370664e-004   9.9248768078e-001  -7.6315471710e-003   9.9940744471e-001  -1.7554263867e-003  -2.0766948100e-004   8.4600140653e-004
  6.2807500000e+008  -7.7153909651e-004  -5.5531118491e-005   9.9382946981e-001  -9.0160212590e-003   9.9978840099e-001  -2.2951902848e-003   2.0454463328e-004   4.8348541234e-004
  6.3666250000e+008  -5.0254585510e-004   4.6992020294e-004   9.9230224026e-001  -8.0099250895e-003   1.0005754416e+000  -1.8476254550e-003   1.6674938868e-004   3.3897490080e-004
  6.4525000000e+008  -5.4532969767e-005   3.1555779728e-004   9.9435299638e-001  -8.0142267918e-003   1.0005362239e+000  -2.0724627788e-003   3.2420958775e-004  -1.2468729501e-004
  6.5383750000e+008   3.1707678382e-004   3.5436256845e-004   9.9404081720e-001  -7.7289945539e-003   9.9953322677e-001  -1.8635501612e-003   4.6305521410e-004  -2.2311901065e-004
  6.6242500000e+008   2.9989025810e-004   3.1736717131e-004   9.8961567185e-001  -8.1893520570e-003   1.0003556093e+000  -2.9139123396e-003   4.1029602279e-004  -5.8250952864e-004
  6.7101250000e+008   4.0590503363e-004  -1.8073527174e-004   9.9167380537e-001  -6.3503140248e-003   9.9988079931e-001  -1.4906554487e-003   4.1214139681e-004  -7.8083100528e-004
  6.7960000000e+008   6.2684503362e-004  -5.1234717831e-004   9.9165856689e-001  -8.2850352067e-003   1.0002676554e+000  -2.1424142661e-003   1.6649777421e-004  -1.1184479514e-003
  6.8818750000e+008   1.3342521207e-004  -9.2774822973e-004   9.9039331393e-001  -7.8700594593e-003   1.0001727433e+000  -2.5302025382e-003  -1.3307698184e-005  -1.2700698648e-003
  6.9677500000e+008   2.0878673469e-004  -1.1591799761e-003   9.9104723390e-001  -7.9306995470e-003   1.0003853047e+000  -2.3407143800e-003  -2.2232934825e-004  -1.2832990878e-003
  7.0536250000e+008  -1.3350679199e-004  -1.1768425971e-003   9.9030811992e-001  -8.6670160492e-003   1.0004844957e+000  -2.6030855300e-003  -3.3135920119e-004  -1.5183084462e-003
  7.1395000000e+008  -4.6407479853e-004  -1.0546535365e-003   9.9137154455e-001  -8.6271247709e-003   1.0000888659e+000  -2.5915858671e-003  -7.1278678784e-004  -1.3432676541e-003
  7.2253750000e+008  -1.0089693520e-003  -9.5768879284e-004   9.9033077842e-001  -8.7885177144e-003   9.9961472561e-001  -2.5775630239e-003  -8.4416854004e-004  -1.3107804683e-003
  7.3112500000e+008  -1.1497730326e-003  -5.2572950276e-004   9.8939765903e-001  -8.9952155096e-003   1.0001483012e+000  -1.4658738293e-003  -9.9904009661e-004  -1.0244717284e-003
  7.3971250000e+008  -1.1474930459e-003  -2.4387134240e-004   9.9000859844e-001  -1.0013134991e-002   9.9961765440e-001  -2.6407942349e-003  -1.2224592671e-003  -7.3716171562e-004
  7.4830000000e+008  -1.0488588219e-003   4.1368241333e-004   9.9009776152e-001  -8.3002216822e-003   9.9956407599e-001  -1.7981652416e-003  -1.2311711097e-003  -6.3389710974e-004
  7.5688750000e+008  -8.2562277687e-004   7.0212168831e-004   9.8833877058e-001  -9.7639147243e-003   9.9917051742e-001  -3.0108188283e-003  -1.2599493090e-003  -1.3458175523e-004
  7.6547500000e+008  -2.9094459814e-004   9.1006131062e-004   9.8974044402e-001  -9.8583770553e-003   9.9964644356e-001  -2.3209651575e-003  -1.1515438360e-003   1.0950566625e-004
  7.7406250000e+008   7.2513672411e-005   8.7206643015e-004   9.8890999466e-001  -1.0551561050e-002   9.9905672902e-001  -2.2118339952e-003  -8.7237500714e-004   2.6619686321e-004
  7.8265000000e+008   4.2323695858e-004   6.4776030524e-004   9.8950378151e-001  -8.5994955699e-003   9.9958297395e-001  -2.7906641501e-003  -8.2171599388e-004   6.2904718742e-004
  7.9123750000e+008   7.4053443297e-004   4.0428060590e-004   9.8999209240e-001  -8.3297677183e-003   9.9989581485e-001  -1.6843988314e-003  -6.8719809820e-004   6.2662178682e-004
  7.9982500000e+008   6.8932990934e-004   2.1360815599e-004   9.9157368327e-001  -7.8992455324e-003   1.0004955638e+000  -1.6857360523e-003  -6.3293504945e-004   8.8820980791e-004
  8.0841250000e+008   1.0512842152e-003   7.0685301338e-005   9.8795612898e-001  -1.0507048975e-002   9.9984695245e-001  -1.7165942494e-003  -3.6560719046e-004   9.9921386522e-004
  8.1700000000e+008   1.1255593291e-003  -2.8087166346e-004   9.8960214137e-001  -8.5783273805e-003   9.9995778077e-001  -1.8640498827e-003  -3.7751270394e-004   8.6826910121e-004
  8.2558750000e+008   1.0738329413e-003  -6.6168699966e-004   9.8971743221e-001  -8.2143866300e-003   1.0006241424e+000  -2.8272869561e-003  -3.4145451782e-004   1.0214483804e-003
  8.3417500000e+008   9.4590433936e-004  -1.1104288945e-003   9.9006528740e-001  -9.4284983347e-003   1.0016683056e+000  -2.6183251410e-003  -1.7463300715e-004   1.1316811477e-003
  8.4276250000e+008   6.7219062500e-004  -1.2323853678e-003   9.9007041577e-001  -8.4195313542e-003   1.0000634584e+000  -2.5865614038e-003   4.0061211655e-006   1.1479647176e-003
  8.5135000000e+008   1.0479439136e-004  -1.3742665198e-003   9.9024472966e-001  -9.1155969647e-003   1.0011244694e+000  -2.3188954719e-003   4.1462952386e-004   1.3657925306e-003
  8.5993750000e+008  -2.1555345056e-004  -1.2987658951e-003   9.9055397589e-001  -9.1936468151e-003   1.0002397960e+000  -2.7554676168e-003   3.4020807997e-004   1.0852220086e-003
  8.6852500000e+008  -5.3169264774e-004  -1.0519299085e-003   9.8883851683e-001  -8.5462651560e-003   9.9948426308e-001  -2.5538047037e-003   6.1238618395e-004   7.7781304604e-004
  8.7711250000e+008  -5.9899912790e-004  -7.3808094111e-004   9.8981515393e-001  -9.2366052101e-003   1.0008291337e+000  -3.8029404116e-003   6.1508039588e-004   2.1655093714e-004
  8.8570000000e+008  -3.4955886280e-004  -4.6504028046e-004   9.9097581875e-001  -7.7586614926e-003   9.9978578702e-001  -2.9074572599e-003   5.4183909140e-004   1.4047236224e-004
  8.9428750000e+008  -3.8719817044e-004  -2.4922159429e-004   9.8866732822e-001  -8.4133033382e-003   1.0000183089e+000  -3.8546350567e-003   1.9654631540e-004  -3.1136301926e-004
  9.0287500000e+008   6.6249531527e-006  -1.4420918778e-004   9.9084927013e-001  -8.5044037258e-003   9.9897792087e-001  -3.1014838585e-003  -1.7240541297e-004  -3.5818805902e-004
  9.1146250000e+008   2.2449132894e-004  -2.2967168196e-004   9.8850270262e-001  -9.2513864993e-003   9.9869511396e-001  -2.8334965341e-003  -7.5377924385e-004  -2.6644032882e-004
  9.2005000000e+008   2.7001542037e-004  -3.5191096924e-004   9.9070590472e-001  -7.9058839811e-003   9.9904122645e-001  -2.7307509893e-003  -8.1426188807e-004  -5.0383687640e-004
  9.2863750000e+008   4.8392702684e-004  -5.5425052961e-004   9.8914003820e-001  -8.8955521028e-003   9.9905527509e-001  -2.9243955807e-003  -1.0129322695e-003  -4.1516734650e-004
  9.3722500000e+008   3.2741140521e-004  -7.7568933618e-004   9.9057948190e-001  -8.3852740912e-003   9.9857287568e-001  -3.6145200493e-003  -1.3111975939e-003  -4.3717035565e-004
  9.4581250000e+008   3.6984617228e-004  -1.0862267735e-003   9.8907824301e-001  -8.1751954592e-003   9.9861778045e-001  -2.2945026026e-003  -1.3819075753e-003  -2.0472991447e-004
  9.5440000000e+008  -2.0565370056e-005  -1.2309356454e-003   9.8904460565e-001  -9.5991849179e-003   1.0002618916e+000  -2.0420438418e-003  -1.5288521006e-003  -9.2727972098e-005
  9.6298750000e+008  -3.7488350459e-004  -1.3343566241e-003   9.9139979987e-001  -7.3431150519e-003   9.9991127769e-001  -3.1831455968e-003  -1.5122660867e-003   9.9197992158e-005
  9.7157500000e+008  -6.2089617926e-004  -1.3641001546e-003   9.9076243714e-001  -9.4020413539e-003   1.0000837395e+000  -3.2003016978e-003  -1.3655358707e-003   8.1515672171e-005
  9.8016250000e+008  -8.9033796121e-004  -1.0549843053e-003   9.9067278251e-001  -8.5453288010e-003   9.9941259872e-001  -3.8785439846e-003  -1.3014653812e-003   2.7621516709e-004
  9.8875000000e+008  -1.0665145343e-003  -7.6659610176e-004   9.8913289703e-001  -8.1600989631e-003   9.9964644346e-001  -3.8381329274e-003  -1.1692344186e-003   3.5398694694e-004
  9.9733750000e+008  -1.1412316341e-003  -4.1824228118e-004   9.9048360196e-001  -8.6610662728e-003   9.9977836132e-001  -2.0572078823e-003  -1.0132957349e-003   1.9782464916e-004
  1.0059250000e+009  -9.9737423927e-004  -1.0562372061e-005   9.9275976714e-001  -7.8112581343e-003   1.0001057646e+000  -2.8031005829e-003  -7.6148157607e-004   3.0142227289e-004
  1.0145125000e+009  -9.8132730563e-004   4.8140506430e-004   9.9091612893e-001  -1.0032855182e-002   9.9983422028e-001  -3.0649582854e-003  -2.7076918912e-004   2.5849043600e-004
  1.0231000000e+009  -5.6464293902e-004   4.6595645883e-004   9.8996904975e-001  -8.6716552952e-003   9.9890169165e-001  -3.3383224258e-003  -1.4996750915e-005   2.0271109286e-004
  1.0316875000e+009  -3.1112655676e-004   8.2460361938e-004   9.9009443678e-001  -8.7841111243e-003   9.9934050963e-001  -3.7440503069e-003   1.0891001692e-004   3.7462517322e-005
  1.0402750000e+009   1.4924572816e-004   8.1890868428e-004   9.8869581364e-001  -9.4102818490e-003   9.9961239672e-001  -2.9326781386e-003   4.7975733716e-004  -1.2937784645e-004
  1.0488625000e+009   5.2645375790e-004   5.9337066301e-004   9.9192579395e-001  -8.5262320060e-003   9.9928391652e-001  -2.1911123957e-003   6.3508291200e-004  -4.0118227851e-004
  1.0574500000e+009   6.9572928662e-004   2.2477936836e-004   9.8970846948e-001  -8.7676180610e-003   9.9981439176e-001  -3.5541022606e-003   7.7871800024e-004  -7.2471198814e-004
