# Hz S RI R 50.000000
! Metas.Vna.Tools, 2.8.8664.20301
! Metas.Vna.Data, 2.8.8664.20285
! Created: UTC 2024.02.11 10:08:18
! FREQ                re:S1,1             im:S1,1             re:S2,1             im:S2,1             re:S1,2             im:S1,2             re:S2,2             im:S2,2          
  1.3000000000e+008  -9.5806650377e-005  -1.4200599000e-003   9.9324528720e-001  -5.7675277983e-003   1.0006441813e+000  -8.4870730353e-004   1.4517326527e-003   6.2103818393e-004
  1.3858750000e+008  -7.1246956050e-004  -8.9567742977e-004   9.9509388112e-001  -5.7810279637e-003   1.0006743214e+000  -1.0977144872e-004   1.3081224759e-003  -3.2732044181e-004
  1.4717500000e+008  -1.8562637642e-003  -9.0250496549e-004   9.9396879633e-001  -6.3926249811e-003   1.0005911593e+000  -9.7970747322e-004   6.3620636918e-004   1.8985397774e-004
  1.5576250000e+008  -1.4307538654e-003   1.1082041309e-004   9.9453285580e-001  -6.1327225711e-003   1.0006267269e+000  -5.6214411803e-004   1.1708707116e-003  -8.3015713153e-004
  1.6435000000e+008  -1.0702789939e-003   7.8040553237e-004   9.9670890841e-001  -4.7346240546e-003   1.0005637416e+000  -7.8231767864e-004   1.0326908793e-003  -8.1070045865e-004
  1.7293750000e+008  -1.0570820938e-003   8.8448028258e-004   9.9544862839e-001  -5.0210993651e-003   1.0004305994e+000  -8.0980729647e-004   8.9454063319e-004  -4.9658936388e-004
  1.8152500000e+008  -1.7629268523e-004   5.5985997167e-004   9.9370768899e-001  -6.3255634851e-003   9.9988702134e-001  -8.9437905943e-004   1.6886774231e-004  -5.0723045824e-004
  1.9011250000e+008  -5.6445858232e-004   5.6026891786e-004   9.9619950260e-001  -7.0989970612e-003   1.0008158032e+000  -8.0870138938e-004   1.8798606735e-004  -1.4752624770e-003
  1.9870000000e+008   1.3568111489e-004   8.8618151632e-004   9.9464737947e-001  -5.6665386419e-003   1.0005627543e+000  -1.2779900878e-003   5.5479368243e-004  -4.0824064257e-004
  2.0728750000e+008   3.8112019385e-004   4.9787815549e-004   9.9327106387e-001  -5.1558360815e-003   1.0008285624e+000  -1.4040584750e-003  -1.1591363691e-004  -3.2504433939e-004
  2.1587500000e+008   1.5377537996e-004  -1.0362072919e-004   9.9469474038e-001  -5.3627163244e-003   9.9979031191e-001  -6.6013556688e-004  -3.0527746779e-004   4.2240654003e-004
  2.2446250000e+008   3.5927506200e-004  -4.2463286039e-004   9.9385256240e-001  -5.7016854146e-003   1.0010121284e+000  -1.0753110926e-003  -2.5756126577e-004   4.6175069977e-005
  2.3305000000e+008   4.8077829207e-004  -1.1138481574e-004   9.9374258664e-001  -5.8549652099e-003   1.0006716365e+000  -1.3857785124e-003  -2.3721000821e-004  -1.6419947186e-004
  2.4163750000e+008  -1.2028694308e-004  -5.8837038197e-004   9.9349393075e-001  -7.8129574929e-003   9.9954482554e-001  -1.3028269631e-003  -4.3180912497e-004   9.9867649461e-005
  2.5022500000e+008  -4.4438906963e-004  -7.0955557718e-004   9.9615734309e-001  -4.6835912988e-003   1.0005148982e+000  -1.6998674485e-003  -7.1331703341e-004   7.3129586788e-004
  2.5881250000e+008  -3.0050492528e-004  -5.2677229550e-004   9.9533258082e-001  -5.1545250924e-003   1.0004978212e+000  -1.2268040585e-003  -5.5351416431e-004   9.4349258759e-004
  2.6740000000e+008  -8.3272077170e-004  -6.9302492497e-004   9.9652096581e-001  -4.6383195810e-003   1.0009376045e+000  -2.4451491357e-003  -5.7099419708e-004   1.8198449688e-004
  2.7598750000e+008  -4.6245839368e-004  -5.1338046644e-004   9.9561811527e-001  -6.1647975213e-003   1.0007086842e+000  -1.5044646647e-003  -2.8411689845e-004   6.0552598781e-004
  2.8457500000e+008  -7.2190304978e-004  -4.6148032171e-004   9.9455348487e-001  -5.1930544415e-003   1.0009945713e+000  -1.1658745313e-003  -3.4875341061e-004   1.5159092133e-004
  2.9316250000e+008  -5.6457991144e-004  -5.4081458374e-004   9.9382702789e-001  -6.2666646678e-003   1.0003452252e+000  -1.6122025704e-003  -4.4189971605e-004   3.4213766214e-004
  3.0175000000e+008  -8.0763474635e-004   2.1976702313e-004   9.9678848844e-001  -6.7898022004e-003   1.0001994831e+000  -1.6962766993e-003  -4.1148789542e-004   4.3670649047e-004
  3.1033750000e+008  -9.1578427243e-004   2.5922896117e-004   9.9612297483e-001  -4.7600383854e-003   1.0010850113e+000  -1.8339522677e-003  -6.6869742091e-004   5.7421579078e-004
  3.1892500000e+008  -8.5928311991e-004   4.4949849762e-005   9.9528636888e-001  -5.6182755265e-003   1.0001571238e+000  -1.1225858580e-003  -5.7708126162e-004   2.4523124037e-004
  3.2751250000e+008  -4.5421721983e-004   4.0979064673e-005   9.9564438613e-001  -7.0042041875e-003   9.9991529915e-001  -2.3553504188e-003  -7.1731079401e-004   3.6603056136e-004
  3.3610000000e+008  -7.4615099047e-004   2.5035133760e-004   9.9613019020e-001  -5.5345006332e-003   1.0008016482e+000  -1.9777264254e-003  -4.3573388219e-004   9.0201279317e-005
  3.4468750000e+008  -6.3440195081e-004   1.1999318857e-004   9.9500309440e-001  -5.4421580860e-003   1.0011191771e+000  -1.6938530411e-003  -3.9895871861e-004   1.4525428410e-004
  3.5327500000e+008  -2.9411035642e-004   3.8926026499e-004   9.9598730440e-001  -6.6658584485e-003   9.9903001876e-001  -2.2064871004e-003  -7.5476577243e-004   5.1912264051e-005
  3.6186250000e+008  -3.6338676014e-004   2.3758504150e-004   9.9597959440e-001  -5.7614419909e-003   1.0010679949e+000  -1.8186802378e-003  -4.4341366958e-004   2.8631026417e-004
  3.7045000000e+008  -5.8670218214e-004   3.3313459081e-004   9.9721671257e-001  -5.3975432100e-003   1.0008919137e+000  -2.1891247311e-003  -7.0642021820e-004  -1.4667906289e-005
  3.7903750000e+008  -4.1028132368e-004   6.2450527256e-004   9.9763052610e-001  -4.3966296536e-003   1.0008132124e+000  -1.9709128904e-003  -4.2193519434e-004   2.1648329069e-004
  3.8762500000e+008  -1.0865711913e-004   3.8912668239e-004   1.0004626852e+000  -4.8088236327e-003   1.0004613232e+000  -1.4884546016e-003  -5.1429569462e-004   3.7602504896e-004
  3.9621250000e+008  -1.3934150073e-004   3.2263511344e-004   9.9865632957e-001  -4.9876637054e-003   1.0002522035e+000  -2.1114432845e-003  -6.6314247294e-004   5.6043036049e-004
  4.0480000000e+008   1.3356615782e-004   3.7500033811e-004   9.9725459163e-001  -6.0339060327e-003   1.0008034711e+000  -2.1546354276e-003   3.0972192384e-005   5.2611292313e-004
  4.1338750000e+008   2.0047951695e-004   1.5471788740e-004   9.9664819415e-001  -5.5589598575e-003   1.0009036751e+000  -2.0001635385e-003   1.3729369035e-004   2.0443839027e-004
  4.2197500000e+008  -1.0400715325e-004  -2.5705542812e-004   9.9658946140e-001  -5.7115236492e-003   1.0008088732e+000  -1.9863456939e-003   7.6511492587e-005   3.6287699355e-004
  4.3056250000e+008   1.6432014038e-004   1.3825438330e-004   9.9641708671e-001  -6.6302831261e-003   1.0004224869e+000  -1.9522643562e-003   3.7251504018e-004   3.2172692450e-004
  4.3915000000e+008  -3.8020315914e-005  -9.9640310178e-005   9.9746980931e-001  -5.3955735393e-003   1.0003518551e+000  -2.1920039260e-003   3.0665007216e-004   6.6290498093e-005
  4.4773750000e+008   2.5897836205e-004  -3.5670670878e-004   9.9745917557e-001  -5.5116522153e-003   1.0004000278e+000  -2.3948006628e-003   5.1512778855e-004   2.4796736784e-005
  4.5632500000e+008  -1.0381463174e-004  -2.1631327597e-004   9.9501830824e-001  -5.5121673698e-003   1.0005524700e+000  -2.3783128289e-003   7.1734263141e-004   3.6132621542e-005
  4.6491250000e+008  -1.9613212509e-004  -2.1009053061e-004   9.9615312614e-001  -5.8493525291e-003   1.0000360743e+000  -2.0659584018e-003   5.3119621215e-004  -1.0041091533e-004
  4.7350000000e+008  -5.8026832934e-004  -2.8716233799e-004   9.9447692809e-001  -6.3767294808e-003   1.0006533670e+000  -2.3659300144e-003   4.7999296321e-004  -9.4330061120e-006
  4.8208750000e+008  -2.6323697641e-004  -7.9876254725e-005   9.9301728228e-001  -7.8989863072e-003   9.9972517614e-001  -2.1478523701e-003   5.6792563451e-004   6.3446479296e-005
  4.9067500000e+008   1.3318096846e-004  -3.4013154806e-004   9.9271701295e-001  -6.9781455038e-003   9.9997174372e-001  -2.1762337944e-003   4.5399615869e-004   5.8543099749e-005
  4.9926250000e+008  -1.2662510466e-004  -2.1137709189e-004   9.9234510361e-001  -6.5876084453e-003   9.9973260295e-001  -1.7723822849e-003   5.9516549892e-004   4.3234121663e-006
  5.0785000000e+008  -5.2148745940e-004  -4.3818360640e-004   9.9330218364e-001  -6.7057976410e-003   9.9995705145e-001  -1.7044525469e-003   5.1526262110e-004   3.6835786536e-004
  5.1643750000e+008  -7.4944463144e-004  -4.6748817025e-006   9.9303197720e-001  -5.2653787261e-003   1.0006543009e+000  -2.1613155712e-003   6.8007837973e-004   8.0943518507e-005
  5.2502500000e+008  -3.6527014438e-004   4.7243487827e-004   9.9261607685e-001  -5.4566368004e-003   1.0005589806e+000  -1.4889726338e-003   3.8361522270e-004  -5.5188001983e-004
  5.3361250000e+008   3.5925228827e-004   4.0811484291e-004   9.9477588049e-001  -6.3464552963e-003   1.0001910100e+000  -2.4077585585e-003  -2.4529894063e-005  -7.8902649498e-004
  5.4220000000e+008   6.7151841829e-004   2.5359064346e-004   9.9445831333e-001  -6.9770408763e-003   1.0013175234e+000  -2.2523312618e-003  -8.1985892368e-004  -4.8411305351e-004
  5.5078750000e+008   5.9464223004e-004  -4.8514748966e-004   9.9450825103e-001  -7.0204008374e-003   1.0003900973e+000  -2.9321006843e-003  -8.8666612707e-004  -2.8549650986e-004
  5.5937500000e+008   4.0001951813e-004  -7.8325161407e-004   9.9214967721e-001  -6.2463402009e-003   1.0001497960e+000  -3.1216797119e-003  -9.4143254559e-004   4.8729805205e-005
  5.6796250000e+008   3.1855332671e-004  -9.4170963962e-004   9.9418166851e-001  -5.9766530645e-003   1.0004250314e+000  -2.3721058967e-003  -1.0719266757e-003   3.9443652823e-004
  5.7655000000e+008  -2.8410560815e-004  -1.1389121799e-003   9.9441845986e-001  -8.1654202167e-003   1.0003938569e+000  -3.7697912896e-003  -8.3222861732e-004   7.2553781118e-004
  5.8513750000e+008  -4.2927348157e-004  -8.9923795906e-004   9.9392986049e-001  -8.2066681773e-003   9.9972111547e-001  -3.0845811747e-003  -8.3591275651e-004   8.1623602596e-004
  5.9372500000e+008  -6.7160270845e-004  -9.1141764848e-004   9.9255250165e-001  -7.1890583210e-003   1.0002743910e+000  -2.7662536780e-003  -6.8401127537e-004   8.8027006023e-004
  6.0231250000e+008  -9.9462606665e-004  -6.5595808620e-004   9.9339679896e-001  -6.4503736585e-003   1.0002732060e+000  -2.2016564343e-003  -4.6889447150e-004   8.9640753856e-004
  6.1090000000e+008  -9.2214541926e-004  -2.9819010372e-004   9.9432989907e-001  -8.5230632640e-003   9.9989141130e-001  -2.2756689913e-003  -4.5465483026e-004   8.8724018930e-004
  6.1948750000e+008  -8.6855938417e-004  -2.6763424314e-005   9.9362907120e-001  -7.0728035462e-003   9.9970046224e-001  -2.5148649779e-003  -3.3677187534e-004   6.5680051441e-004
  6.2807500000e+008  -7.8893829101e-004  -1.5191723059e-005   9.9403123505e-001  -7.2833592713e-003   1.0001819148e+000  -2.6515938710e-003  -4.3247788842e-005   3.7867117102e-004
  6.3666250000e+008  -4.5287667039e-004   3.8540831314e-004   9.9691010007e-001  -6.0194266584e-003   1.0002258537e+000  -3.4009611101e-003   4.8238430659e-005   3.3771383803e-004
  6.4525000000e+008  -9.9341190625e-005   3.6107722724e-004   9.9718137377e-001  -5.8081240563e-003   1.0005151382e+000  -3.0356523738e-003   4.2791402832e-004   1.1115151845e-004
  6.5383750000e+008   1.9598123486e-004   3.4303709388e-004   9.9620170080e-001  -5.0404579170e-003   1.0002707323e+000  -2.5432421385e-003   4.6925384117e-004  -1.0320475656e-004
  6.6242500000e+008   2.8185936587e-004   7.0337993968e-005   9.9483340972e-001  -6.6388831761e-003   1.0004576118e+000  -3.2088361700e-003   3.5908597404e-004  -2.7272642342e-004
  6.7101250000e+008   4.5066283292e-004  -3.1233435681e-004   9.9599602757e-001  -5.2878629600e-003   1.0004958176e+000  -2.1646926342e-003   2.8777427743e-004  -6.0856160479e-004
  6.7960000000e+008   5.9624748114e-004  -5.0785092720e-004   9.9503055753e-001  -5.3633541441e-003   1.0008790598e+000  -2.8359129293e-003   2.8812140523e-004  -9.2313949009e-004
  6.8818750000e+008   2.6538293382e-004  -8.0342240420e-004   9.9512450633e-001  -7.1153388083e-003   1.0007327854e+000  -3.4143519728e-003   1.7355010561e-004  -1.1447948786e-003
  6.9677500000e+008   1.2803535216e-005  -9.2417660754e-004   9.9752948988e-001  -5.9906654442e-003   9.9974438565e-001  -2.5255491752e-003  -1.0503444674e-004  -1.1184578633e-003
  7.0536250000e+008  -3.1243430734e-004  -1.0608547381e-003   9.9554610767e-001  -6.7078607673e-003   9.9965421792e-001  -3.2413402999e-003  -2.4416510798e-004  -1.3763689462e-003
  7.1395000000e+008  -7.1443298915e-004  -1.0310495462e-003   9.9466616305e-001  -6.1758302776e-003   1.0000376573e+000  -3.0319513600e-003  -4.6785030076e-004  -1.2130795577e-003
  7.2253750000e+008  -1.0171601941e-003  -7.7061643079e-004   9.9548672421e-001  -6.7138623631e-003   9.9983754806e-001  -3.0161350815e-003  -7.1027342357e-004  -1.2913044639e-003
  7.3112500000e+008  -1.1472786347e-003  -3.2685913747e-004   9.9498064199e-001  -6.7529223502e-003   9.9977020643e-001  -2.3455625038e-003  -8.3623480085e-004  -9.7205141758e-004
  7.3971250000e+008  -1.0438497608e-003  -6.7249761856e-005   9.9635662387e-001  -7.8543739630e-003   1.0002943591e+000  -3.2508116824e-003  -1.1282645538e-003  -6.8922717075e-004
  7.4830000000e+008  -9.1476266675e-004   4.8021372990e-004   9.9445392489e-001  -5.2627041053e-003   9.9987407268e-001  -3.4997278438e-003  -1.0180713421e-003  -6.1696208540e-004
  7.5688750000e+008  -7.2857566453e-004   6.4081796714e-004   9.9388727264e-001  -7.3522752934e-003   9.9983566423e-001  -3.2729639525e-003  -1.1669747897e-003  -2.7025644741e-004
  7.6547500000e+008  -1.6894074297e-004   8.6712477288e-004   9.9342830233e-001  -8.7275007236e-003   9.9917810874e-001  -3.4549518721e-003  -1.1672699866e-003   6.0162649335e-005
  7.7406250000e+008  -2.0387019492e-006   7.6883301939e-004   9.9226149383e-001  -7.6973976080e-003   9.9999049729e-001  -2.8102325076e-003  -7.9030121424e-004   3.2979860155e-004
  7.8265000000e+008   3.2708034165e-004   5.7808413714e-004   9.9466546897e-001  -6.8825012084e-003   9.9994010789e-001  -2.5154752802e-003  -7.3247327311e-004   6.2306062993e-004
  7.9123750000e+008   6.0102603508e-004   4.0971243961e-004   9.9485355540e-001  -6.5186701599e-003   9.9949570111e-001  -2.8487321817e-003  -6.8124188818e-004   6.8866756708e-004
  7.9982500000e+008   3.7219270748e-004   2.2452736659e-004   9.9484549917e-001  -5.8663374688e-003   9.9969870469e-001  -1.9056875896e-003  -4.2887446295e-004   8.3489752523e-004
  8.0841250000e+008   8.5723476671e-004   6.4788372804e-005   9.9411599564e-001  -7.2547602079e-003   1.0000836961e+000  -2.7653710341e-003  -3.1810565135e-004   8.9394036372e-004
  8.1700000000e+008   1.1119488122e-003   7.2484901464e-005   9.9648118171e-001  -5.8814533333e-003   1.0002679115e+000  -2.6417259222e-003  -4.6636910414e-004   9.0121792971e-004
  8.2558750000e+008   1.0524873400e-003  -4.2686937164e-004   9.9620266960e-001  -5.5725256275e-003   9.9996964173e-001  -3.1999859720e-003  -3.7411774814e-004   1.1248666387e-003
  8.3417500000e+008   1.0995173497e-003  -9.1706815741e-004   9.9720740043e-001  -5.6311551488e-003   1.0011073011e+000  -3.2553115599e-003  -4.3721190316e-004   1.3222394964e-003
  8.4276250000e+008   7.1437711199e-004  -1.2365814628e-003   9.9724961288e-001  -6.3115836863e-003   1.0000267484e+000  -3.1826318005e-003   9.6366076851e-005   1.3992982057e-003
  8.5135000000e+008   1.1884689646e-004  -1.2687074321e-003   9.9709997855e-001  -6.2495125692e-003   1.0008370470e+000  -2.2819613934e-003   1.1882716922e-004   1.5784318612e-003
  8.5993750000e+008  -5.8985985037e-005  -1.2077065162e-003   9.9900638008e-001  -5.3860410043e-003   1.0004481580e+000  -3.6529161999e-003   2.8949860774e-004   1.2887690860e-003
  8.6852500000e+008  -5.9275341222e-004  -9.7722156846e-004   9.9502515276e-001  -7.1724960357e-003   1.0001267756e+000  -3.1215013403e-003   7.2678305227e-004   8.9930718151e-004
  8.7711250000e+008  -5.6720595647e-004  -6.7272462084e-004   9.9540572247e-001  -6.2859457126e-003   1.0005465260e+000  -3.5852974709e-003   6.7856325156e-004   5.5469030730e-004
  8.8570000000e+008  -4.9574421298e-004  -3.7098406804e-004   9.9558208111e-001  -5.5047144911e-003   1.0001570599e+000  -3.5661646462e-003   5.2360134741e-004   1.8508049307e-004
  8.9428750000e+008  -4.3228724620e-004  -1.3857298049e-004   9.9545844976e-001  -6.7421177920e-003   1.0001980283e+000  -3.3964240153e-003   5.6956433210e-004  -1.4356815871e-004
  9.0287500000e+008  -7.6594173744e-005  -1.4810960914e-004   9.9752308061e-001  -6.3814611131e-003   9.9964499934e-001  -4.4639117815e-003   4.0967014587e-004  -3.9045326113e-004
  9.1146250000e+008   2.0855256294e-004  -8.7240942089e-005   9.9584475099e-001  -6.9920539347e-003   9.9843960278e-001  -4.0375291211e-003  -1.2040469841e-004  -5.0977580055e-004
  9.2005000000e+008   1.7308991013e-004  -3.9473263504e-004   9.9620093384e-001  -7.8190853081e-003   9.9966119102e-001  -3.2891139158e-003  -6.1067708355e-004  -8.1187723107e-004
  9.2863750000e+008   4.6209977046e-004  -4.8361568648e-004   9.9504380249e-001  -5.0545162909e-003   9.9908840084e-001  -3.8780455603e-003  -7.4188366947e-004  -6.0306764338e-004
  9.3722500000e+008   3.0274230152e-004  -8.2576404871e-004   9.9675251179e-001  -6.7149613391e-003   9.9844952139e-001  -3.8239127682e-003  -1.0110331477e-003  -7.5760205398e-004
  9.4581250000e+008   3.8625147268e-004  -1.0480310813e-003   9.9593047040e-001  -5.3879706092e-003   9.9967852235e-001  -3.1098414476e-003  -1.2275585934e-003  -5.3016369137e-004
  9.5440000000e+008   6.3308341944e-005  -1.2751104862e-003   9.9586967047e-001  -6.9975360536e-003   9.9986162724e-001  -3.3688619826e-003  -1.4812617945e-003  -4.5559538440e-004
  9.6298750000e+008  -3.2783231914e-004  -1.4139618620e-003   9.9606625032e-001  -5.4361170692e-003   1.0002964796e+000  -4.4602062413e-003  -1.5584407826e-003  -4.2073403446e-004
  9.7157500000e+008  -5.2507748226e-004  -1.2658535413e-003   9.9606483600e-001  -7.2239837320e-003   1.0007222484e+000  -3.3715824486e-003  -1.6118141460e-003  -2.7390158932e-004
  9.8016250000e+008  -9.2612645383e-004  -1.0826835097e-003   9.9636497817e-001  -7.4470452017e-003   1.0002676613e+000  -4.1065608714e-003  -1.5937564411e-003  -5.1754622293e-005
  9.8875000000e+008  -1.0888173738e-003  -6.6262645273e-004   9.9580847810e-001  -5.8031567294e-003   9.9911564273e-001  -3.4761589685e-003  -1.4332326557e-003   2.3536237226e-004
  9.9733750000e+008  -1.1495395101e-003  -3.5607487208e-004   9.9484830537e-001  -6.5341072306e-003   9.9994622553e-001  -3.1556840760e-003  -1.2771331628e-003   1.5620288874e-004
  1.0059250000e+009  -1.0661899296e-003   1.0786529842e-004   9.9544668230e-001  -6.3407652113e-003   9.9978158788e-001  -4.0058898343e-003  -8.1799151412e-004   2.6976128423e-004
  1.0145125000e+009  -9.1080308761e-004   4.2025537246e-004   9.9624073334e-001  -9.6920284141e-003   1.0002382215e+000  -3.7172953181e-003  -4.9322374133e-004   3.7153631024e-004
  1.0231000000e+009  -6.2151558091e-004   4.1144265277e-004   9.9589519880e-001  -6.4961269649e-003   9.9929314077e-001  -4.3935688431e-003  -2.4755538497e-004   4.2086372228e-004
  1.0316875000e+009  -2.4552750559e-004   8.1930891368e-004   9.9496431236e-001  -8.2621250834e-003   9.9894734058e-001  -4.3278420820e-003   3.6906471493e-006   2.7155427786e-004
  1.0402750000e+009   2.3769247662e-004   6.7902848052e-004   9.9427822718e-001  -8.0620465199e-003   9.9949840291e-001  -3.0101509926e-003   2.9725389182e-004   1.5695484595e-004
  1.0488625000e+009   5.3714138948e-004   5.5900535763e-004   9.9406724525e-001  -7.7112926495e-003   9.9919348046e-001  -3.9648954931e-003   8.0792568453e-004  -1.4670651870e-005
  1.0574500000e+009   6.0869057606e-004   2.6348578732e-004   9.9331222074e-001  -7.8642453052e-003   1.0001593959e+000  -3.3469209529e-003   8.5031680446e-004  -2.6598691528e-004
