# Hz S RI R 50.000000
! Metas.Vna.Tools, 2.8.8664.20301
! Metas.Vna.Data, 2.8.8664.20285
! Created: UTC 2024.02.11 10:08:10
! FREQ                re:S1,1             im:S1,1             re:S2,1             im:S2,1             re:S1,2             im:S1,2             re:S2,2             im:S2,2          
  1.3000000000e+008  -2.2543258127e-004  -1.7029248931e-003   1.0014481726e+000  -3.7212765199e-003   9.9988515209e-001  -2.3227594353e-003   1.7114563639e-003   3.5911652651e-004
  1.3858750000e+008  -8.3526708696e-004  -6.2323908541e-004   1.0027399299e+000  -3.4437153813e-003   1.0002922714e+000  -2.4183452285e-003   1.5937168073e-003  -1.3930488890e-004
  1.4717500000e+008  -1.7886110989e-003  -8.2327862161e-004   1.0019120613e+000  -3.3138070096e-003   9.9994247592e-001  -1.5789251363e-003   9.4315745390e-004  -6.1140736004e-006
  1.5576250000e+008  -1.2718539018e-003  -1.6416126125e-004   1.0024447432e+000  -3.9785742115e-003   1.0003664991e+000  -1.6872186981e-003   1.1876860600e-003  -7.2489158721e-004
  1.6435000000e+008  -9.4933315100e-004   5.5220394808e-004   1.0024087718e+000  -3.9144744118e-003   1.0005441765e+000  -1.7684521840e-003   1.1684161286e-003  -8.0995945561e-004
  1.7293750000e+008  -9.7941219351e-004   6.6141481736e-004   1.0030874166e+000  -3.1560334904e-003   1.0003033471e+000  -1.1982355263e-003   1.1315694108e-003  -9.2363948779e-004
  1.8152500000e+008  -3.2621086120e-004   9.3262997566e-005   1.0021476618e+000  -3.8271517894e-003   1.0003196471e+000  -2.0234745185e-003   5.6946628361e-004  -6.2132024115e-004
  1.9011250000e+008  -7.0428056128e-004   6.7739340295e-004   1.0030971721e+000  -5.0328563134e-003   1.0004243781e+000  -1.8747823146e-003   4.8903622628e-004  -9.7765487324e-004
  1.9870000000e+008  -1.0678169763e-005   9.3839664347e-004   1.0021109961e+000  -3.5267212875e-003   1.0003009284e+000  -1.9852053734e-003   1.2672817694e-004  -5.4335213945e-004
  2.0728750000e+008   5.7003043928e-005   5.2736424566e-004   1.0019058790e+000  -3.4335447691e-003   1.0002890978e+000  -2.1852656258e-003   2.2902259516e-004  -1.3563451686e-004
  2.1587500000e+008   3.4760425213e-004  -4.0394699482e-004   1.0028156367e+000  -3.5894871577e-003   1.0000988871e+000  -1.7988474688e-003  -4.4730066057e-004   2.2937424110e-004
  2.2446250000e+008   4.5231791366e-004  -3.5721879805e-004   1.0021200883e+000  -3.2402914785e-003   1.0001221940e+000  -2.2245412153e-003  -7.4943311446e-005   3.1384715540e-004
  2.3305000000e+008  -1.7881311822e-006   6.3801373119e-005   1.0020672890e+000  -3.2173168363e-003   1.0003498327e+000  -2.1668105144e-003  -3.6733874328e-004   1.0118467246e-004
  2.4163750000e+008  -2.3665100494e-004  -3.5947311082e-004   1.0009929339e+000  -4.4789181789e-003   1.0003435780e+000  -2.9951167948e-003  -6.5013931865e-004   2.6177179781e-004
  2.5022500000e+008  -3.3245854959e-004  -6.1494893131e-004   1.0016543062e+000  -4.4909910008e-003   9.9958146282e-001  -2.9432217681e-003  -9.0665025818e-004   1.0029462248e-003
  2.5881250000e+008  -8.2820441028e-004  -6.1669684972e-004   1.0016852911e+000  -5.2068122101e-003   9.9979934446e-001  -3.4145194764e-003  -5.8406312660e-004   7.1712749714e-004
  2.6740000000e+008  -7.2173984857e-004  -3.6011502081e-004   1.0022342445e+000  -3.3092933121e-003   1.0001609772e+000  -2.3442890663e-003  -4.6612137695e-004   2.8097157655e-004
  2.7598750000e+008  -4.6511669965e-004  -6.0439258355e-004   1.0023128446e+000  -5.2027069701e-003   1.0002171581e+000  -2.5464729992e-003  -4.8777449864e-004   5.7360285966e-004
  2.8457500000e+008  -7.2014066791e-004  -3.9045850165e-004   1.0007095536e+000  -4.2455042013e-003   1.0001983467e+000  -2.1824345011e-003  -6.6618353478e-004   6.5821396982e-004
  2.9316250000e+008  -5.6635356949e-004  -8.6579492763e-004   1.0021453930e+000  -3.2865223666e-003   1.0000291071e+000  -2.9620332687e-003  -2.5643085370e-004   2.5812231785e-004
  3.0175000000e+008  -1.1668351166e-003   3.5788579029e-004   1.0020839938e+000  -6.1523474322e-003   1.0004645114e+000  -2.6308174779e-003  -4.7033824522e-004   7.6020875004e-004
  3.1033750000e+008  -1.1099226065e-003   3.2865960665e-004   1.0032262519e+000  -2.1132648400e-003   1.0017356653e+000  -3.1054721367e-003  -7.7186370227e-004   6.2400058364e-004
  3.1892500000e+008  -1.0178064989e-003   4.4288877386e-004   1.0016184000e+000  -4.7547380424e-003   1.0004768601e+000  -2.2009723379e-003  -9.4916466021e-004   3.2158407427e-004
  3.2751250000e+008  -9.6568102388e-004   1.9805839547e-004   1.0031405681e+000  -4.3191742067e-003   9.9978816918e-001  -3.5068072247e-003  -7.2454203231e-004   2.2309304312e-004
  3.3610000000e+008  -6.9534161772e-004   2.8784174510e-004   1.0025365226e+000  -3.0296189513e-003   1.0005373460e+000  -3.1049314794e-003  -3.7748482031e-004   3.5259258899e-004
  3.4468750000e+008  -8.5458851739e-004   1.5761427567e-004   1.0029560381e+000  -3.3856797002e-003   1.0009746013e+000  -2.4894939822e-003  -5.1477533678e-004   1.5561926588e-004
  3.5327500000e+008  -5.4198178897e-004   3.8362864978e-004   1.0041479896e+000  -4.6940600587e-003   9.9887784359e-001  -3.1475636721e-003  -6.0781310994e-004   2.9733842877e-004
  3.6186250000e+008  -5.0304655590e-004   2.0213465706e-004   1.0034259266e+000  -4.4156091906e-003   1.0006827740e+000  -2.8392762595e-003  -2.9407856329e-004   3.4740266800e-004
  3.7045000000e+008  -6.1221220088e-004   6.4331685759e-004   1.0019866783e+000  -4.2388320055e-003   1.0010583274e+000  -3.4267196530e-003  -4.3793078888e-004   4.9120145909e-004
  3.7903750000e+008  -8.6828899757e-005   4.8519446112e-004   1.0028558261e+000  -3.8067928504e-003   1.0001831066e+000  -3.2259088248e-003  -5.9925097926e-004   2.3713567646e-004
  3.8762500000e+008  -3.2026806692e-004   4.1095584943e-004   1.0037102526e+000  -3.9030417155e-003   9.9993584203e-001  -2.8447278251e-003  -4.5516965124e-004   4.5507477950e-004
  3.9621250000e+008  -2.6803374257e-004   1.1199148447e-004   1.0026538461e+000  -4.3463428685e-003   1.0005833693e+000  -3.0922248902e-003  -4.8246026943e-004   4.8057445079e-004
  4.0480000000e+008   1.0271783872e-004   1.8632550290e-004   1.0045852885e+000  -4.8302298983e-003   1.0001052153e+000  -2.9228401866e-003  -3.1977492291e-006   2.3158585070e-004
  4.1338750000e+008   2.0833975787e-004   2.2705836578e-005   1.0038415440e+000  -3.2827862718e-003   1.0007097385e+000  -2.8325348602e-003   3.6237360137e-005   6.2774291967e-004
  4.2197500000e+008  -1.6431126845e-004  -2.2600887676e-004   1.0035354848e+000  -4.8705685651e-003   1.0003228560e+000  -3.3897242755e-003   2.0267067022e-004   4.6864055117e-004
  4.3056250000e+008   1.5188053642e-004  -6.2793527211e-005   1.0029451705e+000  -4.7636887915e-003   1.0004983947e+000  -2.9863011556e-003   4.4688938094e-004   4.1005395575e-004
  4.3915000000e+008  -1.6186242889e-004  -1.8933169835e-004   1.0042992377e+000  -3.0420156549e-003   1.0004070712e+000  -3.7172421190e-003   5.4803163600e-004   2.9427833184e-004
  4.4773750000e+008  -1.0685109001e-005  -2.0020168650e-004   1.0047837694e+000  -4.4044373098e-003   1.0003136118e+000  -3.6853166853e-003   6.0955520110e-004   1.4006342981e-004
  4.5632500000e+008  -1.2792044421e-004  -4.9368129694e-005   1.0026545349e+000  -3.9907980818e-003   1.0002446547e+000  -3.2354352969e-003   8.4575147766e-004   1.7702934703e-004
  4.6491250000e+008  -2.7145152866e-004   3.6778411623e-005   1.0035755971e+000  -5.3665297250e-003   9.9989672536e-001  -3.4415106388e-003   6.4872190011e-004   5.6138669603e-005
  4.7350000000e+008  -3.4285947405e-004  -1.2240727995e-004   1.0031585042e+000  -4.3438514108e-003   1.0001842486e+000  -3.3497450229e-003   7.5248195064e-004   6.9959102652e-005
  4.8208750000e+008  -1.3771972304e-004   1.2694847997e-004   1.0012430791e+000  -4.9341226350e-003   9.9970187515e-001  -3.2283146169e-003   5.6037427095e-004  -4.8989272175e-005
  4.9067500000e+008   2.6878620041e-004  -3.1667026415e-004   1.0006369584e+000  -4.2914769579e-003   9.9984393753e-001  -3.4926563184e-003   5.3694157792e-004   9.8091050116e-005
  4.9926250000e+008  -5.1490481579e-005  -5.1361241132e-004   1.0004939829e+000  -4.0275194734e-003   9.9966203545e-001  -3.2382549269e-003   6.9215535427e-004   1.8265190837e-004
  5.0785000000e+008  -6.9028381632e-004  -5.1920492917e-004   1.0009391586e+000  -3.9401935687e-003   9.9946429182e-001  -2.3923385048e-003   8.2935255443e-004   4.3235794830e-004
  5.1643750000e+008  -8.9410276608e-004  -4.2545673504e-005   1.0008306454e+000  -4.2973303966e-003   1.0002473890e+000  -2.6043602884e-003   9.5666937594e-004  -7.4010620133e-005
  5.2502500000e+008  -5.0398735450e-004   6.9628431239e-004   1.0025481442e+000  -3.3500585440e-003   1.0005128002e+000  -2.1780427714e-003   6.6494222927e-004  -7.7203009259e-004
  5.3361250000e+008   4.5501046839e-004   6.5057932534e-004   1.0026867667e+000  -3.9947191086e-003   1.0005783086e+000  -3.0489959951e-003   8.5945953077e-005  -1.1830126080e-003
  5.4220000000e+008   8.9852481108e-004   2.7737033905e-004   1.0015943706e+000  -5.2395353774e-003   1.0014596320e+000  -3.3649705912e-003  -1.0850908795e-003  -6.2831951535e-004
  5.5078750000e+008   6.1749017778e-004  -6.7798897809e-004   1.0017938412e+000  -6.5840994090e-003   1.0002402081e+000  -3.7665150570e-003  -1.0504767256e-003  -4.3303491404e-004
  5.5937500000e+008   4.0056265623e-004  -8.3645799779e-004   1.0016053978e+000  -5.1169971556e-003   1.0002946072e+000  -3.6180827284e-003  -1.1442701314e-003   2.0915651419e-004
  5.6796250000e+008   3.3024554039e-004  -8.9640582670e-004   1.0018828000e+000  -4.6335821242e-003   9.9985544523e-001  -3.5413946257e-003  -1.3724955894e-003   3.8368825726e-004
  5.7655000000e+008  -2.8644957158e-004  -1.1161777043e-003   1.0017189265e+000  -6.7686517570e-003   1.0004718819e+000  -4.3170289373e-003  -1.0450523241e-003   6.7781147947e-004
  5.8513750000e+008  -5.4753439750e-004  -8.0189531247e-004   1.0018950199e+000  -6.1729889131e-003   9.9990299746e-001  -3.1449969399e-003  -1.0473504362e-003   8.8542493916e-004
  5.9372500000e+008  -6.8364948727e-004  -7.1456248855e-004   9.9996517620e-001  -4.3607646370e-003   1.0002429226e+000  -4.5316713754e-003  -8.3811979859e-004   1.2346201992e-003
  6.0231250000e+008  -1.1970904398e-003  -4.4910240617e-004   1.0014460644e+000  -3.2325839581e-003   1.0001118860e+000  -3.6176701367e-003  -3.9521609701e-004   1.1554349574e-003
  6.1090000000e+008  -9.8565021713e-004  -1.4065061688e-004   1.0036528373e+000  -6.9080984157e-003   9.9964090336e-001  -3.4379885871e-003  -3.1629435052e-004   1.2332738375e-003
  6.1948750000e+008  -9.3840632028e-004   1.2774714376e-004   1.0011950120e+000  -5.4133521447e-003   9.9952274256e-001  -3.8161338580e-003  -6.4356032882e-005   8.3400836329e-004
  6.2807500000e+008  -6.5659393313e-004   1.3842677383e-004   1.0016017899e+000  -7.0575626027e-003   1.0004926197e+000  -3.7252221717e-003   2.0803037811e-005   5.9298643928e-004
  6.3666250000e+008  -2.8454698640e-004   6.7001452088e-004   1.0029065305e+000  -5.8313633680e-003   9.9992979080e-001  -4.3198292470e-003   3.7623871810e-004   3.0159761328e-004
  6.4525000000e+008   1.8305861464e-005   3.8927467561e-004   1.0022711655e+000  -4.7736646324e-003   9.9990037520e-001  -3.4048068749e-003   5.1590036239e-004   1.1330877368e-004
  6.5383750000e+008   1.7085626792e-004   2.9620037731e-004   1.0014768514e+000  -5.3887454650e-003   9.9964398407e-001  -3.5386732707e-003   6.7032776629e-004  -1.9919090035e-004
  6.6242500000e+008   3.3020231003e-004  -8.2396860042e-005   9.9949620944e-001  -4.8079574569e-003   1.0006116333e+000  -4.6577951589e-003   4.3491261516e-004  -4.6175700408e-004
  6.7101250000e+008   2.7926097398e-004  -2.5125786479e-004   1.0014099258e+000  -5.3266163444e-003   9.9958281231e-001  -3.6694094008e-003   4.4470948755e-004  -6.2959541383e-004
  6.7960000000e+008   5.5597583591e-004  -5.6737435980e-004   1.0010637180e+000  -4.0942354501e-003   1.0000934269e+000  -4.3065234803e-003   3.3806391964e-004  -1.0497452078e-003
  6.8818750000e+008   7.1114493225e-005  -8.8305204027e-004   1.0009367520e+000  -5.1633687005e-003   9.9985439345e-001  -3.8618495746e-003   1.5593995732e-004  -1.2719261855e-003
  6.9677500000e+008   8.7946933055e-005  -9.4473068071e-004   1.0027079654e+000  -5.7858804395e-003   9.9975009980e-001  -3.7817094283e-003  -1.6910521720e-004  -1.2299320667e-003
  7.0536250000e+008  -3.9148048647e-004  -9.9968721986e-004   1.0005132890e+000  -6.0944609072e-003   1.0001500565e+000  -4.8382247915e-003  -3.0145454674e-004  -1.2816417730e-003
  7.1395000000e+008  -6.5279027093e-004  -8.0333805137e-004   1.0014140252e+000  -5.3264975863e-003   1.0000024944e+000  -4.0351842227e-003  -6.5681375726e-004  -1.3245670703e-003
  7.2253750000e+008  -1.0082522996e-003  -7.1673681152e-004   9.9943852065e-001  -6.0473649000e-003   9.9986600320e-001  -4.0417614744e-003  -9.2260773418e-004  -1.3612943388e-003
  7.3112500000e+008  -9.8985423278e-004  -2.2255991371e-004   9.9960482879e-001  -5.2771651664e-003   9.9939392155e-001  -4.1899503059e-003  -1.0714975490e-003  -1.1525686250e-003
  7.3971250000e+008  -9.1706956541e-004   3.4581382785e-004   1.0008658882e+000  -6.6333807296e-003   9.9956168309e-001  -4.4254303535e-003  -1.2635874972e-003  -8.3586498468e-004
  7.4830000000e+008  -8.3667522727e-004   6.3691350509e-004   1.0007390869e+000  -5.2537147451e-003   9.9971020180e-001  -5.1597238409e-003  -1.1379000589e-003  -6.9647109404e-004
  7.5688750000e+008  -5.4477540318e-004   7.0156765985e-004   1.0007343784e+000  -6.1173065135e-003   9.9810539873e-001  -4.7455126366e-003  -1.2372102355e-003  -1.5758309427e-004
  7.6547500000e+008   1.4131096247e-005   8.2809950121e-004   1.0016286900e+000  -6.7159448699e-003   9.9936006041e-001  -4.1679629068e-003  -1.2676034442e-003  -3.1469860412e-006
  7.7406250000e+008   2.4714799211e-004   6.0143761280e-004   1.0004321045e+000  -6.2162610352e-003   9.9916839288e-001  -4.5231064918e-003  -9.4376408995e-004   3.0723145180e-004
  7.8265000000e+008   3.9815024056e-004   2.8182130173e-004   9.9986673818e-001  -5.6153757108e-003   9.9952187763e-001  -3.7147136973e-003  -8.8308589768e-004   6.7082079830e-004
  7.9123750000e+008   5.0438517714e-004   2.4634446105e-004   9.9957851110e-001  -6.1959199542e-003   9.9994632268e-001  -3.1456340377e-003  -6.4903631842e-004   6.6793801314e-004
  7.9982500000e+008   3.8342431554e-004   2.2562057203e-004   1.0006991457e+000  -3.7013832613e-003   1.0008820285e+000  -3.0020034026e-003  -4.5805063730e-004   6.4324869191e-004
  8.0841250000e+008   7.1669954308e-004   3.6029423992e-004   9.9926837984e-001  -6.4529104450e-003   1.0000429404e+000  -3.5211093553e-003  -2.7320091175e-004   7.1290984302e-004
  8.1700000000e+008   9.0331661429e-004   1.7499009677e-004   1.0011249081e+000  -4.8515768009e-003   1.0005534255e+000  -3.4338116372e-003  -4.7678550349e-004   9.2099039897e-004
  8.2558750000e+008   1.2851826103e-003  -1.7073292698e-004   1.0006419230e+000  -4.5374181529e-003   1.0000106341e+000  -4.2908322391e-003  -4.9601390297e-004   9.7137919164e-004
  8.3417500000e+008   1.3351572211e-003  -7.5533578200e-004   1.0022966341e+000  -5.1370689642e-003   1.0006632882e+000  -4.2624958104e-003  -4.2919652190e-004   1.3247940147e-003
  8.4276250000e+008   8.5249684802e-004  -1.1608000737e-003   1.0003911414e+000  -5.9854344537e-003   9.9987334139e-001  -4.0478474983e-003  -5.8699792638e-005   1.3355313402e-003
  8.5135000000e+008   3.8930246703e-004  -1.4445194216e-003   1.0011563482e+000  -4.9863273125e-003   1.0010384291e+000  -3.9516625759e-003   2.7618841085e-004   1.6174847607e-003
  8.5993750000e+008  -4.1116668503e-005  -1.4345161983e-003   1.0017484134e+000  -5.5856815649e-003   9.9976605266e-001  -6.1238692046e-003   5.1369764029e-004   1.4788786614e-003
  8.6852500000e+008  -4.7015314036e-004  -1.0677315886e-003   9.9915062406e-001  -6.3071301038e-003   9.9973110649e-001  -4.3815581806e-003   7.9661215858e-004   1.1159718514e-003
  8.7711250000e+008  -6.6348306213e-004  -7.1673607188e-004   9.9980471020e-001  -6.6113116077e-003   1.0005162139e+000  -4.9861082924e-003   6.9552902601e-004   5.8851068064e-004
  8.8570000000e+008  -5.5305592835e-004  -4.1130274579e-004   1.0024054010e+000  -5.6333739525e-003   9.9908214769e-001  -4.9151380817e-003   8.7222962117e-004   1.4351247659e-004
  8.9428750000e+008  -4.6073630820e-004  -2.0413443990e-004   9.9896179379e-001  -6.6654778745e-003   1.0000525722e+000  -5.4489647544e-003   5.5556735822e-004  -2.6439419397e-004
  9.0287500000e+008  -7.2035107785e-005  -6.3977374048e-005   1.0004158476e+000  -6.3863306074e-003   9.9972522069e-001  -5.8675792764e-003   2.9011010867e-004  -4.3440773570e-004
  9.1146250000e+008   1.8897140346e-004  -4.4825507132e-005   1.0010856508e+000  -5.9551787053e-003   9.9817985860e-001  -5.2501212386e-003  -8.4702009279e-005  -5.6651827528e-004
  9.2005000000e+008   1.9780078679e-004  -1.5219483462e-004   1.0004348859e+000  -7.0655334031e-003   9.9859795934e-001  -4.1174582134e-003  -4.9497708230e-004  -9.1735390491e-004
  9.2863750000e+008   4.4132921707e-004  -4.7561146550e-004   1.0007080604e+000  -5.2005624857e-003   9.9929166050e-001  -5.6584520012e-003  -6.2831072125e-004  -9.2249984598e-004
  9.3722500000e+008   3.0204524487e-004  -7.1363289188e-004   1.0008714733e+000  -4.7088170432e-003   9.9891396772e-001  -5.0224119758e-003  -9.5439834432e-004  -8.7726152158e-004
  9.4581250000e+008   3.6760858256e-004  -9.7550723940e-004   1.0005575379e+000  -4.4512012887e-003   9.9895706937e-001  -3.8175392654e-003  -1.2518890076e-003  -7.4260355965e-004
  9.5440000000e+008  -4.4841759689e-005  -1.2362711260e-003   9.9981097202e-001  -6.7488909097e-003   9.9982424731e-001  -4.1304548287e-003  -1.5261392688e-003  -5.7544847007e-004
  9.6298750000e+008  -3.6648435875e-004  -1.2629881315e-003   1.0014383443e+000  -4.3501290573e-003   9.9895554200e-001  -5.2929682718e-003  -1.6215464146e-003  -2.3667598241e-004
  9.7157500000e+008  -6.5138055177e-004  -1.2527531704e-003   1.0001989449e+000  -5.4910222951e-003   1.0004849403e+000  -4.9001475565e-003  -1.4855243668e-003  -1.6233645866e-004
  9.8016250000e+008  -8.7611456076e-004  -9.7273378456e-004   1.0005821400e+000  -5.1167376879e-003   1.0000379902e+000  -5.2617857082e-003  -1.5496333915e-003   7.6575954073e-005
  9.8875000000e+008  -1.2056608082e-003  -6.7141325680e-004   1.0002527495e+000  -5.4937362967e-003   9.9900891963e-001  -4.5462899202e-003  -1.4867141572e-003   3.8168810713e-004
  9.9733750000e+008  -1.1362784094e-003  -2.6426842141e-004   1.0005561438e+000  -7.2956941775e-003   9.9965491537e-001  -3.8612638022e-003  -1.2297675689e-003   2.7158051867e-004
  1.0059250000e+009  -1.0076102179e-003   1.7625361958e-004   9.9939525321e-001  -4.9787370532e-003   9.9948573319e-001  -4.6565407528e-003  -7.6657119601e-004   4.8220920446e-004
  1.0145125000e+009  -1.0695670897e-003   4.5313807606e-004   1.0019771959e+000  -8.6203195078e-003   9.9964644102e-001  -4.6717305529e-003  -5.7835121125e-004   4.8524260652e-004
  1.0231000000e+009  -6.6158793368e-004   5.8210617887e-004   1.0006084756e+000  -5.3646533667e-003   9.9903026892e-001  -4.9281471299e-003  -2.4570109064e-004   5.1719196726e-004
  1.0316875000e+009  -3.2810304448e-004   8.4082499092e-004   1.0010158012e+000  -7.2639245644e-003   9.9930184362e-001  -5.4150938131e-003   6.4247405444e-005   4.8937729296e-004
  1.0402750000e+009   1.1977213258e-004   7.5452473652e-004   1.0006873594e+000  -6.5281409077e-003   9.9899172410e-001  -4.1929442581e-003   3.5643527763e-004   1.4417875159e-004
  1.0488625000e+009   2.4633263239e-004   5.8265051687e-004   1.0024871344e+000  -5.8775654333e-003   9.9926415604e-001  -4.9033231961e-003   6.1277353002e-004   1.1271806467e-004
  1.0574500000e+009   5.4058564403e-004   3.3820513881e-004   1.0011417246e+000  -5.3254680952e-003   9.9930785591e-001  -5.3998845415e-003   8.4255687308e-004  -2.7926586150e-004
