# Hz S RI R 50.000000
! Metas.Vna.Tools, 2.8.8664.20301
! Metas.Vna.Data, 2.8.8664.20285
! Created: UTC 2024.02.11 10:08:29
! FREQ                re:S1,1             im:S1,1             re:S2,1             im:S2,1             re:S1,2             im:S1,2             re:S2,2             im:S2,2          
  1.3000000000e+008   4.3099377940e-004  -1.5124975798e-003   9.9285466215e-001  -6.1160667102e-003   1.0005236327e+000  -5.2626314640e-004   4.2747621070e-004   2.9299530544e-004
  1.3858750000e+008  -2.3751917696e-004  -1.1676966188e-003   9.9194749499e-001  -5.4344098918e-003   1.0008517449e+000   1.2688755721e-004   1.1306711050e-003   3.8721075590e-004
  1.4717500000e+008  -1.5946647743e-003  -6.8648452991e-004   9.9045526797e-001  -7.5896122121e-003   9.9992091424e-001  -8.5571092065e-007   9.6624024919e-004   2.1775759425e-004
  1.5576250000e+008  -1.3312114216e-003  -6.2730173662e-005   9.9070415992e-001  -6.2245116925e-003   1.0004150174e+000   3.7530501967e-004   1.4384448979e-003  -1.0179728704e-003
  1.6435000000e+008  -7.9828246925e-004   3.4004645699e-004   9.9079893715e-001  -6.2084689846e-003   1.0008447197e+000  -2.2517382631e-004   1.3366156432e-003  -1.3315087464e-004
  1.7293750000e+008  -1.3259689533e-003   4.8899835694e-004   9.9118036383e-001  -6.9145521843e-003   1.0002177528e+000  -1.9455166593e-004   8.9144696744e-004  -7.8347973908e-004
  1.8152500000e+008  -4.5916890460e-004   4.5671058689e-004   9.9070123532e-001  -7.2078081235e-003   1.0005812371e+000  -7.9436312403e-004   7.9250682683e-004  -7.4796348228e-004
  1.9011250000e+008  -8.6584290929e-007   3.2271961328e-004   9.9107624734e-001  -8.8826622481e-003   1.0011560260e+000  -1.6374604632e-004   1.9825666514e-004  -9.5142794210e-004
  1.9870000000e+008  -8.5277741118e-005   3.8776648139e-004   9.9052338898e-001  -8.2324640556e-003   1.0007804621e+000  -3.7527951016e-004   3.8316916754e-004  -2.9230678772e-004
  2.0728750000e+008   4.2974092990e-004   4.6374162463e-004   9.8946551575e-001  -7.0549344161e-003   1.0005786346e+000  -1.0024270298e-003   5.0000728904e-004  -2.6669425248e-004
  2.1587500000e+008   3.4481777785e-004  -4.4640068407e-004   9.9208271023e-001  -6.3906740160e-003   1.0002542649e+000  -4.2993826227e-004  -5.2768614609e-004   8.9733166436e-005
  2.2446250000e+008   1.5688771017e-004  -4.9429204881e-004   9.9084733500e-001  -6.6983867638e-003   1.0004055745e+000  -5.8941308538e-004  -1.5525568707e-005  -1.4465017584e-005
  2.3305000000e+008   8.0439913145e-005  -5.2057080627e-005   9.9009672286e-001  -7.4704837111e-003   1.0001548326e+000  -6.9838166842e-004  -3.4996434291e-004   1.8193794737e-004
  2.4163750000e+008   5.7198262015e-005  -3.6890700389e-004   9.8999301080e-001  -8.6195355110e-003   1.0003551049e+000  -1.0828744653e-003  -2.1734769976e-004   4.5606185625e-004
  2.5022500000e+008  -2.6042868247e-004  -6.9581763357e-004   9.8985678594e-001  -7.3356759325e-003   1.0005233506e+000  -8.2371269020e-004  -8.6997451652e-004   6.2278570052e-004
  2.5881250000e+008  -3.1665563637e-004  -6.5047065974e-004   9.8828605254e-001  -6.9668371720e-003   1.0006106812e+000  -1.3346794820e-003  -5.8704824770e-004   8.8452511953e-004
  2.6740000000e+008  -8.2874832727e-004  -6.1303560846e-004   9.9084704888e-001  -8.7443533073e-003   1.0007734880e+000  -1.3234779241e-003  -5.7119565573e-004   9.3236682676e-005
  2.7598750000e+008  -1.9082414300e-004  -3.3765448637e-004   9.9020263579e-001  -9.1159948007e-003   1.0007389732e+000  -1.2241419521e-003  -2.1982624686e-004   3.6613288599e-004
  2.8457500000e+008  -6.6653879213e-004  -4.5831402198e-005   9.9066821023e-001  -7.1305836493e-003   1.0010442137e+000  -6.3469491338e-004  -2.7151659786e-004   3.2638405798e-004
  2.9316250000e+008  -4.6304595098e-004  -4.2717010593e-004   9.8922963679e-001  -6.8452114675e-003   1.0006532643e+000  -1.1677418391e-003  -3.1652612821e-004   1.8589864130e-004
  3.0175000000e+008  -1.0509345889e-003   5.8596060444e-004   9.8962431305e-001  -9.8424755014e-003   1.0006597160e+000  -1.3328651735e-003  -3.8171655093e-004   4.1065856322e-004
  3.1033750000e+008  -9.0240974023e-004   2.3817904699e-005   9.9174200826e-001  -7.2961365609e-003   1.0012374069e+000  -1.5813623759e-003  -7.0661419150e-004   4.9329393989e-004
  3.1892500000e+008  -1.0892919834e-003   1.7708572108e-004   9.9023474842e-001  -7.2440405305e-003   1.0001373759e+000  -4.8470318490e-004  -8.4949716796e-004   1.1344602162e-004
  3.2751250000e+008  -6.8883134112e-004   9.2977571945e-005   9.9169180899e-001  -7.8129407825e-003   1.0005786225e+000  -1.7939477585e-003  -6.3107121469e-004  -3.8042574910e-006
  3.3610000000e+008  -8.5093048702e-004  -1.7983856097e-005   9.9211830786e-001  -6.8341243583e-003   1.0013705813e+000  -1.0731765145e-003  -6.2723873342e-004   3.2649573404e-004
  3.4468750000e+008  -5.1363070370e-004   3.2389282245e-004   9.9177275654e-001  -6.7576487237e-003   1.0006728112e+000  -1.2450656184e-003  -8.9347696817e-004   1.9324076532e-004
  3.5327500000e+008  -5.2572886323e-004   2.9412172861e-004   9.9180756833e-001  -8.1167252179e-003   9.9949063192e-001  -1.9945307384e-003  -6.6502942545e-004   1.1700250229e-004
  3.6186250000e+008  -4.6806158312e-004   2.2992150010e-004   9.9193624147e-001  -7.1796833837e-003   1.0007236375e+000  -1.1102021487e-003  -5.0133673345e-004   3.0616914886e-004
  3.7045000000e+008  -6.6139112198e-004   3.9544015859e-004   9.9227672902e-001  -7.5244500149e-003   1.0008990853e+000  -1.7372797747e-003  -5.6102406876e-004   2.9792597925e-004
  3.7903750000e+008  -2.7567204283e-004   6.2435316915e-004   9.9138122131e-001  -7.9108455987e-003   1.0007538664e+000  -1.3230964042e-003  -5.1058122735e-004   3.8816396823e-006
  3.8762500000e+008  -2.1184682834e-004   8.4712582153e-004   9.9327945998e-001  -7.6348910783e-003   1.0001289602e+000  -1.4227282859e-003  -1.5335861272e-004   4.9398545370e-004
  3.9621250000e+008   3.4409076721e-005   1.0570812121e-004   9.9174173807e-001  -7.2972110639e-003   1.0006983917e+000  -1.3924059549e-003  -4.7079716411e-004   4.6587731781e-004
  4.0480000000e+008   2.2649066361e-004   3.7851897727e-004   9.9239258125e-001  -8.0190876781e-003   1.0003689636e+000  -1.5064611423e-003  -7.7151726705e-005   2.9278894279e-004
  4.1338750000e+008   1.0271905878e-004   3.3046146236e-004   9.9386368301e-001  -6.2901237196e-003   1.0009224734e+000  -1.3893656416e-003   1.9592658892e-004   5.0779954532e-004
  4.2197500000e+008   7.5071800805e-005  -2.2199239165e-004   9.9670517711e-001  -5.6077911832e-003   1.0006550174e+000  -1.6681057479e-003   2.4474882447e-004   6.9018334338e-004
  4.3056250000e+008   2.3897977894e-005   3.0001639752e-005   9.9666358797e-001  -6.3437098186e-003   1.0005216870e+000  -1.6023409775e-003   4.1158764590e-004   3.9970507179e-004
  4.3915000000e+008  -3.8162020207e-005  -1.7323815714e-004   9.9868005808e-001  -5.6082477150e-003   1.0005251700e+000  -1.9033172652e-003   7.3100640401e-004   3.1683186808e-004
  4.4773750000e+008   4.6382517246e-004  -3.3692958381e-004   9.9700129652e-001  -5.8501157794e-003   1.0002406985e+000  -2.2509028662e-003   6.5165619645e-004   9.7201265049e-005
  4.5632500000e+008  -3.4730468469e-004  -3.8036028047e-004   9.9362523350e-001  -6.6756961876e-003   1.0006134089e+000  -1.8593496111e-003   5.2093407612e-004   1.2217086183e-004
  4.6491250000e+008  -2.8792104877e-004  -1.1045668928e-004   9.9362431626e-001  -6.9440873385e-003   1.0002096024e+000  -1.9949021371e-003   6.9737115767e-004   2.6983613398e-005
  4.7350000000e+008  -5.0031452915e-004  -2.3292498962e-004   9.9443171091e-001  -6.8511434634e-003   1.0005673712e+000  -1.8118810832e-003   5.2650169902e-004  -8.6472120942e-005
  4.8208750000e+008  -3.1464274436e-004  -5.0722610629e-005   9.9326765044e-001  -7.0269805969e-003   9.9979554950e-001  -1.5046077062e-003   6.3489846121e-004   1.3027502699e-004
  4.9067500000e+008   1.8456715330e-005  -3.0149266360e-004   9.9362845052e-001  -7.0944741133e-003   1.0000399920e+000  -1.8585792301e-003   3.0953598568e-004   2.8642983413e-005
  4.9926250000e+008  -2.4793351308e-004  -4.5571715379e-004   9.9352837320e-001  -6.0846790449e-003   1.0000006349e+000  -1.5970127132e-003   7.4558589661e-004  -8.5359129184e-006
  5.0785000000e+008  -5.1718055582e-004  -3.1199925221e-004   9.9302096754e-001  -5.6448380412e-003   1.0000875577e+000  -1.2619624748e-003   6.0999427113e-004   3.2671990960e-004
  5.1643750000e+008  -5.0327215394e-004   1.5426248843e-004   9.9224645444e-001  -6.3294945683e-003   1.0002532731e+000  -1.2289246927e-003   6.8339581402e-004  -1.4217994310e-004
  5.2502500000e+008  -3.1747859569e-004   5.7339052168e-004   9.9427194751e-001  -5.9603718743e-003   1.0009190193e+000  -9.4740808466e-004   1.7122322224e-004  -3.7689519484e-004
  5.3361250000e+008   4.2264632777e-004   2.6207730424e-004   9.9519475608e-001  -7.0593324114e-003   1.0004983204e+000  -1.8374421299e-003  -9.4160275185e-005  -6.8111561798e-004
  5.4220000000e+008   7.3196759910e-004  -8.4430111601e-005   9.9603427861e-001  -6.1932816408e-003   1.0009643795e+000  -1.6473881182e-003  -8.0015024858e-004  -3.7820746599e-004
  5.5078750000e+008   6.4793607091e-004  -6.3395300727e-004   9.9425260598e-001  -8.5950461592e-003   1.0004024582e+000  -1.6146341289e-003  -8.9591545447e-004  -2.8565471645e-004
  5.5937500000e+008   5.4477209796e-004  -7.7355251740e-004   9.9352755336e-001  -6.1913492248e-003   1.0006618781e+000  -1.8760160292e-003  -1.0741255147e-003   3.0676039271e-005
  5.6796250000e+008   2.5461561155e-004  -7.9745743831e-004   9.9437511541e-001  -7.3033321881e-003   1.0004371039e+000  -1.9428671748e-003  -1.0435444951e-003   4.5517430149e-004
  5.7655000000e+008  -2.3167389883e-004  -1.0589322633e-003   9.9381435733e-001  -9.9859611624e-003   1.0003969009e+000  -2.4251113080e-003  -8.9129784320e-004   7.7639116442e-004
  5.8513750000e+008  -5.6944799398e-004  -9.0100552592e-004   9.9408860329e-001  -8.7825485441e-003   1.0003816681e+000  -1.9657039401e-003  -8.0842685921e-004   8.1729687490e-004
  5.9372500000e+008  -6.0631293164e-004  -9.0564597658e-004   9.9176085002e-001  -8.3184972894e-003   1.0003154236e+000  -2.7788908920e-003  -6.5723502719e-004   1.0826447242e-003
  6.0231250000e+008  -9.1469979806e-004  -5.0830439511e-004   9.9402510062e-001  -6.7963253375e-003   1.0003834293e+000  -2.0281617783e-003  -3.3173516551e-004   1.0918398399e-003
  6.1090000000e+008  -9.3640226619e-004  -4.7718166610e-004   9.9291194813e-001  -7.7566059220e-003   9.9991735494e-001  -1.8164077245e-003  -2.6019162410e-004   9.8777693834e-004
  6.1948750000e+008  -8.6785272327e-004  -3.7577428469e-005   9.9387066563e-001  -7.6378408441e-003   9.9972683679e-001  -1.9278989771e-003  -2.6034806286e-004   7.1326924064e-004
  6.2807500000e+008  -8.2010167309e-004   1.1523577198e-004   9.9140297343e-001  -9.3192304216e-003   9.9951526678e-001  -1.5678332673e-003   2.1730525789e-005   3.9026658151e-004
  6.3666250000e+008  -4.7387209620e-004   5.0733561913e-004   9.9595823858e-001  -6.3753903280e-003   1.0004772131e+000  -2.6766280462e-003   1.3869374196e-004   2.5439914649e-004
  6.4525000000e+008  -4.6948994016e-005   3.2586227278e-004   9.9387824726e-001  -6.2869024362e-003   9.9986571872e-001  -1.9595246740e-003   3.9629399808e-004  -8.9368922894e-005
  6.5383750000e+008   1.5597079647e-004   3.4240279595e-004   9.9392234863e-001  -7.5290338039e-003   1.0000035541e+000  -1.7645332427e-003   3.6250357583e-004  -2.4939334305e-004
  6.6242500000e+008   2.7395134166e-004   5.5086844109e-005   9.9086561694e-001  -6.6345324187e-003   1.0005108793e+000  -3.4153131100e-003   3.9827006646e-004  -4.5991052021e-004
  6.7101250000e+008   3.4924818515e-004  -2.4919045230e-004   9.9485177622e-001  -7.1868271625e-003   1.0000465521e+000  -1.5961485670e-003   2.1536182952e-004  -6.3943396353e-004
  6.7960000000e+008   6.2095862032e-004  -5.1209555944e-004   9.9306217359e-001  -6.9725907579e-003   1.0003956576e+000  -2.1001427887e-003   1.5915691992e-004  -1.1808781258e-003
  6.8818750000e+008   2.5517718727e-004  -9.1017005225e-004   9.9310649347e-001  -7.3722127237e-003   1.0005689294e+000  -2.3482586028e-003   1.3499648596e-005  -1.3466272764e-003
  6.9677500000e+008   2.4641598922e-004  -1.0592027296e-003   9.9205505720e-001  -7.4552336745e-003   1.0002495385e+000  -2.7224532680e-003  -2.1898724469e-004  -1.2463174438e-003
  7.0536250000e+008  -3.0818300243e-004  -1.0968903398e-003   9.9239261454e-001  -8.0621028868e-003   1.0003006683e+000  -2.8217782820e-003  -3.8017934841e-004  -1.3397238989e-003
  7.1395000000e+008  -5.8326908888e-004  -1.0667334825e-003   9.9277376569e-001  -8.4141717210e-003   1.0000228396e+000  -2.2519458376e-003  -6.2213568708e-004  -1.3335828791e-003
  7.2253750000e+008  -1.1781604508e-003  -8.8694549488e-004   9.8983301349e-001  -8.3621028759e-003   9.9983436264e-001  -2.5092325065e-003  -8.4637673173e-004  -1.1974299941e-003
  7.3112500000e+008  -1.0809915349e-003  -3.5016902909e-004   9.9314989452e-001  -7.1203804732e-003   1.0001546224e+000  -2.9517941667e-003  -9.8318728019e-004  -1.0457913971e-003
  7.3971250000e+008  -1.0624392875e-003   8.6657133754e-005   9.9331851925e-001  -8.4705526340e-003   9.9895770163e-001  -2.6289934807e-003  -1.1439897538e-003  -7.2240404078e-004
  7.4830000000e+008  -1.0330785733e-003   4.2847020861e-004   9.9421641689e-001  -6.5316693240e-003   9.9925997287e-001  -2.0502287903e-003  -1.1313724332e-003  -6.0411457033e-004
  7.5688750000e+008  -7.9569678402e-004   7.0295180106e-004   9.9205320129e-001  -7.6743127035e-003   9.9957124215e-001  -2.4422162435e-003  -1.1156536176e-003  -2.5265088255e-004
  7.6547500000e+008  -2.6358337634e-004   8.3362962456e-004   9.9264440276e-001  -8.0093647116e-003   9.9923254396e-001  -2.6770230728e-003  -1.1454650656e-003  -8.9404994647e-005
  7.7406250000e+008   8.5804006429e-005   7.8580245245e-004   9.9255315563e-001  -7.4742422672e-003   9.9936480472e-001  -2.3598981906e-003  -8.5488036705e-004   3.0237862418e-004
  7.8265000000e+008   3.0273309247e-004   4.1559303446e-004   9.9307374135e-001  -7.5178548351e-003   9.9959731303e-001  -2.1638945510e-003  -7.8832386548e-004   5.6990043941e-004
  7.9123750000e+008   5.8979337676e-004   4.0946216919e-004   9.9358649147e-001  -7.2787948614e-003   9.9924977359e-001  -2.3474862314e-003  -5.2462676398e-004   5.4146599332e-004
  7.9982500000e+008   6.3172228407e-004   1.4270532856e-004   9.9239109568e-001  -6.6207593840e-003   1.0000895428e+000  -1.6318181399e-003  -4.0569526569e-004   9.5130774005e-004
  8.0841250000e+008   8.4230031598e-004   3.3243009187e-005   9.9284510997e-001  -7.7806621076e-003   9.9936760838e-001  -2.1358048715e-003  -2.3948941755e-004   9.9676471792e-004
  8.1700000000e+008   1.0411577685e-003  -1.7305577308e-004   9.9396604969e-001  -7.2913454574e-003   1.0003080340e+000  -2.6201753274e-003  -3.8716699847e-004   9.4786786579e-004
  8.2558750000e+008   1.0495786488e-003  -4.8655848472e-004   9.9401261132e-001  -6.9687437871e-003   1.0007599541e+000  -2.9290681176e-003  -3.8151515826e-004   9.6071133529e-004
  8.3417500000e+008   1.0609912076e-003  -1.0381553858e-003   9.9444121142e-001  -7.7367697554e-003   1.0010802768e+000  -2.6083180363e-003  -2.0288734190e-004   1.2875312623e-003
  8.4276250000e+008   7.8361370457e-004  -1.3479732712e-003   9.9463780313e-001  -7.0455744184e-003   1.0002701178e+000  -3.3612262614e-003  -2.1734706941e-006   1.2859012801e-003
  8.5135000000e+008   1.4530598894e-004  -1.2424400207e-003   9.9462594915e-001  -6.4000551409e-003   1.0008529541e+000  -2.6685754458e-003   2.3711543595e-004   1.4167480157e-003
  8.5993750000e+008  -7.4387371936e-005  -1.3106683026e-003   9.9308603991e-001  -7.2288154706e-003   9.9959218640e-001  -3.3779086198e-003   3.4462588168e-004   1.0963266157e-003
  8.6852500000e+008  -5.3981324349e-004  -1.0231505803e-003   9.9327677630e-001  -8.3502371469e-003   9.9944533001e-001  -3.6821198682e-003   7.4764141037e-004   7.6620582787e-004
  8.7711250000e+008  -5.8529488214e-004  -7.6406409423e-004   9.9488627720e-001  -8.3040250508e-003   1.0002951761e+000  -2.8496186959e-003   5.3307522323e-004   4.6474883811e-004
  8.8570000000e+008  -5.5566834937e-004  -4.8759305974e-004   9.9471135447e-001  -6.2166205057e-003   9.9940243816e-001  -3.5055902773e-003   3.4083571021e-004   1.3775522297e-004
  8.9428750000e+008  -2.8705332528e-004  -2.5982353146e-004   9.9498482666e-001  -8.2626953247e-003   1.0000612093e+000  -2.8195788754e-003   2.1879245863e-004  -1.7690572974e-004
  9.0287500000e+008   2.8513135290e-005  -1.5181459302e-004   9.9659832977e-001  -8.0424327184e-003   9.9954469379e-001  -2.9121208570e-003   2.7329958591e-005  -4.1515356289e-004
  9.1146250000e+008   2.3577129908e-004  -2.7750520341e-004   9.9394367374e-001  -7.8527651283e-003   9.9929263474e-001  -3.6657537630e-003  -4.6759624979e-004  -4.6846153285e-004
  9.2005000000e+008   1.9039114593e-004  -1.9575928870e-004   9.9191451008e-001  -7.9378446174e-003   9.9838976788e-001  -2.4370383658e-003  -7.7965954651e-004  -5.1343699705e-004
  9.2863750000e+008   3.8179081545e-004  -4.5749083358e-004   9.9169385095e-001  -7.9614482582e-003   9.9897280071e-001  -3.3274388903e-003  -1.0138303049e-003  -5.6199018167e-004
  9.3722500000e+008   4.3551325879e-004  -9.6322868667e-004   9.9094080842e-001  -7.6721406978e-003   9.9875646637e-001  -3.2725444174e-003  -1.2538590433e-003  -5.8164988635e-004
  9.4581250000e+008   3.2438698465e-004  -1.1041669262e-003   9.8866905122e-001  -8.4523129676e-003   9.9981437482e-001  -3.6314971150e-003  -1.2952296551e-003  -1.7614394452e-004
  9.5440000000e+008   7.3510284632e-005  -1.3050207556e-003   9.8683265177e-001  -1.0025230792e-002   1.0002411073e+000  -2.5987118629e-003  -1.5218737950e-003  -2.1487100975e-004
  9.6298750000e+008  -3.8468795103e-004  -1.3238320073e-003   9.8960907966e-001  -6.9191427743e-003   9.9974301600e-001  -3.0973652440e-003  -1.3872855053e-003  -8.3360247074e-005
  9.7157500000e+008  -5.0857379297e-004  -1.3570886741e-003   9.9041250161e-001  -9.6605363088e-003   1.0005738334e+000  -3.3612786651e-003  -1.3235945548e-003   2.7184265900e-007
  9.8016250000e+008  -8.4248527047e-004  -1.0142858219e-003   9.8928224517e-001  -8.2911677750e-003   9.9994195981e-001  -3.9055913801e-003  -1.3504984337e-003   1.5062485713e-004
  9.8875000000e+008  -1.1943103743e-003  -7.2961909157e-004   9.9275922060e-001  -8.0790336207e-003   9.9945324159e-001  -2.6480245042e-003  -1.2737352392e-003   1.7339152299e-004
  9.9733750000e+008  -1.1929924193e-003  -3.8906392571e-004   9.9145289298e-001  -8.4634794064e-003   1.0000788631e+000  -2.5678279064e-003  -1.1383749056e-003   1.7454121253e-004
  1.0059250000e+009  -9.6405151316e-004   2.7752531778e-005   9.9638640511e-001  -7.3846687966e-003   1.0001595101e+000  -2.6674131513e-003  -7.1295633770e-004   2.1566935813e-004
  1.0145125000e+009  -9.3934794446e-004   2.4970212228e-004   9.9493769359e-001  -9.7191933230e-003   9.9953084956e-001  -3.6643705435e-003  -4.1185912009e-004   2.2333629010e-004
  1.0231000000e+009  -5.6260765489e-004   3.9421901540e-004   9.9399682303e-001  -7.1976979363e-003   9.9977673057e-001  -4.2029059610e-003  -9.9086562359e-005   1.9054463523e-004
  1.0316875000e+009  -2.3069310945e-004   7.4688228736e-004   9.9336598201e-001  -8.1367528832e-003   9.9909242342e-001  -3.6524931549e-003   9.6984691229e-005   1.3077018580e-004
  1.0402750000e+009   2.1221038723e-004   7.2063882915e-004   9.9356380554e-001  -8.2699783085e-003   9.9996050269e-001  -2.8308694119e-003   4.0753473390e-004  -6.3205904978e-005
  1.0488625000e+009   3.6747006970e-004   5.0756930193e-004   9.9406611887e-001  -7.5106759541e-003   9.9946509979e-001  -3.0409543368e-003   6.8928137424e-004  -2.6231009127e-004
  1.0574500000e+009   5.6285935609e-004   2.5945036573e-004   9.9294663635e-001  -7.9701897669e-003   9.9967212215e-001  -3.5753263023e-003   8.5288190534e-004  -6.2532620778e-004
