# Hz S RI R 50.000000
! Metas.Vna.Tools, 2.8.8664.20301
! Metas.Vna.Data, 2.8.8664.20285
! Created: UTC 2024.02.11 10:08:13
! FREQ                re:S1,1             im:S1,1             re:S2,1             im:S2,1             re:S1,2             im:S1,2             re:S2,2             im:S2,2          
  1.3000000000e+008   4.6897231559e-004  -1.1214392279e-003   9.9808138802e-001  -5.6474786521e-003   1.0005039263e+000  -1.7214828429e-003   9.8330082557e-004   2.5429144772e-004
  1.3858750000e+008  -5.2159967778e-004  -1.0340727151e-003   9.9831060702e-001  -3.7385196967e-003   1.0002957759e+000  -6.3787305999e-004   9.9531688496e-004  -6.4491054068e-004
  1.4717500000e+008  -1.7514434880e-003  -1.5030922599e-003   9.9871991886e-001  -5.4332032827e-003   1.0000620083e+000  -1.4990371362e-003   6.6738747104e-004  -5.7981094171e-004
  1.5576250000e+008  -1.2906279697e-003   2.0529239452e-004   9.9885729792e-001  -5.0214182254e-003   1.0001775497e+000  -1.1358358410e-003   1.6328332553e-003  -9.7934236144e-004
  1.6435000000e+008  -1.2859450340e-003   1.4140137366e-004   9.9816093163e-001  -4.6336434912e-003   1.0003258024e+000  -1.8092513688e-003   3.1480568665e-004  -4.6976946867e-004
  1.7293750000e+008  -7.8876588628e-004   5.6949309504e-004   9.9870306788e-001  -4.1115524292e-003   1.0000567987e+000  -1.0577108887e-003   2.4892893986e-004  -9.5252608357e-004
  1.8152500000e+008  -3.7795907255e-004   2.3050056138e-004   9.9778254870e-001  -5.2982848930e-003   9.9970048019e-001  -1.2197115510e-003   6.8933716002e-004  -3.1735249710e-004
  1.9011250000e+008  -4.9913695834e-004  -6.6410675663e-005   9.9967369323e-001  -6.1350445260e-003   1.0008642499e+000  -1.1193953928e-003   3.0713742296e-004  -1.0214180921e-003
  1.9870000000e+008  -2.8377101887e-004   1.4240529976e-004   9.9911621616e-001  -5.6767877424e-003   1.0003703202e+000  -1.9841684476e-003   1.9044839347e-004   2.1727946273e-004
  2.0728750000e+008   2.5012117797e-005   2.4395686434e-004   9.9888044582e-001  -3.7529095546e-003   1.0009664951e+000  -1.8145668819e-003   6.0425706372e-005  -4.8817037558e-004
  2.1587500000e+008   4.8409585944e-004  -1.3723757285e-004   1.0005551929e+000  -5.4422768343e-003   1.0005018362e+000  -1.4829953521e-003  -4.9512591605e-004   2.9477270942e-004
  2.2446250000e+008   2.8319527289e-004  -5.3249813982e-004   9.9972167988e-001  -4.9512273110e-003   1.0001874177e+000  -1.4784710973e-003  -9.8214329280e-005   3.8756627275e-004
  2.3305000000e+008  -7.3141894986e-006  -7.3200594314e-005   9.9903888173e-001  -4.0170900958e-003   1.0007617908e+000  -1.3874790829e-003  -2.2149757234e-004   2.0837335064e-004
  2.4163750000e+008  -2.0781787821e-004  -4.4954466830e-004   9.9940352396e-001  -6.2863878759e-003   1.0000956135e+000  -2.2911129382e-003  -7.3660790524e-004   1.7079498726e-004
  2.5022500000e+008  -4.1271013499e-004  -4.0049216663e-004   9.9770348722e-001  -5.3260244459e-003   9.9991099694e-001  -1.9170859240e-003  -8.2998488061e-004   5.0966455818e-004
  2.5881250000e+008  -5.4645219092e-004  -5.7327324318e-004   9.9525132964e-001  -4.7037819424e-003   1.0004165788e+000  -1.9413485494e-003  -4.8324115515e-004   7.9524096421e-004
  2.6740000000e+008  -7.4627728113e-004  -4.7605454767e-004   9.9855883698e-001  -5.8663652718e-003   1.0004766396e+000  -2.5676052212e-003  -2.5584967610e-004   2.9705001282e-004
  2.7598750000e+008  -3.0611598890e-004  -7.4445242091e-004   9.9821137419e-001  -6.3492342276e-003   1.0003544475e+000  -1.9171732743e-003  -3.7760479025e-004   5.6081785010e-004
  2.8457500000e+008  -8.3101651541e-004  -4.3414493222e-004   9.9819145711e-001  -5.2443075318e-003   1.0005056498e+000  -1.5644190645e-003  -1.4540297907e-004   4.8271208192e-004
  2.9316250000e+008  -3.5956595195e-004  -3.5699146502e-004   9.9933415334e-001  -4.7969297499e-003   1.0011022666e+000  -2.1689916212e-003  -3.9796970349e-004   3.1052945184e-004
  3.0175000000e+008  -7.8785186611e-004   5.2868351142e-004   9.9891881731e-001  -5.7267994367e-003   1.0009778881e+000  -2.1733298705e-003  -3.5310925460e-004   3.4569496417e-004
  3.1033750000e+008  -7.4160022603e-004   1.2755896420e-004   1.0002186814e+000  -3.1659543684e-003   1.0016046331e+000  -2.2081799649e-003  -6.7729179627e-004   5.0978093344e-004
  3.1892500000e+008  -7.9635709561e-004   1.7344616334e-005   9.9912899763e-001  -5.4141659538e-003   1.0007030389e+000  -1.5216818907e-003  -5.4055145752e-004   1.9740717041e-004
  3.2751250000e+008  -5.9658588904e-004   4.1962298234e-004   9.9883063619e-001  -5.7410309644e-003   1.0003777068e+000  -2.6379215603e-003  -6.9595646140e-004   3.6303810524e-004
  3.3610000000e+008  -9.3579540159e-004   1.8638326547e-004   9.9970973446e-001  -4.3905048495e-003   1.0007517137e+000  -2.0843399592e-003  -7.7279705392e-004   1.4576934354e-004
  3.4468750000e+008  -7.6177995641e-004   3.0276695772e-004   9.9894839991e-001  -5.1655182557e-003   1.0002310316e+000  -2.0797125679e-003  -4.7457730261e-004   2.2428876989e-004
  3.5327500000e+008  -4.0287111816e-004   3.2746276618e-004   9.9798631507e-001  -5.8777612239e-003   9.9931379650e-001  -3.4883153816e-003  -6.3321521248e-004   2.4799983159e-004
  3.6186250000e+008  -4.8362906506e-004   3.7111800071e-004   9.9795828629e-001  -6.7535169743e-003   1.0000091323e+000  -1.7059497063e-003  -6.2873110323e-004   3.8335850955e-004
  3.7045000000e+008  -7.0875893743e-004   4.9001951616e-004   9.9784645002e-001  -5.4325261661e-003   1.0004736035e+000  -2.6126982891e-003  -6.4967530506e-004  -1.0013252464e-004
  3.7903750000e+008  -3.5906747457e-004   6.6921255402e-004   9.9726760557e-001  -5.5679625910e-003   1.0001485585e+000  -2.6427974342e-003  -7.1580203040e-004   3.9446854886e-004
  3.8762500000e+008  -1.9376497370e-004   3.4085988735e-004   1.0011236642e+000  -5.0653098609e-003   1.0000732534e+000  -2.3909766485e-003  -3.6405192656e-004   4.8171707953e-004
  3.9621250000e+008  -1.1942700799e-004   2.0571749714e-004   1.0001857732e+000  -4.9482116068e-003   1.0006701963e+000  -2.1019081575e-003  -4.4624963453e-004   7.0998688331e-004
  4.0480000000e+008   3.6816132304e-006   2.8647123179e-004   1.0014003870e+000  -5.5801435014e-003   1.0002206067e+000  -2.6207960351e-003  -1.0166354228e-004   4.3887307489e-004
  4.1338750000e+008   3.2804569284e-004  -1.5243857387e-004   1.0002703680e+000  -4.8369065996e-003   1.0012377868e+000  -2.5965002328e-003   2.9773641532e-004   4.4801683921e-004
  4.2197500000e+008  -1.7863379000e-004  -1.4139943488e-004   1.0001207883e+000  -5.5680647786e-003   1.0005697025e+000  -2.4307385504e-003  -1.8489071680e-005   5.0713400264e-004
  4.3056250000e+008   2.5152446190e-004   3.1370267563e-004   1.0011007236e+000  -4.7168570548e-003   1.0003790781e+000  -2.3208916760e-003   3.0637479732e-004   3.3414657974e-004
  4.3915000000e+008  -3.9563560931e-005  -2.2346151009e-004   1.0022139484e+000  -4.1781192473e-003   1.0004204796e+000  -2.7369466673e-003   7.1108180587e-004   3.1929054098e-004
  4.4773750000e+008   5.1818395854e-005  -3.9730996848e-004   1.0023254132e+000  -4.7289305161e-003   1.0004276133e+000  -2.7530021494e-003   7.1984773466e-004  -6.1362619690e-005
  4.5632500000e+008  -9.4384729046e-005  -3.8394310720e-004   9.9965788415e-001  -4.3694575177e-003   1.0001385322e+000  -2.6611276525e-003   6.3987635072e-004   5.9917922725e-005
  4.6491250000e+008  -3.7248925008e-004  -1.3871484830e-004   9.9940661652e-001  -5.8396800636e-003   9.9969853262e-001  -2.9985094458e-003   6.2678906660e-004   7.1593192865e-005
  4.7350000000e+008  -3.0136695294e-004  -1.2376646509e-004   9.9867758955e-001  -6.0243341782e-003   1.0001463457e+000  -2.7847925261e-003   5.4980230970e-004  -1.7341054389e-004
  4.8208750000e+008  -1.2887070546e-004   6.3664168251e-005   9.9736984747e-001  -5.8979116962e-003   9.9996556564e-001  -2.2006454647e-003   6.7265019207e-004   2.9165973727e-005
  4.9067500000e+008   2.1789047213e-004  -4.5703720319e-004   9.9790510956e-001  -5.9153186761e-003   9.9989404295e-001  -2.9546089149e-003   3.7643329538e-004   4.2647219301e-005
  4.9926250000e+008   5.3170033548e-005  -3.4852810549e-004   9.9766951439e-001  -5.1640041585e-003   9.9952306189e-001  -2.6381831279e-003   6.6860328463e-004  -3.4187459587e-005
  5.0785000000e+008  -6.9848324686e-004  -2.1512159259e-004   9.9799536812e-001  -5.2388912321e-003   9.9969556429e-001  -1.7804990502e-003   5.8224597691e-004   3.9029011453e-004
  5.1643750000e+008  -6.1909307563e-004   6.3885856203e-005   9.9647715806e-001  -5.1238903057e-003   1.0001344371e+000  -2.1233136686e-003   7.8287144322e-004  -1.5267383241e-004
  5.2502500000e+008  -2.9034427641e-004   4.7736459178e-004   9.9765690399e-001  -4.4665442538e-003   1.0004234361e+000  -1.9202787130e-003   4.3516638053e-004  -5.0736363768e-004
  5.3361250000e+008   1.6820576558e-004   3.5644748036e-004   9.9808568116e-001  -5.3769545808e-003   1.0005881293e+000  -2.3802675414e-003  -2.8592491105e-005  -7.2895408517e-004
  5.4220000000e+008   8.1785135860e-004   1.8261979349e-004   9.9773164456e-001  -6.1184749151e-003   1.0008316699e+000  -2.6982711112e-003  -7.7298626049e-004  -4.1613603007e-004
  5.5078750000e+008   6.8019474490e-004  -6.1987948189e-004   9.9869321880e-001  -7.1306289834e-003   1.0004533539e+000  -3.7399116740e-003  -9.2309037009e-004  -3.0338478912e-004
  5.5937500000e+008   3.7515654831e-004  -7.6076030342e-004   9.9769755758e-001  -6.8286172041e-003   1.0005311537e+000  -2.9039018258e-003  -8.3397199719e-004   5.0362820799e-005
  5.6796250000e+008   3.2405668668e-004  -9.4621435227e-004   9.9970235974e-001  -5.7779741714e-003   9.9998928608e-001  -3.5073118940e-003  -1.0838707666e-003   5.5984976444e-004
  5.7655000000e+008  -2.2602515454e-004  -1.1802521996e-003   9.9911722845e-001  -7.3510281643e-003   1.0006510347e+000  -3.4119238293e-003  -9.5013392009e-004   8.0964153954e-004
  5.8513750000e+008  -4.4705420357e-004  -8.3576745668e-004   9.9747537440e-001  -6.1409997443e-003   9.9971967174e-001  -2.9394208297e-003  -8.9776044141e-004   9.7519570679e-004
  5.9372500000e+008  -4.9139288045e-004  -8.0732702060e-004   9.9514760179e-001  -7.4958176652e-003   1.0003281860e+000  -3.7362398336e-003  -6.1435495756e-004   1.2177698429e-003
  6.0231250000e+008  -9.7800603111e-004  -5.2996394265e-004   9.9509476840e-001  -7.0366009867e-003   1.0004005822e+000  -2.5877447191e-003  -3.4000950839e-004   9.7983870503e-004
  6.1090000000e+008  -8.2220028006e-004  -1.3861454888e-004   9.9588882455e-001  -9.0005143133e-003   1.0000805641e+000  -2.9630657149e-003  -3.5731894195e-004   9.7427524485e-004
  6.1948750000e+008  -8.7131614326e-004   4.8580154427e-005   9.9470870241e-001  -5.7367562460e-003   9.9980889416e-001  -2.9098183157e-003  -8.3877640132e-005   7.3555412829e-004
  6.2807500000e+008  -6.7126740693e-004  -4.7692385740e-006   9.9652639529e-001  -7.3588686867e-003   1.0003095144e+000  -2.5401000527e-003   1.4482823418e-004   6.4537597571e-004
  6.3666250000e+008  -3.6340295216e-004   4.4070959903e-004   9.9663905096e-001  -6.4877275699e-003   1.0008776239e+000  -3.4896109413e-003   1.8207044339e-004   3.9484804327e-004
  6.4525000000e+008  -1.8669431518e-004   4.5816887355e-004   9.9713872113e-001  -4.9916977759e-003   1.0004798123e+000  -3.0921469782e-003   4.9820504613e-004  -1.0208397162e-004
  6.5383750000e+008   1.5415669466e-004   1.3473597064e-004   9.9679424376e-001  -6.9294389533e-003   9.9943123814e-001  -2.6479668833e-003   3.7042365325e-004  -1.2792165339e-004
  6.6242500000e+008   3.4855398196e-004   2.0435646873e-005   9.9423025019e-001  -7.3660813809e-003   1.0001890538e+000  -3.3403318167e-003   3.5381724582e-004  -4.3698716437e-004
  6.7101250000e+008   3.2560448348e-004  -4.3129418327e-005   9.9783961781e-001  -4.1140020184e-003   1.0002154826e+000  -2.1858451755e-003   2.3854120768e-004  -6.4839435235e-004
  6.7960000000e+008   5.7923604988e-004  -5.7264700004e-004   9.9759380421e-001  -5.6165169331e-003   1.0003543040e+000  -3.3878001937e-003   1.3538856933e-004  -1.0806996995e-003
  6.8818750000e+008   1.4206198595e-004  -8.1717597183e-004   9.9760831440e-001  -5.5530221962e-003   1.0000542258e+000  -3.4676487929e-003  -1.8223179078e-005  -1.1440406416e-003
  6.9677500000e+008   6.4260064430e-005  -9.5585453990e-004   9.9747988903e-001  -5.8099237478e-003   9.9979812234e-001  -3.4308136638e-003  -2.0190629071e-004  -1.1611739106e-003
  7.0536250000e+008  -3.9882560142e-004  -9.3102679561e-004   9.9857650581e-001  -7.1224758063e-003   9.9996900928e-001  -2.9682367649e-003  -2.5240058941e-004  -1.2352505610e-003
  7.1395000000e+008  -7.4796690527e-004  -9.4484507375e-004   9.9741163394e-001  -5.4129669545e-003   1.0000936852e+000  -3.0186745340e-003  -4.7243285241e-004  -1.1823672631e-003
  7.2253750000e+008  -1.2316186044e-003  -6.1685114423e-004   9.9844921794e-001  -5.5856350367e-003   9.9990281880e-001  -3.6422214006e-003  -8.4247945019e-004  -1.2204547857e-003
  7.3112500000e+008  -1.0292922866e-003  -3.3138027830e-004   9.9732917775e-001  -6.0822197372e-003   9.9958333978e-001  -2.9610106547e-003  -1.0496680251e-003  -9.8576466599e-004
  7.3971250000e+008  -9.6317602394e-004  -3.5420130600e-006   9.9789755177e-001  -7.3681990583e-003   1.0000566917e+000  -3.5874764616e-003  -1.1933011027e-003  -5.9962035043e-004
  7.4830000000e+008  -8.1342614595e-004   5.7471621971e-004   9.9685173999e-001  -6.1057603962e-003   9.9970447002e-001  -3.2197414660e-003  -9.9160686909e-004  -3.8681500028e-004
  7.5688750000e+008  -6.1797309309e-004   7.4005099381e-004   9.9645848035e-001  -8.2372870467e-003   9.9934114150e-001  -3.9126827815e-003  -1.1342964906e-003  -8.2561891417e-005
  7.6547500000e+008  -8.2632315493e-005   7.2680951180e-004   9.9511657279e-001  -8.0916011214e-003   9.9910748897e-001  -3.2974049639e-003  -1.1526312542e-003   2.2759210454e-004
  7.7406250000e+008   1.8633210607e-004   7.1556314435e-004   9.9417630706e-001  -7.6270497885e-003   9.9983473530e-001  -3.1209783547e-003  -6.8908093115e-004   4.0817082614e-004
  7.8265000000e+008   4.1524675542e-004   3.9979743079e-004   9.9402842935e-001  -7.8237147365e-003   9.9934799521e-001  -2.8002871717e-003  -5.1443458388e-004   6.7044242150e-004
  7.9123750000e+008   6.0611694740e-004   2.8006163914e-004   9.9382461224e-001  -6.8125340353e-003   9.9952567357e-001  -2.6002050314e-003  -4.5595371918e-004   7.6859658320e-004
  7.9982500000e+008   4.7097074828e-004   2.4076502362e-005   9.9457925343e-001  -6.3390814515e-003   9.9977916567e-001  -1.8716843180e-003  -6.6771774682e-005   7.0784320547e-004
  8.0841250000e+008   6.8750110326e-004   1.9167178918e-004   9.9486145431e-001  -7.0376847286e-003   9.9956045304e-001  -2.6400810117e-003  -1.1463582855e-004   8.2290987901e-004
  8.1700000000e+008   8.5652694650e-004  -4.3646855907e-005   9.9606444072e-001  -6.0091877549e-003   9.9996754158e-001  -2.4992701989e-003  -2.0182317546e-004   7.9391488280e-004
  8.2558750000e+008   1.1171303703e-003  -3.7203744977e-004   9.9717961774e-001  -6.4982566184e-003   1.0005348187e+000  -2.7639789119e-003  -2.2883464723e-004   7.2825940040e-004
  8.3417500000e+008   1.0852758594e-003  -9.3362632024e-004   9.9595008648e-001  -6.9463520716e-003   1.0011421858e+000  -3.6444467019e-003  -1.7539675296e-004   9.3261701592e-004
  8.4276250000e+008   6.6907388922e-004  -1.2312122247e-003   9.9442363515e-001  -7.3190111417e-003   9.9964260424e-001  -3.5341563134e-003  -1.4393341379e-004   9.9684835210e-004
  8.5135000000e+008   2.9275991464e-004  -1.2051349568e-003   9.9554794737e-001  -7.4908711479e-003   1.0016001811e+000  -3.6053777177e-003   2.2774534855e-004   1.2474540948e-003
  8.5993750000e+008   2.3240921876e-005  -1.2658930290e-003   9.9608900540e-001  -5.8293902604e-003   9.9987373923e-001  -3.8150596557e-003   3.2293515483e-004   1.0447288563e-003
  8.6852500000e+008  -5.6431897559e-004  -9.7463092462e-004   9.9591211765e-001  -6.4203972099e-003   9.9915063235e-001  -3.4173004557e-003   5.0006533550e-004   8.6465308443e-004
  8.7711250000e+008  -6.3367947004e-004  -7.2056181130e-004   9.9787293751e-001  -7.1131234089e-003   1.0001435082e+000  -4.1710746184e-003   6.6254055823e-004   2.6281791717e-004
  8.8570000000e+008  -4.3236752140e-004  -4.7924943833e-004   9.9823364213e-001  -6.6488687521e-003   9.9993673946e-001  -4.6366692611e-003   6.2507153542e-004   3.4879955630e-005
  8.9428750000e+008  -3.0404692456e-004  -1.6490410102e-004   9.9762590200e-001  -7.5336723975e-003   9.9969689980e-001  -4.4778789801e-003   1.4711209156e-004  -2.3967739485e-004
  9.0287500000e+008  -1.0988359191e-004  -9.5573245699e-005   9.9807676213e-001  -7.8299644008e-003   9.9985907311e-001  -4.2414135113e-003   1.9531441130e-005  -3.5622672085e-004
  9.1146250000e+008   1.0776266053e-004  -1.6656549215e-004   9.9675932954e-001  -8.2222996845e-003   9.9900260027e-001  -4.0209476679e-003  -3.6447688912e-004  -4.8410463482e-004
  9.2005000000e+008   2.3386111030e-004  -2.8978851095e-004   9.9728610645e-001  -5.9353439401e-003   9.9986748584e-001  -3.3154737968e-003  -6.5025968483e-004  -7.6399985558e-004
  9.2863750000e+008   5.2283708086e-004  -5.4424635248e-004   9.9605467692e-001  -6.2612876044e-003   9.9997060951e-001  -3.9151501087e-003  -7.9667677986e-004  -5.3696323728e-004
  9.3722500000e+008   2.3701441063e-004  -7.5615171440e-004   9.9769197834e-001  -6.1138697092e-003   9.9811782974e-001  -3.9711655792e-003  -1.0563469230e-003  -6.6351135593e-004
  9.4581250000e+008   2.2536007196e-004  -1.0664093118e-003   9.9780828219e-001  -6.4007709809e-003   9.9937730675e-001  -3.4150488235e-003  -1.4211952990e-003  -5.0118152714e-004
  9.5440000000e+008   1.7830620972e-005  -1.1304302964e-003   9.9598205364e-001  -5.9604204829e-003   1.0007205413e+000  -3.1818537697e-003  -1.3313977233e-003  -2.8974778411e-004
  9.6298750000e+008  -3.2866905699e-004  -1.3021277239e-003   9.9873912816e-001  -5.9620981515e-003   1.0001660220e+000  -4.0139527797e-003  -1.5499574173e-003  -1.2137323430e-004
  9.7157500000e+008  -6.3966165181e-004  -1.1524340238e-003   9.9837213493e-001  -6.6238195343e-003   1.0005086192e+000  -3.8930664446e-003  -1.3959931484e-003  -5.7332480426e-005
  9.8016250000e+008  -9.0299261821e-004  -9.3791994464e-004   9.9934832855e-001  -6.2350724992e-003   9.9962214950e-001  -4.4406190033e-003  -1.3576714903e-003   1.4886437018e-004
  9.8875000000e+008  -1.1552237935e-003  -6.8893440597e-004   9.9888837735e-001  -6.0140088378e-003   9.9977286847e-001  -3.9175358345e-003  -1.2964297622e-003   3.8201977496e-004
  9.9733750000e+008  -1.1521935082e-003  -3.3179085445e-004   9.9924575481e-001  -6.7275343605e-003   9.9919964845e-001  -3.1407789214e-003  -1.0868727190e-003   3.0389153787e-004
  1.0059250000e+009  -1.0232902038e-003   7.4671702775e-006   1.0001923740e+000  -5.3875342473e-003   1.0007652719e+000  -3.6939953393e-003  -7.9708730211e-004   3.6289791340e-004
  1.0145125000e+009  -8.2002700186e-004   4.3477344337e-004   9.9874863401e-001  -8.8732813138e-003   9.9956998434e-001  -4.4639698161e-003  -3.1045781081e-004   4.1339872118e-004
  1.0231000000e+009  -6.4792149681e-004   4.7740263887e-004   9.9886331329e-001  -7.1219002659e-003   9.9976668408e-001  -4.5263874527e-003  -1.2966344642e-004   2.5437357596e-004
  1.0316875000e+009  -2.7088374552e-004   7.2252626292e-004   1.0007474091e+000  -7.3880650713e-003   9.9955347194e-001  -4.3484917365e-003   4.1864323674e-005   1.6388343468e-004
  1.0402750000e+009   8.7931473799e-005   6.8918309754e-004   9.9904916094e-001  -7.3999217558e-003   9.9908134910e-001  -3.3692101496e-003   4.6120438594e-004  -8.6491381255e-005
  1.0488625000e+009   4.1239228831e-004   6.1102794976e-004   9.9979008609e-001  -6.3428700183e-003   9.9937708375e-001  -4.3264442512e-003   7.7102186198e-004  -1.7166933957e-004
  1.0574500000e+009   5.2034518579e-004   2.2441432129e-004   1.0002295884e+000  -6.0015013629e-003   9.9964523050e-001  -4.0371872736e-003   9.0416788646e-004  -5.3966028300e-004
