# Hz S RI R 50.000000
! Metas.Vna.Tools, 2.8.8664.20301
! Metas.Vna.Data, 2.8.8664.20285
! Created: UTC 2024.02.11 10:08:09
! FREQ                re:S1,1             im:S1,1             re:S2,1             im:S2,1             re:S1,2             im:S1,2             re:S2,2             im:S2,2          
  1.3000000000e+008  -3.0703153757e-004  -9.4242881036e-004   9.9931226000e-001  -2.8556227271e-003   9.9978464238e-001  -1.9004047692e-003   1.3694475637e-003   6.3263243856e-004
  1.3858750000e+008  -4.7441495447e-004  -1.0653209915e-003   1.0006800567e+000  -2.2333618565e-003   1.0004141896e+000  -7.8488037430e-004   7.5415863916e-004  -4.6910690070e-004
  1.4717500000e+008  -1.3770084639e-003  -4.5397563105e-004   1.0001694127e+000  -3.5438944701e-003   9.9982262474e-001  -2.0266334490e-003  -3.3117569775e-005   1.9453442280e-004
  1.5576250000e+008  -1.3313659859e-003   2.4886117130e-004   1.0006182547e+000  -2.8474671752e-003   9.9989825342e-001  -1.6198120415e-003   1.0421019513e-003  -1.1423906110e-003
  1.6435000000e+008  -4.4854675251e-004   4.8827741761e-004   1.0011729188e+000  -1.6370595130e-003   1.0009016536e+000  -2.1853642775e-003   1.1053126332e-003  -4.6403840851e-004
  1.7293750000e+008  -5.0483361040e-004   6.4631276811e-004   1.0007186853e+000  -2.8782794811e-003   9.9997933351e-001  -2.0284478411e-003   3.7210233600e-004  -5.4459089980e-004
  1.8152500000e+008  -1.6896013806e-004   4.9794910154e-004   9.9901451972e-001  -4.1747535716e-003   9.9998752482e-001  -2.2950211645e-003   3.8788770790e-005  -8.8707692339e-004
  1.9011250000e+008  -1.7911105109e-004   2.5007032649e-004   1.0001495745e+000  -3.5874382388e-003   1.0007210749e+000  -2.4542090390e-003   2.2373009350e-004  -7.7760603012e-004
  1.9870000000e+008  -1.5248154254e-004   7.4092425218e-004   1.0000361275e+000  -3.3551751652e-003   9.9988849838e-001  -2.1211427696e-003   4.7021262808e-004  -1.7911509605e-004
  2.0728750000e+008   2.8784499035e-004   1.5732081366e-004   1.0003428153e+000  -2.4687377918e-003   1.0000625352e+000  -2.1841368769e-003   2.6647980374e-005  -3.1433813373e-004
  2.1587500000e+008   6.9385522303e-005  -3.8142359532e-004   1.0022397669e+000  -2.8564653634e-003   1.0002686259e+000  -1.4489776142e-003  -4.1222826096e-004   2.7657773240e-004
  2.2446250000e+008   3.1517179270e-004  -3.8234803320e-004   1.0010536629e+000  -3.0147757931e-003   1.0003104823e+000  -2.2708590516e-003  -2.4155312183e-004  -1.1022450174e-004
  2.3305000000e+008  -7.5379586386e-005  -1.0064188159e-004   1.0011903300e+000  -2.3602049037e-003   1.0002497445e+000  -1.7193001285e-003  -1.8610470957e-004   1.4721603663e-005
  2.4163750000e+008  -1.1779235854e-004  -4.0669282822e-004   1.0014026766e+000  -3.2724985124e-003   1.0001081787e+000  -2.8801751594e-003  -8.1557675867e-004   3.6077235556e-004
  2.5022500000e+008  -4.5253958200e-004  -7.2310862692e-004   1.0025298326e+000  -1.8672301049e-003   1.0005877229e+000  -2.4413386051e-003  -9.6913465691e-004   6.4243464678e-004
  2.5881250000e+008  -3.9164263800e-004  -4.8693807535e-004   1.0013249861e+000  -2.8565761129e-003   1.0004366848e+000  -3.4113075340e-003  -4.7594031405e-004   9.9359154313e-004
  2.6740000000e+008  -6.5535282479e-004  -3.9105741997e-004   1.0006919473e+000  -4.7105928561e-003   1.0003601999e+000  -3.6318118411e-003  -4.0469586876e-004   3.0895002595e-004
  2.7598750000e+008  -2.3031233772e-004   7.0743992621e-005   9.9991260459e-001  -3.4909129593e-003   1.0002025464e+000  -3.0174399363e-003  -2.4866338614e-004   5.6790216570e-004
  2.8457500000e+008  -8.4840030766e-004  -3.7123502918e-004   1.0014040098e+000  -3.6234637312e-003   1.0005041702e+000  -1.5656724322e-003  -2.6775096355e-004   5.4733142291e-004
  2.9316250000e+008  -5.3575713178e-004  -4.6285577274e-004   1.0013256833e+000  -3.5214000975e-003   1.0006094484e+000  -3.1118739944e-003  -1.2551222923e-004   3.1564578558e-004
  3.0175000000e+008  -8.2257751112e-004   2.5944588147e-004   1.0021337263e+000  -3.8444864917e-003   1.0002166870e+000  -2.7019534252e-003  -3.0565459878e-004   2.0016368249e-004
  3.1033750000e+008  -8.1988848805e-004   4.0638704561e-004   1.0017384065e+000  -3.2251902928e-003   1.0008791976e+000  -2.4963609329e-003  -4.2912333680e-004   3.8537881218e-004
  3.1892500000e+008  -7.4603637070e-004   7.5595594297e-005   1.0020238139e+000  -3.1887069734e-003   1.0004824944e+000  -2.1968851908e-003  -4.4529084669e-004   3.0035954122e-004
  3.2751250000e+008  -4.2243768587e-004   1.0486470538e-004   1.0020186874e+000  -3.5442164010e-003   1.0002313480e+000  -3.3134711705e-003  -5.9444344560e-004   1.6865209439e-004
  3.3610000000e+008  -5.2140173266e-004   4.7101492394e-005   1.0027008397e+000  -2.8057724784e-003   1.0010252717e+000  -3.1084867192e-003  -5.0982865766e-004   2.0604701721e-004
  3.4468750000e+008  -2.5145910849e-004   1.6061611632e-005   1.0024799150e+000  -4.2174158176e-003   1.0004031116e+000  -2.2562571330e-003  -4.2195843033e-004   3.8152724410e-005
  3.5327500000e+008  -6.0719111455e-004   2.8638760780e-004   1.0023861505e+000  -3.9666306594e-003   9.9925778985e-001  -3.6063211128e-003  -3.8564362716e-004   8.4564527337e-005
  3.6186250000e+008  -1.6819030562e-004   4.1656160503e-004   1.0019182990e+000  -3.7202931916e-003   1.0009282494e+000  -2.6354912808e-003  -5.1623431491e-004   1.7492452346e-004
  3.7045000000e+008  -3.0276079730e-004   4.5414475889e-004   1.0005905424e+000  -3.7029238917e-003   1.0002181057e+000  -3.1677117284e-003  -7.3645449023e-004   2.1809775671e-004
  3.7903750000e+008  -2.0820313654e-006   3.9885152937e-004   1.0013438824e+000  -2.2759364659e-003   1.0003864848e+000  -2.6633465871e-003  -4.2336721146e-004  -4.2610753245e-005
  3.8762500000e+008  -3.5329728098e-004   1.8902638857e-004   1.0037662382e+000  -2.6660066774e-003   9.9998032433e-001  -2.7975739570e-003  -4.1006443645e-004   4.9838785811e-004
  3.9621250000e+008  -3.1912381357e-004   1.6906810299e-004   1.0021003089e+000  -3.4034709971e-003   1.0001622738e+000  -3.1106405780e-003  -3.8079908678e-004   4.5698748394e-004
  4.0480000000e+008   1.3500351039e-004   1.7669903427e-004   1.0022251167e+000  -3.9964422879e-003   1.0001440578e+000  -2.8705940312e-003  -1.6794995976e-004   3.5416174626e-004
  4.1338750000e+008   7.1787015589e-005   1.2228478311e-005   1.0033127261e+000  -2.2549138664e-003   1.0002552367e+000  -3.1594950667e-003   3.0515140834e-004   3.1526572221e-004
  4.2197500000e+008  -1.6844500584e-004  -1.2742639309e-004   1.0017619751e+000  -2.7067651527e-003   1.0003747461e+000  -3.0821299867e-003   1.6468131072e-004   5.6782975891e-004
  4.3056250000e+008  -6.3071128398e-005   1.6690047531e-004   1.0036250897e+000  -3.4356958324e-003   1.0000748739e+000  -2.9267866926e-003   3.9915082304e-004   3.3110846713e-004
  4.3915000000e+008   5.7298316223e-005  -1.5491541451e-004   1.0049140840e+000  -1.7515133283e-003   1.0004649838e+000  -3.4151537729e-003   7.0193799662e-004   4.0199813463e-004
  4.4773750000e+008   3.4652220585e-005  -7.9040705961e-005   1.0038085469e+000  -2.5955684561e-003   1.0001464448e+000  -3.5997497254e-003   7.4564030068e-004   2.3171787798e-004
  4.5632500000e+008  -2.2392895467e-005  -1.6304531365e-004   1.0022790327e+000  -2.4276889328e-003   1.0000714237e+000  -3.1179190521e-003   7.1986126360e-004   1.4656180693e-004
  4.6491250000e+008  -1.6155226883e-004  -6.5391780196e-005   1.0026731191e+000  -2.9046462190e-003   9.9989345563e-001  -3.3863724030e-003   5.9477802685e-004   1.4200861668e-005
  4.7350000000e+008  -2.3989051607e-004  -2.3784497438e-004   1.0023012740e+000  -3.2512185314e-003   1.0002626859e+000  -3.1641495400e-003   5.2059368205e-004  -9.4474105823e-005
  4.8208750000e+008  -2.9582940975e-004  -8.0276595548e-005   1.0007394801e+000  -3.5273861332e-003   9.9962568997e-001  -2.9207072878e-003   8.7927291350e-004   1.3551632957e-004
  4.9067500000e+008   1.1037117003e-004  -3.8671123932e-004   1.0001625971e+000  -3.5292085843e-003   9.9980208477e-001  -3.0414559317e-003   5.1762876926e-004   3.5549064151e-005
  4.9926250000e+008  -7.2380282122e-005  -6.2315398549e-004   1.0004737961e+000  -3.7970808460e-003   9.9965220178e-001  -3.3522844019e-003   7.2706316846e-004  -8.9460568859e-005
  5.0785000000e+008  -5.3371622481e-004  -6.1900121012e-004   9.9957694982e-001  -3.3768431939e-003   9.9928244657e-001  -2.3712619093e-003   7.0983762318e-004   1.7375849428e-004
  5.1643750000e+008  -6.9893147281e-004  -7.9910571879e-005   1.0000858132e+000  -2.6750853103e-003   1.0001664704e+000  -2.6688185120e-003   8.8112513907e-004  -1.4316422965e-004
  5.2502500000e+008  -3.8723110056e-004   7.0701238188e-004   1.0008051789e+000  -3.1594633622e-003   1.0007730785e+000  -2.3625272875e-003   6.6099425576e-004  -3.6145594864e-004
  5.3361250000e+008   3.3326071449e-004   6.4836745248e-004   1.0029250137e+000  -3.4038152279e-003   1.0008177896e+000  -2.9351946704e-003  -1.0975021650e-005  -6.0761802251e-004
  5.4220000000e+008   6.9755085137e-004   1.9896322402e-004   1.0015336775e+000  -4.4579927403e-003   1.0007098527e+000  -3.2761371574e-003  -8.7968820448e-004  -4.8685970575e-004
  5.5078750000e+008   4.8832081212e-004  -4.0424802205e-004   9.9993708355e-001  -4.6870198284e-003   1.0002366830e+000  -4.1987199627e-003  -6.9064476263e-004  -3.5520466695e-004
  5.5937500000e+008   3.4869032652e-004  -4.5888189072e-004   9.9920118934e-001  -3.4463347403e-003   1.0005405702e+000  -3.6152698398e-003  -8.3539474374e-004   1.0498687841e-005
  5.6796250000e+008   1.5500694362e-004  -7.8300884721e-004   1.0014561163e+000  -4.9379614790e-003   1.0001668494e+000  -3.2789553257e-003  -9.8241593939e-004   4.6303575288e-004
  5.7655000000e+008  -4.3527050110e-004  -8.6771688743e-004   1.0001958513e+000  -6.2181562681e-003   9.9996650756e-001  -3.8006377748e-003  -7.7502454464e-004   7.6104469780e-004
  5.8513750000e+008  -3.5364660163e-004  -7.1321550692e-004   9.9939239176e-001  -4.5479504911e-003   9.9949666275e-001  -3.6043787080e-003  -6.9755811625e-004   7.6714108212e-004
  5.9372500000e+008  -4.9481767564e-004  -6.5393839525e-004   9.9975524893e-001  -3.5022583684e-003   9.9962879775e-001  -3.6632735232e-003  -4.8793095859e-004   1.0285459671e-003
  6.0231250000e+008  -8.7504390798e-004  -3.4523272713e-004   9.9847096397e-001  -4.2085525484e-003   9.9967692625e-001  -3.7774166778e-003  -1.5585009102e-004   8.6581821152e-004
  6.1090000000e+008  -7.9182550105e-004  -2.6211855028e-005   1.0002300779e+000  -5.9586637119e-003   9.9963641414e-001  -3.6669818269e-003  -3.2782466228e-004   9.0982033537e-004
  6.1948750000e+008  -7.0343670459e-004  -3.9810620999e-005   9.9826641518e-001  -3.5452096494e-003   9.9929929336e-001  -3.7388436465e-003  -1.4909600914e-004   6.5227622720e-004
  6.2807500000e+008  -5.0241141963e-004   6.5547751125e-006   9.9878795507e-001  -5.0885842290e-003   1.0003571556e+000  -3.2988288931e-003   1.4405738385e-004   4.9040737502e-004
  6.3666250000e+008  -2.5822190936e-004   4.3167561048e-004   1.0024716876e+000  -3.6034945254e-003   1.0002952039e+000  -4.1494058668e-003   1.0163591974e-004   3.6160904521e-004
  6.4525000000e+008  -1.9969355729e-005   3.8800345009e-004   1.0010086348e+000  -3.3085646741e-003   9.9971136017e-001  -4.0060614871e-003   4.5198742625e-004  -1.3216367932e-004
  6.5383750000e+008   8.0714407156e-006   1.8466514064e-004   1.0016967326e+000  -4.0515075092e-003   9.9992481325e-001  -2.4914189436e-003   3.1419279368e-004  -1.7327377652e-004
  6.6242500000e+008   2.2282890421e-004   4.5631360884e-005   1.0001668538e+000  -4.2877549060e-003   9.9999951182e-001  -4.2952288234e-003   4.1684680305e-004  -4.2258279626e-004
  6.7101250000e+008   2.3817594579e-004  -1.7904554516e-004   1.0022051103e+000  -3.8942823244e-003   9.9997957539e-001  -3.0264455618e-003   4.8193264385e-004  -5.5740608348e-004
  6.7960000000e+008   5.6416877867e-004  -5.1274121341e-004   1.0008073163e+000  -4.0709622555e-003   9.9992704071e-001  -3.8061268503e-003   2.8478400514e-004  -9.1621635143e-004
  6.8818750000e+008   1.1784089027e-004  -6.3602314954e-004   1.0017213184e+000  -3.9813350063e-003   9.9989464948e-001  -4.0462401848e-003   6.8565078413e-005  -9.0630616941e-004
  6.9677500000e+008   2.0770134194e-005  -7.8496959526e-004   1.0000379249e+000  -2.3043641293e-003   9.9989744412e-001  -3.9803268648e-003  -1.9313434611e-004  -1.0519706667e-003
  7.0536250000e+008  -2.5088317964e-004  -7.0341584818e-004   1.0003077042e+000  -3.7660288821e-003   1.0004159627e+000  -4.1043215826e-003  -1.9882239466e-004  -1.0315351309e-003
  7.1395000000e+008  -5.8355049699e-004  -6.3973133337e-004   1.0007928936e+000  -3.4956404202e-003   9.9985867164e-001  -3.5914794995e-003  -5.3919740872e-004  -1.1211849930e-003
  7.2253750000e+008  -8.7989018831e-004  -6.6157836020e-004   9.9829215987e-001  -3.4463211224e-003   1.0000538091e+000  -3.5396546249e-003  -7.0110915540e-004  -1.0324580054e-003
  7.3112500000e+008  -8.2438223339e-004  -1.4940856703e-004   1.0009350862e+000  -3.5547419829e-003   9.9962907431e-001  -4.0693371265e-003  -8.9893934998e-004  -7.8580758835e-004
  7.3971250000e+008  -6.2046385307e-004   6.8328963121e-005   1.0003832917e+000  -4.2003098916e-003   9.9996344947e-001  -4.4835118584e-003  -1.0282609323e-003  -5.8560290791e-004
  7.4830000000e+008  -6.5217156805e-004   4.8548270335e-004   1.0005768384e+000  -3.5340571111e-003   9.9977869160e-001  -3.8878215176e-003  -9.0252024936e-004  -5.3345121350e-004
  7.5688750000e+008  -6.5553548843e-004   6.0579314044e-004   9.9910944349e-001  -5.3217719626e-003   9.9897011405e-001  -4.2491672557e-003  -1.0403220734e-003  -1.1470809500e-004
  7.6547500000e+008  -7.3596391032e-006   5.3141630084e-004   9.9930847127e-001  -6.1920934948e-003   9.9917925476e-001  -4.4619141498e-003  -1.0720225314e-003   5.8969205684e-006
  7.7406250000e+008   2.3257369383e-004   5.9866895808e-004   9.9876805606e-001  -4.3458135425e-003   1.0003891901e+000  -4.0347946213e-003  -6.8732297560e-004   3.6646715687e-004
  7.8265000000e+008   2.2259550207e-004   3.4927774806e-004   9.9767952536e-001  -3.6907053074e-003   9.9936200060e-001  -3.6463569489e-003  -5.1775653039e-004   6.0536229548e-004
  7.9123750000e+008   4.1668577719e-004   1.4225701248e-004   9.9946964713e-001  -3.3412828727e-003   9.9949523417e-001  -3.6159288410e-003  -5.1512552351e-004   5.6354996052e-004
  7.9982500000e+008   2.7912553195e-004   2.1117976346e-004   1.0004849527e+000  -4.0529985910e-003   1.0001835930e+000  -3.0354926961e-003  -3.0119978213e-004   6.6078569625e-004
  8.0841250000e+008   6.4600440450e-004   2.8273344108e-004   9.9942019044e-001  -4.6464954933e-003   9.9893428230e-001  -4.0068237940e-003  -1.7380708696e-004   7.2716169996e-004
  8.1700000000e+008   7.9125523265e-004   8.9025617425e-005   9.9899157268e-001  -4.6146131997e-003   1.0000652618e+000  -3.7059389558e-003  -2.5712710198e-004   7.7918211869e-004
  8.2558750000e+008   1.1240969552e-003  -1.1678132924e-004   9.9974212156e-001  -3.8017339511e-003   1.0005693321e+000  -3.3844634824e-003  -5.4395097009e-004   8.1186777617e-004
  8.3417500000e+008   1.0989948257e-003  -6.6073113348e-004   1.0007317630e+000  -4.0777788114e-003   1.0010438022e+000  -3.9746398522e-003  -2.6467935770e-004   1.1686960072e-003
  8.4276250000e+008   8.2260982822e-004  -1.0793535797e-003   9.9827925675e-001  -5.4860338392e-003   9.9947439766e-001  -4.7914947500e-003  -4.1211629328e-005   1.0065012738e-003
  8.5135000000e+008   2.5305251991e-004  -1.1201407512e-003   1.0002095189e+000  -2.9132697857e-003   1.0016851096e+000  -4.1738496228e-003   1.3194865964e-004   1.3525701728e-003
  8.5993750000e+008   1.2146233526e-004  -1.2241410542e-003   1.0005254470e+000  -4.0302064740e-003   1.0004952254e+000  -4.3593378054e-003   3.1960971554e-004   1.2527235381e-003
  8.6852500000e+008  -4.0305674098e-004  -1.0638564777e-003   9.9928465669e-001  -5.3149355900e-003   9.9985467399e-001  -4.5139354277e-003   7.1882186276e-004   9.2642611451e-004
  8.7711250000e+008  -4.7577283051e-004  -7.3434839680e-004   9.9882063039e-001  -5.5331098473e-003   1.0000832512e+000  -5.0875640233e-003   6.8176785724e-004   4.2987229758e-004
  8.8570000000e+008  -5.1574888359e-004  -4.0386201589e-004   9.9872472006e-001  -4.4952711766e-003   9.9936899707e-001  -4.5069412596e-003   5.6861338203e-004   5.9312397223e-005
  8.9428750000e+008  -4.1515090458e-004  -1.3834322851e-004   9.9913730527e-001  -5.3131824023e-003   1.0001983477e+000  -5.2797349945e-003   4.0512829885e-004  -2.5924770176e-004
  9.0287500000e+008  -1.2480216413e-004  -6.9659175606e-005   1.0012719712e+000  -5.2845529458e-003   1.0001009419e+000  -5.1100845518e-003   3.9601009475e-004  -4.7454908160e-004
  9.1146250000e+008   9.4633128776e-005  -2.4343573821e-005   9.9936381280e-001  -5.1747484279e-003   9.9886212157e-001  -4.6900269980e-003  -1.5238849914e-004  -5.7199745447e-004
  9.2005000000e+008   1.2897755155e-004  -1.0980069974e-004   9.9846833736e-001  -4.9852297986e-003   9.9835788457e-001  -3.2559780465e-003  -4.5147895913e-004  -6.4571275005e-004
  9.2863750000e+008   3.0956016386e-004  -3.5375303126e-004   9.9882576639e-001  -3.2883092945e-003   9.9952260053e-001  -4.9794559667e-003  -6.3237138256e-004  -6.1772845350e-004
  9.3722500000e+008   3.0577086904e-004  -5.1267592868e-004   1.0004489943e+000  -4.3713497335e-003   9.9876575001e-001  -4.6204285571e-003  -9.1396210797e-004  -7.3999593261e-004
  9.4581250000e+008   1.3745090842e-004  -8.1220890499e-004   1.0005724112e+000  -4.0987680696e-003   9.9912861867e-001  -4.5340770193e-003  -1.0935538643e-003  -4.6646341624e-004
  9.5440000000e+008  -1.1875116158e-004  -9.5461174907e-004   9.9750613128e-001  -5.4632928458e-003   9.9976430943e-001  -3.8025950529e-003  -1.2900312818e-003  -3.1611697538e-004
  9.6298750000e+008  -2.3370296138e-004  -1.0309903303e-003   1.0005511217e+000  -3.8006498706e-003   9.9907962905e-001  -3.8701117161e-003  -1.2921047254e-003  -9.9801337293e-005
  9.7157500000e+008  -5.0644848467e-004  -9.9938504553e-004   9.9925260554e-001  -6.4224323405e-003   1.0000170842e+000  -4.0959177341e-003  -1.4590144588e-003  -4.6461578894e-005
  9.8016250000e+008  -8.5804219106e-004  -8.7870825698e-004   9.9963683890e-001  -5.3116997118e-003   9.9971446250e-001  -5.6496907664e-003  -1.3350508412e-003   5.8846292368e-005
  9.8875000000e+008  -9.4306708568e-004  -4.7325563407e-004   9.9886532997e-001  -2.9792800339e-003   9.9882914772e-001  -4.2734041845e-003  -1.1471734965e-003   3.2593523139e-004
  9.9733750000e+008  -9.6261602563e-004  -2.6974139083e-004   9.9916399078e-001  -5.6318156881e-003   9.9917907754e-001  -4.2116317385e-003  -1.0371630583e-003   2.8325628676e-004
  1.0059250000e+009  -8.7409441326e-004   9.9629008751e-005   1.0001807158e+000  -3.7393025480e-003   9.9997755138e-001  -4.8663494093e-003  -6.1240166287e-004   3.5722128984e-004
  1.0145125000e+009  -9.0852420651e-004   3.9936708965e-004   1.0000560339e+000  -7.3076713027e-003   9.9960135445e-001  -3.8690260058e-003  -4.2263009528e-004   4.8264015752e-004
  1.0231000000e+009  -6.4916883993e-004   5.0112161882e-004   1.0000018451e+000  -4.9503392827e-003   9.9975542286e-001  -5.2598108774e-003  -1.9185963214e-004   3.8886539526e-004
  1.0316875000e+009  -3.1109874599e-004   7.6840260779e-004   1.0003246668e+000  -5.6620881901e-003   9.9914223422e-001  -5.3076529909e-003   3.1856742567e-005   3.6831361502e-004
  1.0402750000e+009   8.2542927545e-005   7.6470238716e-004   9.9971463501e-001  -4.7504963781e-003   9.9951218904e-001  -4.0452169452e-003   5.2653789963e-004   9.4600865214e-005
  1.0488625000e+009   2.5178418898e-004   6.2767784864e-004   1.0011065269e+000  -5.5088711953e-003   9.9885667753e-001  -4.0957215309e-003   6.9082672283e-004   1.9223253842e-005
  1.0574500000e+009   5.1124153896e-004   4.5127525854e-004   9.9822017851e-001  -6.1085579019e-003   9.9962042365e-001  -4.5004303277e-003   7.6740553891e-004  -3.4644205815e-004
