# Hz S RI R 50.000000
! Metas.Vna.Tools, 2.8.8664.20301
! Metas.Vna.Data, 2.8.8664.20285
! Created: UTC 2024.02.11 10:08:09
! FREQ                re:S1,1             im:S1,1             re:S2,1             im:S2,1             re:S1,2             im:S1,2             re:S2,2             im:S2,2          
  1.3000000000e+008   4.4000957328e-004  -1.3102887307e-003   9.9980170951e-001  -3.0269389535e-003   1.0005683212e+000  -2.3050794358e-003   1.7019835172e-004   6.7316141281e-004
  1.3858750000e+008  -6.0501721321e-004  -8.4852432590e-004   1.0003775153e+000  -2.7701850192e-003   1.0000892647e+000  -1.2788715071e-003   9.6029834221e-004   1.7180465963e-004
  1.4717500000e+008  -1.4718184327e-003  -6.8086773598e-004   9.9980953288e-001  -3.4810809524e-003   1.0000126294e+000  -2.0326143072e-003   6.7736449079e-004  -4.7995669833e-004
  1.5576250000e+008  -1.2188203702e-003  -4.8716811259e-004   1.0007951368e+000  -3.7486941921e-003   1.0001255732e+000  -1.5392093977e-003   7.9050868101e-004  -1.0346372678e-003
  1.6435000000e+008  -7.2842019503e-004   6.0102574717e-004   9.9952096550e-001  -2.9466925841e-003   1.0002571674e+000  -1.8299713512e-003   3.9623873773e-004  -1.9698974101e-004
  1.7293750000e+008  -1.0003682277e-003   7.6222524304e-004   9.9996625494e-001  -3.3433362506e-003   1.0002552576e+000  -1.9476164962e-003   7.7874781261e-004  -6.0719559566e-004
  1.8152500000e+008  -1.9984930365e-004   4.8609751107e-004   9.9915916982e-001  -3.6794599012e-003   9.9961376390e-001  -2.2561273947e-003   6.2189023534e-004  -5.8039983705e-004
  1.9011250000e+008  -2.3375597738e-004   1.5216460897e-004   1.0011826715e+000  -4.5080557551e-003   1.0006579700e+000  -2.1291071230e-003   2.9573675874e-004  -9.9182235435e-004
  1.9870000000e+008  -6.5557108818e-005   7.5894712859e-004   1.0015395675e+000  -3.4944141003e-003   1.0001951285e+000  -2.0326568272e-003   5.2938793247e-004  -3.8830318607e-004
  2.0728750000e+008   2.6379913997e-004   3.6236733357e-004   1.0006013155e+000  -3.5260791811e-003   1.0003591674e+000  -2.2025329617e-003  -1.2575375881e-004  -1.1903232058e-004
  2.1587500000e+008   3.2434313490e-004  -6.6332502981e-004   1.0018105924e+000  -4.3768797870e-003   9.9944062784e-001  -2.1649146097e-003  -4.8240268880e-004   2.7651932286e-004
  2.2446250000e+008   4.9674020149e-006  -4.9309206501e-004   1.0007785854e+000  -3.8351997205e-003   9.9981288540e-001  -2.2148630009e-003  -9.4587115932e-005   5.8043107001e-005
  2.3305000000e+008   8.8477204033e-005   1.4496783094e-004   9.9961465470e-001  -3.6601667906e-003   9.9980166144e-001  -2.5426843850e-003  -7.8457166258e-005   1.0682818986e-004
  2.4163750000e+008  -1.8347515642e-004  -2.7510062678e-004   1.0012774110e+000  -3.6480668771e-003   9.9994888197e-001  -2.3224928791e-003  -4.4714345533e-004   4.4360398548e-004
  2.5022500000e+008  -3.3862735350e-004  -4.7986868654e-004   1.0010241228e+000  -3.1981244677e-003   1.0004153865e+000  -2.3405063761e-003  -1.0766271172e-003   7.3013340454e-004
  2.5881250000e+008  -3.7583005879e-004  -5.4261338777e-004   1.0004118267e+000  -3.3073697711e-003   1.0002069736e+000  -2.9174067870e-003  -1.0196820763e-003   1.0334979614e-003
  2.6740000000e+008  -9.0455208736e-004  -6.6187482596e-004   1.0015580306e+000  -4.0227194215e-003   1.0004042592e+000  -3.1475754688e-003  -3.5124771090e-004   5.9107133528e-004
  2.7598750000e+008  -6.0418113826e-004  -3.2595378404e-004   1.0001093771e+000  -5.3709123614e-003   1.0005197647e+000  -2.7855051120e-003  -4.4027930440e-004   7.8370450694e-004
  2.8457500000e+008  -8.3174597456e-004  -3.4801866497e-004   9.9982736875e-001  -3.3700518649e-003   9.9998190398e-001  -2.5896316612e-003  -3.8055799965e-004   5.2062771809e-004
  2.9316250000e+008  -4.1486648095e-004  -4.1451237159e-004   9.9986242051e-001  -2.2316791925e-003   1.0006078610e+000  -3.1083606468e-003  -1.4375824711e-004   5.1175638069e-004
  3.0175000000e+008  -8.6019974796e-004   2.2145196820e-004   9.9984762245e-001  -4.9536373073e-003   1.0001513673e+000  -1.9472818137e-003  -2.5782860313e-004   3.6332932448e-004
  3.1033750000e+008  -6.7029136642e-004   3.9903066312e-004   1.0022065170e+000  -3.4014747189e-003   1.0005693849e+000  -2.7585831262e-003  -3.0441736867e-004   3.9668012069e-004
  3.1892500000e+008  -6.2512827280e-004   1.8631731721e-004   9.9973392085e-001  -5.4166990357e-003   1.0006307358e+000  -2.0926964978e-003  -7.4441560742e-004   1.5142331337e-004
  3.2751250000e+008  -6.6003968004e-004   7.2374921142e-005   1.0007956361e+000  -5.4374611485e-003   1.0000811170e+000  -2.7138080459e-003  -5.7390851445e-004   2.3102769554e-004
  3.3610000000e+008  -6.4580433971e-004   1.3157421697e-004   1.0026853293e+000  -3.4622195014e-003   1.0009264461e+000  -2.5787238745e-003  -3.9506554564e-004   1.4530756537e-004
  3.4468750000e+008  -7.1229805899e-004   2.4447595076e-004   1.0003115302e+000  -2.7288167053e-003   1.0001528847e+000  -2.4497803617e-003  -7.3471571952e-004  -8.4099580020e-005
  3.5327500000e+008  -6.2854155237e-004   2.5185855621e-004   1.0010109533e+000  -5.7729903791e-003   9.9935502230e-001  -3.2706515470e-003  -6.9525526103e-004  -4.4746526323e-005
  3.6186250000e+008  -3.1551187463e-004   3.0815766945e-004   1.0014276086e+000  -3.8160260195e-003   1.0004973614e+000  -2.7005097522e-003  -7.2863562838e-004   4.0347398753e-004
  3.7045000000e+008  -5.1840048338e-004   4.5032394956e-004   1.0008874056e+000  -4.3441692350e-003   1.0006389795e+000  -3.3692460545e-003  -6.2763714775e-004   1.3112209342e-006
  3.7903750000e+008  -2.5135731346e-004   4.9091634008e-004   1.0010288090e+000  -3.1253109692e-003   1.0000527511e+000  -3.6853398179e-003  -3.7142760215e-004   1.6792921916e-004
  3.8762500000e+008  -3.2022241781e-004   2.9378645457e-004   1.0042088857e+000  -3.1817512709e-003   9.9975551511e-001  -2.9976393193e-003  -4.9906339448e-004   4.0305987456e-004
  3.9621250000e+008   5.6443614020e-005   1.6097998024e-004   1.0023026304e+000  -3.6087301841e-003   1.0003206585e+000  -2.8992261763e-003  -4.2956197510e-004   4.7510872880e-004
  4.0480000000e+008   2.6976917585e-004   8.8002203437e-005   1.0032802367e+000  -4.0985713424e-003   1.0001378882e+000  -3.0116550739e-003  -3.4293176333e-004   3.1965081830e-004
  4.1338750000e+008   2.3530093244e-004  -1.0951840009e-004   1.0033018683e+000  -3.4892745566e-003   1.0006062819e+000  -3.1920515968e-003  -8.5022267282e-005   3.4965452049e-004
  4.2197500000e+008  -8.2972335067e-005  -2.3725629583e-004   1.0033547824e+000  -3.5031044447e-003   1.0003649253e+000  -3.2800934499e-003   1.2583995776e-004   6.3043305187e-004
  4.3056250000e+008   2.8288855657e-004  -6.5902349123e-005   1.0026847016e+000  -4.5846599410e-003   1.0002177146e+000  -3.5302644659e-003   5.3233498439e-004   2.3620673581e-004
  4.3915000000e+008  -9.5782642958e-005  -8.0121407391e-005   1.0050181747e+000  -2.5433298613e-003   1.0002318637e+000  -3.7402306565e-003   6.5244516205e-004   3.9534161114e-006
  4.4773750000e+008   1.7549696748e-004  -1.5174691503e-004   1.0046748903e+000  -4.0144822910e-003   1.0000805841e+000  -3.6036565372e-003   4.1036084312e-004   1.5691548029e-004
  4.5632500000e+008  -7.6591368778e-005  -1.7705203805e-004   1.0023686770e+000  -3.6437655872e-003   1.0000051459e+000  -3.2351837191e-003   5.8666314674e-004   1.0435337310e-004
  4.6491250000e+008  -2.2767387522e-005  -1.8749737981e-004   1.0022558662e+000  -4.4216683613e-003   1.0000539397e+000  -3.2030084005e-003   5.4663556371e-004   2.2529037169e-005
  4.7350000000e+008  -2.1124143278e-004  -2.7456421172e-004   1.0010157656e+000  -4.2552133251e-003   9.9992965538e-001  -3.2115660170e-003   4.0568116435e-004  -6.1666391875e-005
  4.8208750000e+008  -1.8955744150e-004   6.3496868412e-005   9.9961117770e-001  -4.0941175611e-003   9.9952721231e-001  -2.9926837019e-003   7.0620070509e-004  -4.3295332875e-005
  4.9067500000e+008  -2.3445392537e-005  -4.6583604833e-004   9.9934893840e-001  -4.2879996454e-003   9.9961596732e-001  -3.3361150525e-003   3.0603333680e-004   8.5152678820e-005
  4.9926250000e+008  -1.9070300028e-004  -4.4408149603e-004   9.9956098423e-001  -3.7472081250e-003   9.9965252138e-001  -3.0614184362e-003   4.1151401662e-004   1.2427050790e-004
  5.0785000000e+008  -7.5026606067e-004  -3.0912867565e-004   9.9961134654e-001  -4.5109071624e-003   9.9958210268e-001  -2.7027919694e-003   4.6320842323e-004   4.5538689655e-004
  5.1643750000e+008  -7.8391154108e-004   1.8074367133e-004   9.9933783093e-001  -3.7061932053e-003   1.0001970336e+000  -2.7099295805e-003   8.2400354144e-004  -5.9448170475e-005
  5.2502500000e+008  -5.8115834571e-004   5.6122128759e-004   1.0008783370e+000  -3.9238482370e-003   1.0005132437e+000  -2.1124133727e-003   4.1177701042e-004  -6.4359060768e-004
  5.3361250000e+008   2.4234366613e-004   5.7818083951e-004   1.0019731615e+000  -4.5658538259e-003   1.0008125776e+000  -3.2917053800e-003   2.4287132548e-004  -7.0726510686e-004
  5.4220000000e+008   5.6993687037e-004   1.0699649725e-004   1.0010253042e+000  -4.9156187366e-003   1.0007348467e+000  -2.9524350378e-003  -8.5446846754e-004  -5.7063482729e-004
  5.5078750000e+008   7.4046454492e-004  -4.4904551255e-004   1.0004837169e+000  -6.1989640069e-003   1.0006010785e+000  -3.8015946304e-003  -9.1958445696e-004  -5.2850193261e-004
  5.5937500000e+008   4.8101828851e-004  -6.9208120421e-004   9.9893410127e-001  -3.9246972512e-003   1.0003250941e+000  -4.1168779758e-003  -9.0334652011e-004  -7.5495673370e-006
  5.6796250000e+008   2.8873537577e-004  -8.7141070266e-004   9.9928798606e-001  -5.3704310118e-003   1.0001754730e+000  -3.6667337919e-003  -9.4389888728e-004   3.7361141764e-004
  5.7655000000e+008  -1.3999051559e-004  -8.6183242268e-004   1.0003645890e+000  -6.9355060483e-003   1.0004204153e+000  -3.9411605331e-003  -7.4552759698e-004   7.3341367178e-004
  5.8513750000e+008  -6.6347339063e-004  -7.3711749066e-004   9.9938869202e-001  -4.9146166453e-003   9.9927695628e-001  -3.8356320192e-003  -7.3406099373e-004   9.6882564712e-004
  5.9372500000e+008  -5.6934490203e-004  -6.5388071240e-004   1.0002915200e+000  -4.3988401006e-003   9.9993448501e-001  -4.2118497943e-003  -5.9388577388e-004   9.5120704119e-004
  6.0231250000e+008  -9.9793658801e-004  -4.9209295334e-004   1.0002538164e+000  -3.6896273027e-003   1.0005289815e+000  -3.6288319311e-003  -4.0754050204e-004   1.1297345330e-003
  6.1090000000e+008  -8.7101484420e-004  -1.4133556596e-004   1.0006801968e+000  -6.0536891451e-003   1.0004855496e+000  -3.8921063430e-003  -2.9005104037e-004   1.0675933882e-003
  6.1948750000e+008  -6.1970378212e-004   1.2318372166e-004   1.0000619734e+000  -5.2875922419e-003   9.9991140955e-001  -3.4015831861e-003  -2.5736988840e-004   7.4587790887e-004
  6.2807500000e+008  -6.7085098767e-004   1.0045771761e-004   1.0006540957e+000  -5.8950141186e-003   1.0001108865e+000  -3.5028693676e-003   1.0769319626e-004   6.4743533986e-004
  6.3666250000e+008  -2.6732442737e-004   4.4574161727e-004   1.0011908218e+000  -4.8022204595e-003   1.0003696221e+000  -3.8641384474e-003   8.6939294317e-005   3.4104221597e-004
  6.4525000000e+008   2.0841541503e-005   2.9765949763e-004   1.0032103064e+000  -4.0372088307e-003   9.9991034342e-001  -3.4478559878e-003   5.1483183163e-004   1.6087309774e-005
  6.5383750000e+008   2.1707113619e-004   2.0656287227e-004   1.0014870171e+000  -4.7817642268e-003   1.0002262331e+000  -3.3523727488e-003   4.7413219206e-004  -1.7135189264e-005
  6.6242500000e+008   3.0474935079e-004   9.8416667363e-005   9.9952564156e-001  -3.9640372873e-003   1.0006118644e+000  -4.1796969924e-003   4.2245079638e-004  -3.7579220117e-004
  6.7101250000e+008   1.7484580983e-004  -1.9776013725e-004   1.0002610676e+000  -4.6469773106e-003   9.9985831562e-001  -2.9049321602e-003   3.0393724337e-004  -5.6897676975e-004
  6.7960000000e+008   3.7594338267e-004  -5.3875299368e-004   9.9907883041e-001  -5.0742264515e-003   1.0001926568e+000  -4.0240013711e-003   2.6699982702e-004  -9.3163141199e-004
  6.8818750000e+008   1.3541115038e-004  -7.8906856573e-004   9.9996902976e-001  -4.9094886231e-003   9.9958781019e-001  -3.8251097862e-003  -5.5297724973e-005  -1.0071602303e-003
  6.9677500000e+008   4.5991162653e-006  -1.0364312393e-003   1.0002472854e+000  -4.8585268681e-003   9.9983350014e-001  -3.8652068999e-003  -1.6919656828e-004  -1.0512572262e-003
  7.0536250000e+008  -2.2196866214e-004  -9.0551791582e-004   1.0006908297e+000  -5.4109091422e-003   9.9959099895e-001  -3.7702512387e-003  -3.8595248011e-004  -1.2006324700e-003
  7.1395000000e+008  -6.4570849455e-004  -7.9201371881e-004   1.0005285225e+000  -4.7071763399e-003   1.0001260279e+000  -3.7703398303e-003  -5.7821360106e-004  -1.1090604735e-003
  7.2253750000e+008  -1.0162981011e-003  -5.6645793028e-004   9.9962725801e-001  -5.6265309925e-003   1.0001048545e+000  -3.6143687973e-003  -7.5479606173e-004  -1.1411543500e-003
  7.3112500000e+008  -9.3331439860e-004  -1.3939158004e-004   9.9839024641e-001  -4.6654059876e-003   9.9949216082e-001  -3.8797998408e-003  -9.3552348193e-004  -8.8228604945e-004
  7.3971250000e+008  -9.5213871156e-004   1.6164003403e-004   1.0004243466e+000  -5.7215636981e-003   9.9975006329e-001  -4.7449166707e-003  -9.4194995821e-004  -6.6320661370e-004
  7.4830000000e+008  -7.3375164395e-004   6.4552693307e-004   1.0003610253e+000  -4.5971758322e-003   9.9932501775e-001  -4.4197236433e-003  -1.0834021393e-003  -6.7450418928e-004
  7.5688750000e+008  -6.3501974509e-004   6.9684045412e-004   9.9866326876e-001  -4.7668539767e-003   9.9912305842e-001  -4.2735655106e-003  -9.6432839797e-004  -1.8276015304e-004
  7.6547500000e+008  -4.8766425899e-005   8.2324415049e-004   9.9989604284e-001  -5.7217150514e-003   9.9923182510e-001  -4.8595503341e-003  -1.0652461733e-003   8.2350389189e-005
  7.7406250000e+008   3.3784980619e-004   6.8605504933e-004   9.9876871178e-001  -5.8027639461e-003   9.9945004086e-001  -3.4344340155e-003  -6.2831821385e-004   3.4590587357e-004
  7.8265000000e+008   3.2748710221e-004   2.6436337444e-004   9.9931331097e-001  -4.8722290267e-003   9.9915247822e-001  -3.8981984509e-003  -5.2276442399e-004   6.9767360325e-004
  7.9123750000e+008   3.6850829851e-004   1.4333936469e-004   1.0000689810e+000  -3.7073049997e-003   9.9902366398e-001  -2.7702480971e-003  -4.8600657873e-004   5.5897735038e-004
  7.9982500000e+008   3.4553256926e-004   2.0351205625e-004   1.0003685697e+000  -3.6737465880e-003   9.9995303430e-001  -2.7780415391e-003  -1.8667656068e-004   7.0449838845e-004
  8.0841250000e+008   6.8840939659e-004   3.1827974718e-004   9.9973401830e-001  -4.5831790188e-003   9.9994631345e-001  -3.4757118672e-003  -3.2686707409e-004   6.7939880091e-004
  8.1700000000e+008   8.0220854438e-004   1.7288742694e-004   1.0011935084e+000  -4.3649462677e-003   9.9956756800e-001  -3.0709929727e-003  -1.1519194486e-004   5.8550428235e-004
  8.2558750000e+008   1.0848405797e-003  -6.4490565370e-005   1.0010438914e+000  -3.9842077473e-003   1.0012169218e+000  -4.2278330681e-003  -3.8853814332e-004   7.9105781484e-004
  8.3417500000e+008   1.2113010138e-003  -7.7225958624e-004   1.0019417722e+000  -4.6875509231e-003   1.0009209654e+000  -3.9218273460e-003  -2.9128827348e-004   1.0553519504e-003
  8.4276250000e+008   6.9292677910e-004  -1.0500389053e-003   9.9994274333e-001  -5.2385068186e-003   9.9959332008e-001  -4.6522955975e-003  -6.5401744510e-005   1.1053355607e-003
  8.5135000000e+008   2.7689875007e-004  -1.2262631459e-003   1.0005851347e+000  -4.6250919023e-003   1.0006268587e+000  -3.4298054283e-003   1.6508001259e-004   1.3532079121e-003
  8.5993750000e+008  -9.8938422019e-005  -1.3151286937e-003   1.0006225067e+000  -5.4004680267e-003   1.0002184731e+000  -4.4613837620e-003   3.7525428138e-004   1.2211882906e-003
  8.6852500000e+008  -4.6475200421e-004  -9.9942556898e-004   9.9997181983e-001  -5.2318046876e-003   9.9950126002e-001  -4.5654590277e-003   8.0453462396e-004   9.6642423839e-004
  8.7711250000e+008  -4.9349210772e-004  -7.2215619521e-004   1.0014075150e+000  -5.1913771316e-003   9.9990079817e-001  -4.9756111416e-003   8.6505843975e-004   4.3709580484e-004
  8.8570000000e+008  -5.7244666434e-004  -4.4610584417e-004   1.0032853392e+000  -3.9769524767e-003   9.9924182408e-001  -4.2895235298e-003   6.7350111638e-004   2.7181692789e-004
  8.9428750000e+008  -4.9568641989e-004  -1.8088338330e-004   1.0004427055e+000  -5.3244024401e-003   9.9961221914e-001  -5.0470491936e-003   3.4729167828e-004  -2.5796328905e-004
  9.0287500000e+008  -1.3179528463e-004  -1.9992723081e-004   1.0008532741e+000  -5.7463859903e-003   1.0001098342e+000  -5.5554524466e-003   1.3577741493e-004  -4.3711058488e-004
  9.1146250000e+008   1.3533896693e-004  -7.9404226259e-005   1.0027691705e+000  -6.6571242977e-003   9.9807643772e-001  -4.7360408344e-003  -1.5292656754e-004  -5.8373778920e-004
  9.2005000000e+008   2.9914889702e-004  -2.9047739433e-004   1.0010529918e+000  -4.0235830180e-003   9.9849090855e-001  -4.3860850242e-003  -5.3892268240e-004  -6.7732777308e-004
  9.2863750000e+008   4.6398414321e-004  -4.1361437535e-004   1.0019139695e+000  -4.1883120652e-003   9.9912938763e-001  -4.5586235023e-003  -6.3532575410e-004  -5.9264343256e-004
  9.3722500000e+008   2.3123330863e-004  -5.4835215441e-004   1.0029924506e+000  -4.5241292718e-003   9.9903372147e-001  -4.6052904750e-003  -9.7330267976e-004  -7.3876013503e-004
  9.4581250000e+008   1.8891018077e-004  -9.7447288288e-004   1.0025721121e+000  -4.4878973875e-003   9.9981879981e-001  -3.6284666101e-003  -1.2124595076e-003  -5.8372094429e-004
  9.5440000000e+008   2.7911132925e-005  -1.0942495195e-003   1.0015087032e+000  -5.4445649927e-003   9.9978689014e-001  -3.9357421330e-003  -1.4036992288e-003  -4.4799259322e-004
  9.6298750000e+008  -3.5242654482e-004  -1.1982354754e-003   1.0028230966e+000  -3.9727865288e-003   1.0006114920e+000  -4.0895023891e-003  -1.4397100477e-003  -1.6778239015e-004
  9.7157500000e+008  -5.3144909054e-004  -1.1346085837e-003   1.0008197945e+000  -5.1750271891e-003   9.9994139682e-001  -4.2664875805e-003  -1.3987993854e-003  -1.2684052226e-004
  9.8016250000e+008  -9.2272557468e-004  -8.9701776014e-004   1.0022630864e+000  -4.4488042484e-003   9.9933518494e-001  -5.7688283777e-003  -1.4460479940e-003   2.1563517807e-004
  9.8875000000e+008  -1.1276600689e-003  -4.8934981437e-004   1.0010173980e+000  -4.8673980298e-003   9.9938318141e-001  -4.1627692073e-003  -1.3197027909e-003   3.0546035921e-004
  9.9733750000e+008  -1.0609921926e-003  -1.8356260726e-004   1.0008240197e+000  -5.0698647059e-003   9.9897436152e-001  -3.7169810391e-003  -1.1171838298e-003   2.5696440978e-004
  1.0059250000e+009  -9.3334243025e-004   7.2967742541e-005   1.0016339309e+000  -4.6529029366e-003   1.0002140790e+000  -4.3980903822e-003  -7.5660895699e-004   4.1851111539e-004
  1.0145125000e+009  -9.0954527381e-004   4.7435974436e-004   1.0017672176e+000  -7.1743571090e-003   9.9961917462e-001  -4.6017936022e-003  -4.7696227412e-004   5.1447025043e-004
  1.0231000000e+009  -5.5297032876e-004   5.5012942594e-004   9.9951017279e-001  -3.6074867038e-003   9.9937169332e-001  -4.7058941370e-003  -2.2821743668e-004   4.1851734579e-004
  1.0316875000e+009  -3.8916200017e-004   8.8392193285e-004   9.9847443192e-001  -6.8684765017e-003   9.9940842595e-001  -5.0260531288e-003   2.6809681350e-005   2.5592512198e-004
  1.0402750000e+009   2.1342378133e-004   8.1166301491e-004   9.9980098741e-001  -5.7106783193e-003   9.9950530102e-001  -4.1852727716e-003   4.4177945234e-004   1.1395398121e-004
  1.0488625000e+009   3.0566889557e-004   5.9948335272e-004   1.0001130691e+000  -5.6480271827e-003   9.9950923340e-001  -4.6654968063e-003   7.1859512203e-004   1.1374733378e-004
  1.0574500000e+009   4.9511494616e-004   3.4624453989e-004   9.9971103745e-001  -5.4888910777e-003   9.9956191736e-001  -4.4820222940e-003   7.9269798207e-004  -2.2989262145e-004
