# Hz S RI R 50.000000
! Metas.Vna.Tools, 2.8.8664.20301
! Metas.Vna.Data, 2.8.8664.20285
! Created: UTC 2024.02.11 10:08:37
! FREQ                re:S1,1             im:S1,1             re:S2,1             im:S2,1             re:S1,2             im:S1,2             re:S2,2             im:S2,2          
  1.3000000000e+008  -1.4877682692e-004  -2.0711238375e-003   9.9582170797e-001  -6.0340648921e-003   1.0008389455e+000  -1.8218529549e-004   1.6121770442e-003   6.5231677014e-004
  1.3858750000e+008  -4.1627348360e-004  -1.1616954112e-003   9.9720740850e-001  -4.9074845232e-003   1.0006492770e+000   3.7712358738e-004   1.4273208614e-003  -4.0581348053e-004
  1.4717500000e+008  -1.7797605324e-003  -1.1784562383e-003   9.9555381483e-001  -5.9101746601e-003   1.0003450181e+000   5.2546798442e-004   1.1256211962e-003  -2.7339116565e-004
  1.5576250000e+008  -1.4285617380e-003   3.4829170008e-004   9.9514270143e-001  -5.3872700240e-003   1.0006542246e+000   4.6514823449e-004   1.3546689372e-003  -7.6223943962e-004
  1.6435000000e+008  -9.6571252490e-004   1.0988568712e-003   9.9576877850e-001  -4.9736882910e-003   1.0009487063e+000  -2.0258672504e-004   6.8502639364e-004  -9.9107651390e-004
  1.7293750000e+008  -6.5413911843e-004   9.5188682660e-004   9.9613603030e-001  -4.4290924411e-003   9.9994183971e-001   9.0828147571e-005   7.5910396558e-004  -9.7434519664e-004
  1.8152500000e+008  -7.4289155341e-004   3.8382479920e-004   9.9582940680e-001  -6.0753030410e-003   1.0001208556e+000  -2.3946209040e-004   2.2836424876e-004  -1.0791295754e-003
  1.9011250000e+008  -3.9444762611e-004   7.7779074911e-004   9.9713457665e-001  -7.2087126617e-003   1.0008715469e+000  -2.9432430810e-004   5.4775754563e-005  -1.2731667850e-003
  1.9870000000e+008  -4.5026497668e-004   1.0714958207e-003   9.9618688726e-001  -6.6293649783e-003   1.0007149905e+000  -2.2084858022e-004   5.3492163418e-004  -8.4047246192e-004
  2.0728750000e+008   2.0014160293e-004   4.4682459224e-004   9.9393237460e-001  -6.4622795467e-003   1.0007186441e+000  -1.2246974110e-004   2.7740571654e-004  -2.6486629629e-004
  2.1587500000e+008  -5.4312363067e-005  -1.5975215848e-004   9.9596982554e-001  -5.8167921309e-003   1.0000750856e+000  -1.3048437316e-006  -3.0606131133e-004   2.2476583121e-004
  2.2446250000e+008   3.0691090829e-004  -5.3424920276e-004   9.9522992128e-001  -5.3774195338e-003   1.0003284191e+000  -5.0846285079e-004  -3.5840024056e-005   5.9008027936e-006
  2.3305000000e+008   1.0361453772e-004  -2.5195806058e-005   9.9593252478e-001  -5.2313115872e-003   1.0006077691e+000  -3.5753231654e-005  -1.9148172271e-004   2.0046273253e-004
  2.4163750000e+008  -2.5598464526e-004  -1.5368965137e-004   9.9531417942e-001  -7.2491648680e-003   1.0007300655e+000  -1.1014041764e-003  -6.8549603231e-004   2.0163076127e-004
  2.5022500000e+008  -5.0345501469e-004  -9.4050062298e-004   9.9413879592e-001  -5.8531864064e-003   1.0005591058e+000  -6.7169673027e-004  -5.4594074038e-004   6.8942333746e-004
  2.5881250000e+008  -2.5651980949e-004  -7.5400074563e-004   9.9338189212e-001  -5.7338129097e-003   9.9991932679e-001  -1.0911202865e-003  -5.8344104588e-004   6.4092371154e-004
  2.6740000000e+008  -7.9333178866e-004  -8.4159295690e-004   9.9625197172e-001  -6.5480678166e-003   9.9984577929e-001  -1.1109782436e-003  -4.7753506477e-004   6.0508633342e-004
  2.7598750000e+008  -1.7079491488e-005  -2.6629263702e-004   9.9575370960e-001  -6.5176946013e-003   1.0006956383e+000  -1.3580456057e-003  -6.6137770619e-004   8.0324870353e-004
  2.8457500000e+008  -7.0099334520e-004  -3.1521713078e-004   9.9598123248e-001  -6.7545474331e-003   1.0008114013e+000  -6.7929272747e-004  -4.2837649837e-004   8.5747145369e-004
  2.9316250000e+008  -5.2908093604e-004  -3.8665905147e-004   9.9570805685e-001  -6.2474865633e-003   1.0010064050e+000  -1.4672564993e-003  -2.1284520194e-004   7.2086951379e-004
  3.0175000000e+008  -9.7319222089e-004   2.9255949144e-004   9.9527816033e-001  -8.8312111140e-003   1.0005709643e+000  -7.4800876054e-005  -6.3915026996e-004   5.6064335071e-004
  3.1033750000e+008  -1.0216614968e-003   6.9110707803e-005   9.9585199264e-001  -6.3332220503e-003   1.0020307039e+000  -1.2055040364e-003  -7.3049860970e-004   5.3866258954e-004
  3.1892500000e+008  -9.3711123265e-004   1.4006665364e-004   9.9609756715e-001  -6.9006429838e-003   1.0005331895e+000  -4.2091588671e-004  -6.3088803413e-004   8.2231998199e-005
  3.2751250000e+008  -5.3740665744e-004   1.5972093396e-004   9.9660636720e-001  -5.8653410814e-003   1.0005107043e+000  -1.1695434378e-003  -6.5228646644e-004   5.3952217231e-005
  3.3610000000e+008  -8.4148975788e-004   2.5729687222e-004   9.9564121864e-001  -6.4741526661e-003   1.0013506658e+000  -1.4774865121e-003  -6.2132800472e-004   7.8958589365e-005
  3.4468750000e+008  -7.0259674068e-004   1.5069331571e-004   9.9517309045e-001  -5.8557349240e-003   1.0007312178e+000  -8.1943124673e-004  -7.2731656967e-004   8.3406926838e-005
  3.5327500000e+008  -6.7937982114e-004   3.3566088916e-004   9.9493364536e-001  -6.6609148047e-003   9.9951388881e-001  -1.2813238404e-003  -5.9029158775e-004   1.3178187543e-004
  3.6186250000e+008  -4.8504934613e-004   5.0819765241e-004   9.9526812237e-001  -6.8075186051e-003   1.0011949406e+000  -7.4124514894e-004  -7.6936482195e-004   4.9730571409e-004
  3.7045000000e+008  -5.8514351885e-004   6.6823796200e-004   9.9491620439e-001  -6.7962528951e-003   1.0006473947e+000  -1.3618980813e-003  -4.2343899518e-004   2.7740458262e-004
  3.7903750000e+008  -2.0408123085e-004   4.7250879994e-004   9.9409650485e-001  -6.2727258961e-003   1.0006100404e+000  -1.3147731383e-003  -7.0110269183e-004   1.5821548133e-004
  3.8762500000e+008  -2.6282286899e-004   6.4846343849e-004   9.9772719126e-001  -5.3414139017e-003   1.0004193020e+000  -1.4884521417e-003  -5.7482719971e-004   6.1572402393e-004
  3.9621250000e+008  -1.5657810324e-004   3.8877543395e-004   9.9547787754e-001  -6.6085799059e-003   1.0009966097e+000  -1.2043000802e-003  -4.6977601478e-004   4.6670490582e-004
  4.0480000000e+008   1.7179069300e-004   3.0274152588e-004   9.9693113314e-001  -7.1840738145e-003   1.0005940668e+000  -1.2636566222e-003  -1.9457470750e-004   2.4517070199e-004
  4.1338750000e+008   3.6213914865e-004   3.2959162422e-004   9.9560089434e-001  -5.4865151685e-003   1.0009029201e+000  -1.3034666643e-003  -1.2634997134e-005   4.0450200713e-004
  4.2197500000e+008   2.5733392654e-005  -1.4144953432e-004   9.9466488603e-001  -6.8528352999e-003   1.0005002654e+000  -1.2143271541e-003   1.7565829652e-004   7.6613393365e-004
  4.3056250000e+008   1.8648471457e-004   2.3667084877e-005   9.9537951835e-001  -6.7723107834e-003   1.0008699043e+000  -1.2525288675e-003   6.5655756102e-004   4.7263630959e-004
  4.3915000000e+008  -1.1602655268e-004  -3.9501209035e-004   9.9841494773e-001  -5.4542623705e-003   1.0003138848e+000  -1.4375413777e-003   6.7530978904e-004   3.3624452971e-004
  4.4773750000e+008   8.3753861981e-005  -6.7558925200e-004   9.9738406411e-001  -6.2095848311e-003   1.0001734090e+000  -1.7694639224e-003   6.8840068978e-004   2.5587579844e-004
  4.5632500000e+008  -3.4455239507e-004  -4.3638641784e-004   9.9503632211e-001  -5.7180910520e-003   1.0003374226e+000  -1.5534853790e-003   7.1681343996e-004   3.7013609822e-004
  4.6491250000e+008  -4.8680854818e-004  -1.6611731059e-004   9.9183659314e-001  -7.9166168543e-003   1.0001894989e+000  -1.7643172059e-003   5.3445982365e-004   9.8511078277e-005
  4.7350000000e+008  -6.1070733491e-004  -4.1870275145e-004   9.8966988643e-001  -8.5359223871e-003   1.0005477882e+000  -1.2551561803e-003   7.3308578745e-004   3.5986654440e-005
  4.8208750000e+008  -3.4832670997e-004   1.8129016787e-005   9.8943946033e-001  -8.0298599989e-003   1.0000355621e+000  -1.1014312230e-003   5.8726607758e-004   8.5624267499e-006
  4.9067500000e+008   2.5002759868e-005  -3.9125562265e-004   9.8812148087e-001  -8.7426924483e-003   1.0002400744e+000  -1.6178797111e-003   3.8678324060e-004  -1.3813169748e-004
  4.9926250000e+008  -1.0559921302e-004  -3.0425044076e-004   9.8883089776e-001  -8.7272581127e-003   9.9985531143e-001  -1.2504520493e-003   5.6252841546e-004   7.9519046221e-005
  5.0785000000e+008  -4.8492462971e-004  -1.9992484780e-004   9.8838763550e-001  -8.5754344340e-003   1.0000085010e+000  -8.8392669444e-004   3.3982483762e-004   4.0750756380e-004
  5.1643750000e+008  -4.6730821622e-004   5.3993265866e-005   9.8879898505e-001  -7.7606161626e-003   1.0006164262e+000  -1.2998919168e-003   8.0948224151e-004  -1.3918286587e-004
  5.2502500000e+008  -2.2702407632e-004   5.4761662726e-004   9.8975454643e-001  -6.7146446452e-003   1.0007924060e+000  -5.2377687494e-004   1.4023429074e-004  -4.0834837226e-004
  5.3361250000e+008   5.3891211471e-004   1.4035129338e-004   9.9058208671e-001  -8.3673812999e-003   1.0007011609e+000  -1.3091227713e-003  -2.1117290131e-004  -7.1506299977e-004
  5.4220000000e+008   7.7523242055e-004  -2.2108222460e-005   9.9001703678e-001  -9.9040002094e-003   1.0005933645e+000  -1.4501643245e-003  -9.1053171637e-004  -2.5933186207e-004
  5.5078750000e+008   6.2342767266e-004  -7.1513443863e-004   9.8901083642e-001  -9.7653797399e-003   1.0003258865e+000  -1.8679995267e-003  -9.1281148351e-004  -1.4649323252e-004
  5.5937500000e+008   3.3410530382e-004  -7.3646856717e-004   9.8855260194e-001  -8.1745978218e-003   1.0000128750e+000  -1.8027345563e-003  -9.5382948939e-004   1.1154768272e-004
  5.6796250000e+008   3.8520410401e-004  -9.1896053929e-004   9.9099344063e-001  -8.0624737820e-003   1.0005619645e+000  -1.2953126457e-003  -1.0575961968e-003   5.2174834569e-004
  5.7655000000e+008  -1.8286557563e-004  -1.1733881249e-003   9.9141470382e-001  -9.7848397659e-003   9.9990308031e-001  -2.0031782049e-003  -1.0183054948e-003   6.6926705953e-004
  5.8513750000e+008  -4.9068696227e-004  -9.6199865358e-004   9.8852604220e-001  -8.1780141035e-003   1.0002749505e+000  -1.3910936418e-003  -9.0586277726e-004   9.9570749229e-004
  5.9372500000e+008  -6.8927506295e-004  -8.4572253644e-004   9.8926665879e-001  -9.2390503108e-003   1.0004946507e+000  -2.0091957421e-003  -6.4631523504e-004   9.9214399146e-004
  6.0231250000e+008  -1.1093923112e-003  -5.0546590524e-004   9.8939413023e-001  -8.2252338968e-003   9.9991572508e-001  -1.7340329144e-003  -4.2076840203e-004   1.0172167644e-003
  6.1090000000e+008  -1.0747263554e-003  -3.0474244987e-004   9.8859575698e-001  -1.1428682878e-002   1.0002644859e+000  -1.2001471010e-003  -3.2806620105e-004   9.7355123992e-004
  6.1948750000e+008  -1.0031458195e-003   2.0433105487e-004   9.8705686955e-001  -8.1449556937e-003   9.9955149174e-001  -2.1133031869e-003  -2.9997480014e-004   6.3340959419e-004
  6.2807500000e+008  -7.4659356584e-004   1.1981885019e-007   9.8989554262e-001  -9.1245041038e-003   1.0002814381e+000  -1.9663784657e-003   3.6649660556e-005   4.3599963953e-004
  6.3666250000e+008  -5.2658481908e-004   5.7493341445e-004   9.9015422798e-001  -8.4327349751e-003   1.0009519777e+000  -1.4952801491e-003   1.1308052802e-004   4.4374458584e-004
  6.4525000000e+008   6.5076971276e-006   5.2110156167e-004   9.8931812703e-001  -8.8979436270e-003   1.0003415631e+000  -2.3129603782e-003   3.2486180692e-004   1.3099207053e-005
  6.5383750000e+008   1.8222017099e-004   3.1187274113e-004   9.8927364944e-001  -9.2184140928e-003   9.9984055216e-001  -1.4639968769e-003   3.3619680314e-004  -3.7705292937e-005
  6.6242500000e+008   5.1160048886e-004   1.2924614079e-004   9.8798818450e-001  -8.1070601832e-003   1.0005535021e+000  -2.3467839965e-003   2.4407464388e-004  -3.3777109492e-004
  6.7101250000e+008   4.3248263874e-004  -2.1732124858e-004   9.9017959645e-001  -8.7105992179e-003   9.9997179684e-001  -1.6396092705e-003   2.9629403286e-004  -6.5166054081e-004
  6.7960000000e+008   6.4301662356e-004  -5.5347953146e-004   9.8788275548e-001  -8.4774440562e-003   1.0004733048e+000  -2.3583679132e-003   9.6729709349e-005  -9.2035652195e-004
  6.8818750000e+008   3.2929720495e-004  -1.0138557055e-003   9.8916397865e-001  -8.9612970863e-003   9.9984403785e-001  -2.5424830681e-003   1.3164548921e-005  -1.1057652619e-003
  6.9677500000e+008   1.7971597477e-004  -1.1229123575e-003   9.8800388289e-001  -9.2768502473e-003   9.9980294110e-001  -2.3568616223e-003  -2.9322179273e-004  -1.2511249208e-003
  7.0536250000e+008  -2.8165017660e-004  -1.1776103569e-003   9.8834477665e-001  -9.6234725452e-003   1.0003597328e+000  -2.0296143722e-003  -2.7433384928e-004  -1.3545207759e-003
  7.1395000000e+008  -6.9845997231e-004  -1.0508825748e-003   9.8719680081e-001  -9.2051739890e-003   1.0001609962e+000  -2.3422087622e-003  -5.5321419911e-004  -1.3694767750e-003
  7.2253750000e+008  -1.1295647475e-003  -8.6190200029e-004   9.8617112634e-001  -9.1642247570e-003   9.9975377369e-001  -2.2418075457e-003  -8.4836879960e-004  -1.3416842511e-003
  7.3112500000e+008  -1.2690922540e-003  -3.4728432894e-004   9.8801813264e-001  -8.5155641475e-003   1.0004600807e+000  -1.5549750212e-003  -1.0280846476e-003  -9.3106674452e-004
  7.3971250000e+008  -1.1948627560e-003   2.4129448910e-005   9.8812681505e-001  -9.8623415792e-003   1.0005205734e+000  -2.9476670973e-003  -1.2332255811e-003  -7.2959930973e-004
  7.4830000000e+008  -9.4017850256e-004   5.6859247994e-004   9.8847440894e-001  -7.7078335253e-003   1.0000963083e+000  -1.9334853032e-003  -1.0615667280e-003  -6.7975542225e-004
  7.5688750000e+008  -9.8108991412e-004   6.7053449175e-004   9.8812775515e-001  -1.0871956405e-002   9.9922166113e-001  -1.6711767807e-003  -1.2711436740e-003  -2.9929120290e-004
  7.6547500000e+008  -2.3510992111e-004   8.1466923122e-004   9.8944273040e-001  -1.0263405806e-002   9.9955352684e-001  -2.5447295805e-003  -1.1945368024e-003   7.0517206553e-006
  7.7406250000e+008   2.5952110270e-004   1.0044839046e-003   9.8724902024e-001  -1.0600293285e-002   9.9992678964e-001  -3.2778510423e-003  -9.1050943214e-004   1.3136266997e-004
  7.8265000000e+008   4.0637288052e-004   4.7650468354e-004   9.8670768112e-001  -9.8965270091e-003   9.9946601293e-001  -2.4148856158e-003  -8.1367696037e-004   6.9685839530e-004
  7.9123750000e+008   7.1534322871e-004   3.0325130455e-004   9.8771063546e-001  -7.9610285146e-003   9.9963689127e-001  -2.3560622115e-003  -6.6137943296e-004   5.6869350423e-004
  7.9982500000e+008   7.3538218141e-004   1.9092720741e-004   9.8821364492e-001  -8.6384149564e-003   1.0004440671e+000  -1.7756960251e-003  -4.2007116061e-004   8.4831391397e-004
  8.0841250000e+008   1.0613922546e-003  -8.1652276000e-005   9.8842005324e-001  -9.5564659773e-003   9.9946529957e-001  -1.7778497222e-003  -5.4559353064e-004   8.8812464903e-004
  8.1700000000e+008   1.1238150303e-003  -4.0301372173e-004   9.8855134359e-001  -9.7527387332e-003   1.0001844743e+000  -1.7975569987e-003  -1.9221780210e-004   9.3547069387e-004
  8.2558750000e+008   1.1491670272e-003  -6.3786526288e-004   9.8933617757e-001  -8.2886193379e-003   1.0005521660e+000  -2.3921947583e-003  -2.7621608251e-004   1.0622140537e-003
  8.3417500000e+008   8.1953917378e-004  -1.2609408793e-003   9.8829359572e-001  -9.0919220359e-003   1.0003301050e+000  -2.9446065638e-003  -2.2143414630e-004   1.2038663555e-003
  8.4276250000e+008   2.9831636349e-004  -1.2852457375e-003   9.8763114139e-001  -1.0081553919e-002   9.9947776377e-001  -2.5105789120e-003   1.5777640396e-004   1.1470302459e-003
  8.5135000000e+008  -8.1613481781e-005  -1.2493386255e-003   9.8707437260e-001  -9.9078968224e-003   1.0011452007e+000  -2.2475868627e-003   4.0249050258e-004   1.2367568894e-003
  8.5993750000e+008  -3.4587487112e-004  -1.1233753751e-003   9.8798645075e-001  -9.0146628714e-003   1.0002390795e+000  -2.4756882474e-003   4.1972254190e-004   9.3072635859e-004
  8.6852500000e+008  -6.6082914669e-004  -8.3459080588e-004   9.8658010104e-001  -1.0860491975e-002   1.0006270756e+000  -2.7392723116e-003   7.4759183057e-004   7.9068433028e-004
  8.7711250000e+008  -4.4850341204e-004  -5.9097075490e-004   9.8569662343e-001  -9.6989299138e-003   9.9991508863e-001  -2.6487196933e-003   5.0363466881e-004   1.9266195560e-004
  8.8570000000e+008  -3.4935538924e-004  -3.5822157143e-004   9.8908920738e-001  -9.0673235480e-003   9.9997278496e-001  -3.4693647266e-003   4.8325001583e-004  -2.7456050980e-005
  8.9428750000e+008  -2.5148850468e-004  -1.6915348587e-004   9.8780024282e-001  -1.0594608320e-002   9.9921917771e-001  -3.6056618182e-003   1.0356221754e-004  -3.8216167491e-004
  9.0287500000e+008   1.0993860708e-004  -2.1447861675e-004   9.8845989226e-001  -9.9248142924e-003   9.9903637011e-001  -3.6278421556e-003  -2.3498927221e-006  -4.0011193696e-004
  9.1146250000e+008   3.7911650791e-004  -2.1304995200e-004   9.8748424926e-001  -1.0125130743e-002   9.9847482449e-001  -3.5597439866e-003  -5.3245060633e-004  -4.2638179589e-004
  9.2005000000e+008   3.1109078953e-004  -4.4860134854e-004   9.8753048791e-001  -8.5913739955e-003   9.9860735746e-001  -2.3345865836e-003  -8.8112104869e-004  -5.0270840082e-004
  9.2863750000e+008   4.9434526753e-004  -6.7502445779e-004   9.8842444385e-001  -8.2852562982e-003   1.0003957501e+000  -3.4577188076e-003  -9.4563377140e-004  -5.3600456453e-004
  9.3722500000e+008   3.6205697368e-004  -9.9310484054e-004   9.8791397250e-001  -8.7435309472e-003   9.9941321383e-001  -2.7674573140e-003  -1.1217862314e-003  -6.4473410069e-004
  9.4581250000e+008   2.1830155869e-004  -1.2497647411e-003   9.8605390283e-001  -9.4273699723e-003   1.0001648145e+000  -1.6813404395e-003  -1.3841808093e-003  -3.2276584232e-004
  9.5440000000e+008  -1.1522146275e-004  -1.3880925990e-003   9.8646585087e-001  -9.6396833710e-003   1.0008675945e+000  -2.3195731541e-003  -1.4789003360e-003  -2.4269842929e-004
  9.6298750000e+008  -4.7928143102e-004  -1.4826045118e-003   9.8815487452e-001  -9.1457817389e-003   9.9998807328e-001  -3.2225125536e-003  -1.7124673818e-003  -1.0575108561e-004
  9.7157500000e+008  -7.6252996179e-004  -1.2160805451e-003   9.8804588553e-001  -1.0686856079e-002   1.0000000502e+000  -2.8044297500e-003  -1.5111397008e-003   1.3401951071e-005
  9.8016250000e+008  -1.0628898009e-003  -9.7318102900e-004   9.8908848624e-001  -9.3058233265e-003   9.9950112495e-001  -3.0209901908e-003  -1.4099021513e-003   1.1672896453e-004
  9.8875000000e+008  -1.1459578189e-003  -6.3202449013e-004   9.8773466201e-001  -8.8830339122e-003   9.9954149039e-001  -3.2905874364e-003  -1.2868710548e-003   3.1957369421e-004
  9.9733750000e+008  -1.1148251415e-003  -2.3323030036e-004   9.8826305808e-001  -8.7687946126e-003   9.9945465816e-001  -1.7344382523e-003  -1.1742834718e-003   1.7785956245e-004
  1.0059250000e+009  -9.0700908193e-004   1.6577118658e-004   9.8851083994e-001  -9.4349089675e-003   1.0003218388e+000  -2.6120903347e-003  -6.9286129924e-004   3.5473687537e-004
  1.0145125000e+009  -7.8757841868e-004   5.2705619835e-004   9.8873839589e-001  -1.1011087057e-002   9.9968704196e-001  -2.8402012798e-003  -4.1810025934e-004   3.1064560982e-004
  1.0231000000e+009  -3.5983847573e-004   5.5041581820e-004   9.8741054883e-001  -8.4112492924e-003   9.9901260387e-001  -3.1411691369e-003  -2.0493221106e-004   2.5151074615e-004
  1.0316875000e+009  -1.4240766306e-004   7.8424752352e-004   9.8855834942e-001  -1.0053724411e-002   9.9950247827e-001  -2.9228139258e-003   1.0289325528e-004   1.2440835103e-004
  1.0402750000e+009   2.7177612229e-004   6.4457806334e-004   9.8873690096e-001  -8.8214560009e-003   9.9990482462e-001  -2.1414302496e-003   4.3609261341e-004  -5.5636981487e-006
  1.0488625000e+009   5.2729684099e-004   3.6684160560e-004   9.8836710287e-001  -9.3417711246e-003   9.9916530062e-001  -2.6244274810e-003   6.1995103708e-004  -2.9111991443e-004
  1.0574500000e+009   7.5688601133e-004   1.3862433639e-004   9.8862438254e-001  -9.5443560693e-003   9.9899780231e-001  -3.2048709361e-003   8.5370775877e-004  -5.9687347254e-004
