# Hz S RI R 50.000000
! Metas.Vna.Tools, 2.8.8664.20301
! Metas.Vna.Data, 2.8.8664.20285
! Created: UTC 2024.02.11 10:08:36
! FREQ                re:S1,1             im:S1,1             re:S2,1             im:S2,1             re:S1,2             im:S1,2             re:S2,2             im:S2,2          
  1.3000000000e+008   3.9741696881e-005  -1.0234572289e-003   9.9509185902e-001  -6.5875705693e-003   1.0004497542e+000   2.3202559755e-005   8.3630692717e-004   5.9428085156e-004
  1.3858750000e+008  -5.2778929621e-004  -1.5100482293e-003   9.9676047632e-001  -4.8578165599e-003   1.0002468655e+000   6.9506788337e-004   8.9593746154e-004  -9.0801040573e-005
  1.4717500000e+008  -2.2180410949e-003  -1.4175722117e-003   9.9588519830e-001  -6.4058503320e-003   1.0000394078e+000   2.4543882773e-004   1.0007045889e-003  -5.0663633936e-005
  1.5576250000e+008  -1.0490187861e-003   1.6239202008e-004   9.9657659952e-001  -5.8685165184e-003   1.0010274128e+000   1.0291773996e-003   9.8078167807e-004  -8.0453892524e-004
  1.6435000000e+008  -1.0921521732e-003   1.6862874074e-004   9.9511229236e-001  -4.9757392778e-003   1.0004507396e+000  -4.0252388143e-005   1.1761979768e-003  -9.3954275716e-004
  1.7293750000e+008  -9.9136176426e-004   4.6333494285e-004   9.9618203745e-001  -4.4182483441e-003   1.0001741947e+000   7.9685007312e-006   8.4775512370e-004  -1.0534735266e-003
  1.8152500000e+008  -4.4968527843e-004   4.7289176891e-004   9.9721227256e-001  -6.0282049729e-003   1.0001082327e+000  -4.4487179539e-004   8.4878968793e-004  -7.1018429413e-004
  1.9011250000e+008  -4.3568708265e-004   9.0102597708e-004   9.9659556200e-001  -6.6681082551e-003   1.0011032036e+000  -1.8681706676e-004   1.3973131124e-004  -8.3208561716e-004
  1.9870000000e+008  -3.9710664872e-004   9.1478081327e-004   9.9727457792e-001  -4.0570176319e-003   1.0005107935e+000  -3.7948103619e-004   4.7347179093e-004  -1.5132896173e-004
  2.0728750000e+008   4.7795312613e-005   3.9542985581e-004   9.9538434155e-001  -5.2419639017e-003   1.0001710851e+000  -2.6663233446e-004   2.0568544668e-004  -3.7065541426e-004
  2.1587500000e+008   1.1154817242e-004  -7.3870620069e-004   9.9656848904e-001  -5.2886173650e-003   9.9976944306e-001  -4.5001811138e-004  -3.2163340286e-004   4.6511051185e-005
  2.2446250000e+008   4.2724401215e-004  -2.8388195662e-004   9.9672552924e-001  -5.8287065139e-003   9.9997325862e-001  -4.6051072527e-004  -2.3092830561e-004  -1.4549530003e-005
  2.3305000000e+008   5.9507402940e-005  -5.8738681972e-004   9.9593091764e-001  -5.6340901777e-003   1.0008727822e+000   3.2633898815e-005  -5.3407568447e-004   1.6404993800e-004
  2.4163750000e+008  -3.7950580458e-004  -5.5454007597e-004   9.9612005098e-001  -8.4868198637e-003   9.9963317524e-001  -1.1129513359e-003  -4.5113662631e-004   3.5613295075e-004
  2.5022500000e+008  -5.0080701147e-004  -6.6163191752e-004   9.9614298504e-001  -5.2237414286e-003   1.0003128170e+000  -6.9538460706e-004  -9.5866796510e-004   5.3566858373e-004
  2.5881250000e+008  -6.8358389379e-004  -1.0504962324e-003   9.9594079215e-001  -5.3768610383e-003   9.9981984740e-001  -1.2064963979e-003  -5.8323872313e-004   9.0851416523e-004
  2.6740000000e+008  -7.0884119193e-004  -7.1352756744e-004   9.9569635911e-001  -7.0967698931e-003   1.0012244303e+000  -1.1933812125e-003  -4.2311985975e-004   1.9527215836e-004
  2.7598750000e+008  -5.0762487540e-004  -3.7517804377e-004   9.9588663942e-001  -7.2252534703e-003   1.0004105568e+000  -8.9673078171e-004  -2.7016295919e-004   6.0129793725e-004
  2.8457500000e+008  -1.0986809656e-003  -3.8425177985e-004   9.9542337383e-001  -6.3174153526e-003   1.0003703604e+000  -8.6924629427e-004  -3.8898446520e-004   8.4822656556e-004
  2.9316250000e+008  -5.6533189535e-004  -2.4460086071e-004   9.9509439743e-001  -6.0074019236e-003   1.0008663332e+000  -1.1492799361e-003  -2.2501084553e-004   6.1435438578e-004
  3.0175000000e+008  -9.8762940354e-004   5.9649198146e-004   9.9490290245e-001  -7.6818003984e-003   1.0002260057e+000  -2.3193945309e-004  -4.3905650925e-004   3.7802942796e-004
  3.1033750000e+008  -1.0480338030e-003   2.6118920553e-004   9.9422095328e-001  -5.9159976797e-003   1.0009255371e+000  -6.1815626964e-004  -7.2235235550e-004   4.8170008032e-004
  3.1892500000e+008  -8.5309561201e-004   1.5697502168e-004   9.9501072068e-001  -7.4385808905e-003   1.0007182838e+000  -7.1123543152e-005  -5.2347113161e-004   4.6858312423e-004
  3.2751250000e+008  -7.3111622195e-004   7.3581376568e-005   9.9592929413e-001  -6.4583007797e-003   1.0008999669e+000  -1.4819489962e-003  -8.0696042035e-004   2.6331106258e-004
  3.3610000000e+008  -8.5976150195e-004   2.1828937771e-005   9.9559361764e-001  -5.4393162187e-003   1.0011829155e+000  -1.2173434924e-003  -6.1023181921e-004   1.6229550122e-004
  3.4468750000e+008  -5.8312102528e-004   1.7378528699e-004   9.9562037870e-001  -6.0538996608e-003   1.0010336018e+000  -7.6010445353e-004  -4.3999118290e-004   2.1101045849e-004
  3.5327500000e+008  -4.6911403256e-004   1.6017950046e-004   9.9683899776e-001  -7.2164630478e-003   9.9985268899e-001  -1.5998248260e-003  -6.5346958463e-004  -5.8874326360e-006
  3.6186250000e+008  -4.8759238068e-004   5.9726811467e-004   9.9730751399e-001  -5.9259487717e-003   1.0003268383e+000  -6.4679745449e-004  -5.8528006777e-004   2.3623771230e-004
  3.7045000000e+008  -7.6431175302e-004   5.5109398113e-004   9.9623250396e-001  -6.5047742943e-003   1.0009831367e+000  -1.4004142895e-003  -5.4783749159e-004   2.7078834879e-004
  3.7903750000e+008  -3.2115613755e-004   7.1394157889e-004   9.9548574935e-001  -6.3383883419e-003   1.0001078231e+000  -1.2319416780e-003  -5.3836714934e-004   1.2076568231e-004
  3.8762500000e+008  -2.9365276091e-004   6.1093419713e-004   9.9756856324e-001  -5.7727114435e-003   1.0002908510e+000  -1.3826653959e-003  -4.2560329990e-004   4.9146341191e-004
  3.9621250000e+008  -9.7920644490e-005   2.3915787995e-004   9.9665661998e-001  -6.9239259453e-003   1.0003345045e+000  -1.1231452870e-003  -5.0267151043e-004   6.9431394730e-004
  4.0480000000e+008   2.4659559050e-004   3.2106901967e-004   9.9828172167e-001  -5.8261427834e-003   1.0005475778e+000  -1.0907703829e-003  -3.6675209614e-005   3.3885856048e-004
  4.1338750000e+008   4.1162348727e-004   7.5225429184e-005   9.9726963678e-001  -5.4175285267e-003   1.0011536178e+000  -1.6434487281e-003   1.0446606423e-004   5.2609259470e-004
  4.2197500000e+008  -1.6541892730e-004  -1.7738664979e-004   9.9750153722e-001  -6.5430055542e-003   1.0004341077e+000  -1.3845067638e-003   2.2692162918e-004   6.8958836627e-004
  4.3056250000e+008   2.3058548707e-004   3.4163038089e-005   9.9806040321e-001  -6.2505795327e-003   1.0004780222e+000  -1.3254256842e-003   6.0737462455e-004   2.5965276045e-004
  4.3915000000e+008  -2.2583927466e-005  -2.7988743387e-004   1.0003769016e+000  -4.4897696799e-003   1.0002087499e+000  -1.6624802832e-003   6.0733701092e-004   3.0486416665e-004
  4.4773750000e+008  -1.5297115989e-005  -1.8284197051e-004   9.9886685871e-001  -6.2513301357e-003   1.0006347401e+000  -1.8819317518e-003   7.2279653583e-004   1.1815337751e-004
  4.5632500000e+008  -1.0223077824e-004  -3.8909518441e-004   9.9506621546e-001  -6.1160955724e-003   1.0006324945e+000  -1.3905065909e-003   7.0511902435e-004   2.0783224019e-004
  4.6491250000e+008  -1.8557060568e-004  -1.1396412368e-004   9.9662040637e-001  -7.1494992563e-003   1.0003481313e+000  -1.5232139716e-003   5.8613660286e-004   1.3475795974e-004
  4.7350000000e+008  -2.4932604297e-004  -2.3653022376e-004   9.9653795912e-001  -6.9358797901e-003   1.0004461906e+000  -1.3751699794e-003   5.6588065439e-004  -1.0202821579e-004
  4.8208750000e+008  -3.4508876286e-004   7.2161948984e-006   9.9432857702e-001  -7.3084389370e-003   9.9985908311e-001  -1.3166379370e-003   6.8599130369e-004   2.0070601759e-005
  4.9067500000e+008  -1.6646431382e-005  -3.2037889471e-004   9.9434303927e-001  -6.3536867160e-003   1.0002831212e+000  -1.7164658648e-003   2.3039313738e-004   2.9989171252e-005
  4.9926250000e+008  -2.1307695987e-004  -2.4719599351e-004   9.9135219050e-001  -7.3287172182e-003   9.9995552895e-001  -1.2009870317e-003   5.2782844052e-004  -9.2583168083e-006
  5.0785000000e+008  -6.5260054688e-004  -9.9977706944e-005   9.9096957019e-001  -6.7628236079e-003   1.0001157653e+000  -1.3066340189e-003   4.4264042949e-004   3.8090648429e-004
  5.1643750000e+008  -4.0711825108e-004   1.0254408314e-004   9.9061135018e-001  -7.7270746151e-003   1.0009519001e+000  -1.5383896587e-003   5.5217897143e-004   1.4997724016e-006
  5.2502500000e+008  -1.4605239100e-004   4.1742270117e-004   9.9202860199e-001  -7.0689155389e-003   1.0008437179e+000  -6.1321552350e-004   6.2330770968e-006  -2.5081159475e-004
  5.3361250000e+008   4.2645801495e-004   3.4386149345e-004   9.9214354637e-001  -8.0063310817e-003   1.0003084850e+000  -1.1658366194e-003   3.0564736691e-005  -4.4008377865e-004
  5.4220000000e+008   7.2873617775e-004   5.1351430848e-006   9.8982434489e-001  -9.1774594523e-003   1.0008807493e+000  -1.5072286313e-003  -9.5839026587e-004  -1.7438725561e-004
  5.5078750000e+008   6.4175959663e-004  -6.5326736934e-004   9.9094524118e-001  -9.1023162210e-003   1.0008572563e+000  -1.2713859567e-003  -8.8825244153e-004  -1.8740893837e-004
  5.5937500000e+008   5.5284245782e-004  -5.3607310703e-004   9.8924920581e-001  -9.1383326347e-003   1.0004732270e+000  -1.9933128911e-003  -9.1972304633e-004   1.8660274351e-005
  5.6796250000e+008   2.1460404205e-004  -7.9523382053e-004   9.9364164994e-001  -8.4996317000e-003   1.0003790637e+000  -1.7492865415e-003  -9.4426143978e-004   5.4023628614e-004
  5.7655000000e+008  -2.9758611570e-004  -1.0621306530e-003   9.9332499484e-001  -1.0161858430e-002   1.0004843329e+000  -2.4648654454e-003  -7.9352527798e-004   8.3633716955e-004
  5.8513750000e+008  -3.1165848152e-004  -8.8809021466e-004   9.9013386575e-001  -8.8920114658e-003   9.9975391010e-001  -1.7636289705e-003  -7.8509808383e-004   9.4214327207e-004
  5.9372500000e+008  -7.3709920779e-004  -8.8166137672e-004   9.9128143060e-001  -8.5564615966e-003   1.0001005687e+000  -2.0650903209e-003  -7.5457814864e-004   1.1333207477e-003
  6.0231250000e+008  -1.0931112769e-003  -5.7774364845e-004   9.9085857093e-001  -7.9717425878e-003   1.0001603172e+000  -1.9986784097e-003  -3.7267777449e-004   9.1334567926e-004
  6.1090000000e+008  -9.1603644569e-004  -2.7875383883e-004   9.9244486901e-001  -9.6269339015e-003   1.0002769515e+000  -1.8812516331e-003  -2.7147423572e-004   9.3156773567e-004
  6.1948750000e+008  -1.0186463387e-003   2.1710530287e-006   9.9024830068e-001  -7.7504685333e-003   1.0000099353e+000  -2.2758583946e-003  -1.4612312624e-004   7.1091355909e-004
  6.2807500000e+008  -7.8975781577e-004   4.7072065058e-005   9.9035211871e-001  -9.0624938301e-003   1.0002789654e+000  -1.5672206928e-003   1.2959425019e-004   3.3421879871e-004
  6.3666250000e+008  -5.3803723011e-004   5.1337762644e-004   9.9114774348e-001  -7.4768007740e-003   1.0002910641e+000  -1.7754679480e-003   2.6146839364e-004   2.8995953919e-004
  6.4525000000e+008  -1.5581285785e-004   5.1218757458e-004   9.9281442823e-001  -6.6673828986e-003   1.0003507386e+000  -1.7658097745e-003   4.3167912061e-004  -1.3502600743e-004
  6.5383750000e+008   8.3197610852e-005   2.7697041282e-004   9.9276731846e-001  -8.7014376092e-003   9.9997894249e-001  -1.1266921204e-003   3.8504581175e-004  -2.0798988195e-004
  6.6242500000e+008   4.8413174169e-004   4.9039261610e-006   9.9018805848e-001  -8.0738128454e-003   1.0011221528e+000  -2.3464749729e-003   3.9399722350e-004  -4.1246267716e-004
  6.7101250000e+008   3.2128141474e-004  -1.3963694827e-004   9.9269529399e-001  -7.0900957854e-003   1.0002546135e+000  -1.6098108109e-003   3.0933432590e-004  -7.5339152717e-004
  6.7960000000e+008   6.7699539228e-004  -5.9400564070e-004   9.9241746024e-001  -9.2537335707e-003   1.0003106969e+000  -1.8492880150e-003   1.9261756610e-004  -1.1478555370e-003
  6.8818750000e+008   2.7449258772e-004  -8.6433977914e-004   9.9083810567e-001  -9.0128523166e-003   1.0003008586e+000  -2.3056746331e-003  -4.0392113241e-005  -1.1173460742e-003
  6.9677500000e+008   1.3990990495e-004  -1.0449811243e-003   9.9228867926e-001  -8.7872089538e-003   9.9997550073e-001  -2.3540665356e-003  -3.5700420672e-004  -1.2314907708e-003
  7.0536250000e+008  -1.4740920616e-004  -1.1986303040e-003   9.8876081293e-001  -9.1508382476e-003   1.0003812642e+000  -2.5254775456e-003  -4.6576193995e-004  -1.3086715827e-003
  7.1395000000e+008  -6.5159030096e-004  -9.9258770225e-004   9.8932573626e-001  -9.3761231503e-003   9.9996557247e-001  -2.1130205066e-003  -6.5389907464e-004  -1.1719154276e-003
  7.2253750000e+008  -1.1368993101e-003  -8.5759812535e-004   9.8957257185e-001  -8.7625756134e-003   1.0001909255e+000  -2.1124430360e-003  -8.3597049947e-004  -1.3063663900e-003
  7.3112500000e+008  -9.7688024526e-004  -5.4622727973e-004   9.9249689809e-001  -9.0367890128e-003   1.0002913553e+000  -2.1396314363e-003  -9.5783726114e-004  -9.6475540801e-004
  7.3971250000e+008  -1.0771723965e-003  -8.8377458176e-005   9.9406813495e-001  -8.0315107694e-003   9.9950584272e-001  -2.9781263130e-003  -1.3158052573e-003  -6.9926095466e-004
  7.4830000000e+008  -9.7614125864e-004   5.2574585310e-004   9.9465617757e-001  -6.3525506812e-003   9.9992139859e-001  -1.0036945216e-003  -9.3234649224e-004  -5.9354897963e-004
  7.5688750000e+008  -9.2920060143e-004   6.3235654197e-004   9.9433345749e-001  -7.4835883648e-003   9.9967637464e-001  -2.3005621769e-003  -1.2475324811e-003  -1.2156844993e-004
  7.6547500000e+008  -1.9472647009e-004   8.4168095250e-004   9.9535053082e-001  -7.0634221441e-003   9.9877211227e-001  -2.5710161201e-003  -1.1789827301e-003  -5.6570501716e-006
  7.7406250000e+008   1.1106692018e-004   8.1875855949e-004   9.9489958969e-001  -7.1971193290e-003   9.9975505213e-001  -2.7399889166e-003  -8.4138331743e-004   3.7665454790e-004
  7.8265000000e+008   3.9205653327e-004   6.7723913677e-004   9.9475665502e-001  -7.6732652828e-003   1.0000271818e+000  -1.8893827734e-003  -7.0553459722e-004   6.5431001032e-004
  7.9123750000e+008   7.0461048990e-004   4.1101224457e-004   9.9508529112e-001  -7.6100809616e-003   9.9945847547e-001  -1.8391362048e-003  -5.6392438043e-004   6.6774149960e-004
  7.9982500000e+008   6.9356181865e-004   3.3381205725e-004   9.9475052809e-001  -6.2620616752e-003   1.0006607395e+000  -1.3943897749e-003  -2.5214955263e-004   8.1356893970e-004
  8.0841250000e+008   9.5942129010e-004   2.0327871373e-004   9.9390729671e-001  -7.2329234195e-003   9.9997846812e-001  -1.8347033309e-003  -3.1868934585e-004   8.8246178718e-004
  8.1700000000e+008   1.1978762387e-003  -3.3189160815e-004   9.9630910012e-001  -6.3877786898e-003   9.9967975786e-001  -2.2373616385e-003  -3.7874508078e-004   1.0069261119e-003
  8.2558750000e+008   1.1661005961e-003  -5.1504718965e-004   9.9712508202e-001  -6.7132019399e-003   1.0005179196e+000  -2.4138276190e-003  -3.7556156837e-004   1.1991851639e-003
  8.3417500000e+008   1.0529938762e-003  -1.0347727260e-003   9.9639383671e-001  -5.9572375486e-003   1.0007866225e+000  -2.7676419346e-003  -7.1321219599e-005   1.2663977386e-003
  8.4276250000e+008   6.8305955659e-004  -1.2890314588e-003   9.9477438395e-001  -8.2739373760e-003   9.9902304820e-001  -2.3449095485e-003   8.2613559182e-005   1.2231933024e-003
  8.5135000000e+008   2.2043264557e-004  -1.2551175868e-003   9.9516960530e-001  -7.3824185549e-003   1.0011862133e+000  -1.6458521127e-003   2.9182442854e-004   1.4240172727e-003
  8.5993750000e+008  -2.5984003469e-004  -1.2549502761e-003   9.9496124803e-001  -7.1795726138e-003   1.0002399135e+000  -3.2395137249e-003   3.4465472523e-004   1.0234760291e-003
  8.6852500000e+008  -5.1499715684e-004  -9.8792886905e-004   9.9580116473e-001  -7.4334644354e-003   9.9954195939e-001  -2.9505209154e-003   7.4148033695e-004   7.6585239956e-004
  8.7711250000e+008  -5.4579593911e-004  -6.8054550502e-004   9.9353679931e-001  -8.5832978108e-003   9.9998468029e-001  -2.4040944094e-003   4.3563441187e-004   2.8797425078e-004
  8.8570000000e+008  -3.4644345491e-004  -4.4307484418e-004   9.9597254171e-001  -7.7655350338e-003   9.9912909776e-001  -2.4957637623e-003   4.9459184508e-004  -2.5566710544e-005
  8.9428750000e+008  -3.1668793573e-004  -2.3190756796e-004   9.9340125830e-001  -8.3658567774e-003   1.0004109368e+000  -3.6371778478e-003   2.9580771581e-005  -2.5679051506e-004
  9.0287500000e+008   2.0216169119e-005  -2.4921718250e-004   9.9439633392e-001  -8.1066082381e-003   9.9966598818e-001  -2.5160133847e-003  -1.9761881052e-005  -4.7090990030e-004
  9.1146250000e+008   2.8541831154e-004  -2.8170716105e-004   9.9465653402e-001  -7.3053953106e-003   9.9880640795e-001  -3.6338903617e-003  -4.9915583795e-004  -3.6666709261e-004
  9.2005000000e+008   2.1195102274e-004  -3.5795630435e-004   9.9518816872e-001  -7.1064600916e-003   9.9886173069e-001  -1.9473602365e-003  -6.6974493476e-004  -5.7215773974e-004
  9.2863750000e+008   5.5825266768e-004  -5.8008977046e-004   9.9632128723e-001  -7.0263683439e-003   9.9981672989e-001  -2.6156716682e-003  -8.8121802148e-004  -5.1039635932e-004
  9.3722500000e+008   4.2040074157e-004  -9.0354693142e-004   9.9590329602e-001  -7.5607596577e-003   9.9852459870e-001  -2.6039069166e-003  -1.1966302733e-003  -6.6298717811e-004
  9.4581250000e+008   2.7286402321e-004  -1.2103683436e-003   9.9485906583e-001  -6.7986773273e-003   9.9913384224e-001  -2.6312142712e-003  -1.4457006243e-003  -4.0108828794e-004
  9.5440000000e+008  -6.5186187698e-005  -1.3957498787e-003   9.9395232482e-001  -7.5120219056e-003   1.0003695876e+000  -1.6050986518e-003  -1.4082250156e-003  -3.1600895672e-004
  9.6298750000e+008  -3.7957976570e-004  -1.3844635105e-003   9.9533125849e-001  -7.4462933860e-003   9.9991979626e-001  -2.7613932804e-003  -1.5342160915e-003  -2.5940026213e-005
  9.7157500000e+008  -6.4379229061e-004  -1.2896184832e-003   9.9563017707e-001  -7.0917680657e-003   1.0002445039e+000  -3.0660280387e-003  -1.3467834486e-003  -7.9657947527e-005
  9.8016250000e+008  -8.2132094580e-004  -9.7614777772e-004   9.9637645861e-001  -8.3959663749e-003   9.9908736858e-001  -3.9706084320e-003  -1.3564741810e-003   1.4362537919e-004
  9.8875000000e+008  -1.1409431649e-003  -6.8821956224e-004   9.9572688956e-001  -7.1795095680e-003   9.9979948856e-001  -2.5895368339e-003  -1.2757122619e-003   2.6602632590e-004
  9.9733750000e+008  -1.0997104782e-003  -3.0290033864e-004   9.9493248257e-001  -8.0059985173e-003   9.9947849126e-001  -1.8750044889e-003  -1.0932357138e-003   7.9784095763e-005
  1.0059250000e+009  -9.6559098993e-004   9.1020006870e-005   9.9482677540e-001  -7.5345566663e-003   1.0000064703e+000  -1.7602255159e-003  -5.4115784440e-004   1.4329558222e-004
  1.0145125000e+009  -8.3577517720e-004   1.9976378978e-004   9.9643967950e-001  -9.6749770255e-003   9.9936373681e-001  -2.5231554884e-003  -4.0088661575e-004   2.0470057112e-004
  1.0231000000e+009  -6.2311928690e-004   4.4826063595e-004   9.9306124942e-001  -7.2384511945e-003   9.9940514714e-001  -3.3298469581e-003  -1.3916327992e-004   1.1181802043e-004
  1.0316875000e+009  -1.1782016412e-004   6.4723033593e-004   9.9304444666e-001  -9.6993739879e-003   9.9930625500e-001  -3.1004753329e-003   2.9754544664e-005  -1.0918216108e-004
  1.0402750000e+009   1.7299304318e-004   6.1834630264e-004   9.9199382175e-001  -8.1604949239e-003   9.9967299290e-001  -2.1622955916e-003   4.1728464735e-004  -2.6517049128e-004
  1.0488625000e+009   4.0490953705e-004   4.9605000572e-004   9.9254170018e-001  -7.3679810200e-003   9.9915580028e-001  -2.4820576732e-003   5.4971016668e-004  -4.1797238454e-004
  1.0574500000e+009   6.9294796391e-004   4.6040591254e-006   9.9239583243e-001  -7.7359529664e-003   9.9937241975e-001  -2.3255454232e-003   7.5712381775e-004  -6.7806822859e-004
