# Hz S RI R 50.000000
! Metas.Vna.Tools, 2.8.8664.20301
! Metas.Vna.Data, 2.8.8664.20285
! Created: UTC 2024.02.11 10:08:17
! FREQ                re:S1,1             im:S1,1             re:S2,1             im:S2,1             re:S1,2             im:S1,2             re:S2,2             im:S2,2          
  1.3000000000e+008  -2.9698403001e-004  -1.4574166964e-003   9.9268960342e-001  -6.1020359482e-003   1.0006000201e+000  -1.0251441591e-003   7.6835097619e-004   6.5847734408e-004
  1.3858750000e+008  -6.2426904204e-004  -1.6697428686e-003   9.9568283940e-001  -5.1002834964e-003   9.9957247171e-001  -7.3622346961e-004   1.0291005155e-003  -5.0232922541e-005
  1.4717500000e+008  -1.7984376864e-003  -7.9324771114e-004   9.9427968268e-001  -6.2350738151e-003   1.0002939767e+000  -1.0074725348e-003   9.3803810406e-004  -1.6427970304e-004
  1.5576250000e+008  -1.5122221815e-003  -7.6638994661e-005   9.9527116190e-001  -6.0768470412e-003   1.0001380126e+000  -3.5397569952e-004   1.2704101349e-003  -6.3975537066e-004
  1.6435000000e+008  -4.3813047398e-004   9.0546114082e-004   9.9462759892e-001  -5.1732917290e-003   1.0008186133e+000  -9.9474318508e-004   8.1140374724e-004  -1.6464133588e-004
  1.7293750000e+008  -3.8794498015e-004   7.3544862377e-004   9.9545978544e-001  -5.0928785643e-003   1.0001422504e+000  -1.1073920683e-003   6.8526408687e-004  -9.9489046018e-004
  1.8152500000e+008   2.0137950860e-005   4.3357698929e-004   9.9442087772e-001  -5.3954295711e-003   1.0001345904e+000  -1.0218029877e-003   4.6202774990e-004  -2.8674361030e-004
  1.9011250000e+008  -5.3186128034e-004   3.9143764469e-004   9.9557397808e-001  -6.4638330776e-003   1.0005599793e+000  -1.0516362468e-003   1.9583497622e-004  -1.2019864760e-003
  1.9870000000e+008   7.4199203961e-005   6.5792280434e-004   9.9525051241e-001  -5.9521679463e-003   1.0004109361e+000  -1.0062053696e-003   2.8909306230e-004  -5.1424167983e-004
  2.0728750000e+008   2.9884436420e-004   3.7730208813e-004   9.9424758939e-001  -5.7027019768e-003   1.0003694429e+000  -1.5561587118e-003   1.7434808460e-004  -3.8454269901e-005
  2.1587500000e+008   8.8020732866e-005  -5.9450540439e-004   9.9431032323e-001  -5.4610334978e-003   9.9994798409e-001  -9.6688907057e-004  -5.3166374902e-004  -1.7005659564e-004
  2.2446250000e+008   2.9162513387e-004  -5.8236500255e-004   9.9433491277e-001  -5.6509133490e-003   1.0004509415e+000  -1.5235169170e-003  -3.3988860400e-004   5.3970292661e-005
  2.3305000000e+008  -7.5384316607e-005  -1.1645671185e-004   9.9312461876e-001  -6.4429161541e-003   1.0009428544e+000  -1.2627759738e-003  -1.2645237497e-004   8.4259739444e-005
  2.4163750000e+008   1.6674807932e-004  -3.5946200692e-004   9.9120594230e-001  -6.7394672834e-003   1.0004211950e+000  -1.5054633705e-003  -8.3606294458e-004   2.8733268052e-004
  2.5022500000e+008  -6.1190650744e-004  -5.5203050617e-004   9.9368936242e-001  -6.2534639271e-003   1.0007633484e+000  -1.5035511471e-003  -1.0321660954e-003   9.4416399734e-004
  2.5881250000e+008  -4.7753585731e-004  -3.5472308503e-004   9.9341538462e-001  -5.9679076588e-003   9.9989573387e-001  -2.2241562228e-003  -5.1379413213e-004   6.8105389663e-004
  2.6740000000e+008  -9.1322594014e-004  -7.3954285925e-004   9.9388463128e-001  -6.5090726934e-003   1.0008287930e+000  -1.4466813421e-003  -6.5164462453e-004   2.2131571752e-004
  2.7598750000e+008  -1.5463286437e-004  -6.4073821199e-004   9.9344365428e-001  -7.1030184460e-003   1.0004144103e+000  -1.3657132075e-003  -3.3232005523e-004   7.8288451114e-004
  2.8457500000e+008  -1.0631570033e-003  -3.8535154673e-004   9.9293599261e-001  -5.4946747774e-003   1.0006403652e+000  -8.7694677920e-004  -3.4404208049e-004   7.0078459603e-004
  2.9316250000e+008  -2.4525233021e-004  -6.0018282140e-004   9.9427352751e-001  -5.7058089578e-003   1.0006188544e+000  -1.8948799625e-003  -2.4889759595e-004   3.2111565979e-004
  3.0175000000e+008  -9.1553987517e-004   1.4664101324e-004   9.9395964308e-001  -7.7307750778e-003   9.9989035521e-001  -6.4433078268e-004  -4.9030718605e-004   5.1939431837e-004
  3.1033750000e+008  -6.9542089205e-004  -3.3745156250e-005   9.9355611783e-001  -7.1697357344e-003   1.0010312718e+000  -2.1634980475e-003  -5.4992702396e-004   4.3372613447e-004
  3.1892500000e+008  -6.5548897546e-004  -7.9001420701e-006   9.9319671943e-001  -6.9028944435e-003   1.0005130654e+000  -1.3122267830e-003  -9.5888818430e-004   3.2190884951e-004
  3.2751250000e+008  -6.0485043374e-004   1.1441553296e-004   9.9541330320e-001  -8.0820872113e-003   1.0002542099e+000  -2.4294012320e-003  -5.3716806951e-004   1.1150682386e-005
  3.3610000000e+008  -7.5040927830e-004   1.1850544302e-004   9.9529453255e-001  -5.6160117795e-003   1.0009901357e+000  -2.5560781802e-003  -4.9266756854e-004   3.7248909773e-004
  3.4468750000e+008  -8.2642375509e-004   2.6598635088e-004   9.9144782528e-001  -6.2699088219e-003   1.0009389025e+000  -1.2933589799e-003  -7.1900856104e-004  -6.4886749208e-005
  3.5327500000e+008  -7.0021621408e-004   1.6320022074e-004   9.8956481705e-001  -8.6063675017e-003   9.9993301654e-001  -2.7424330057e-003  -7.2601273813e-004   1.6544549444e-004
  3.6186250000e+008  -5.7650099234e-004   4.6030969019e-005   9.9047978853e-001  -8.3261287015e-003   1.0007104163e+000  -1.4167610334e-003  -5.8284684621e-004   3.2536625311e-004
  3.7045000000e+008  -5.2121420796e-004   5.9783098183e-004   9.8902117668e-001  -7.9878071843e-003   1.0008969684e+000  -2.1773018691e-003  -7.4714835415e-004   3.0512329907e-004
  3.7903750000e+008  -4.3579757066e-004   7.1180378510e-004   9.8964301727e-001  -7.4463099522e-003   1.0007107149e+000  -2.3070457013e-003  -3.6306829866e-004   1.6730722116e-004
  3.8762500000e+008  -1.4190469663e-004   3.2555101179e-004   9.9767683447e-001  -4.9472037917e-003   9.9990186852e-001  -1.8360625134e-003  -4.0019084341e-004   7.1239352130e-004
  3.9621250000e+008  -4.2711744887e-005   1.5131568680e-004   9.9441521481e-001  -7.5229962972e-003   1.0006311110e+000  -2.4802276074e-003  -4.3295614392e-004   5.4367923101e-004
  4.0480000000e+008   2.6736921219e-004   3.5708794002e-004   9.9535242691e-001  -6.8625724563e-003   1.0002485217e+000  -1.9539531510e-003  -1.9142543271e-004   2.2959499942e-004
  4.1338750000e+008   1.8828532843e-004   1.4869756351e-004   9.9283958511e-001  -6.1618078195e-003   1.0006508266e+000  -2.0898260908e-003   7.9787851824e-005   3.0053822969e-004
  4.2197500000e+008  -6.7528181622e-005  -1.5888565452e-004   9.9346870756e-001  -7.3657533225e-003   1.0006123965e+000  -1.9833520813e-003  -5.8518864071e-005   4.8567908060e-004
  4.3056250000e+008   2.8571526830e-004  -6.1752896655e-006   9.9481368658e-001  -6.2824911936e-003   1.0008884417e+000  -2.5257725221e-003   4.8831424910e-004   2.6875679177e-004
  4.3915000000e+008   6.2949729809e-005  -2.8792129361e-004   9.9744775982e-001  -5.4342634520e-003   1.0002311196e+000  -2.7640021907e-003   5.8394705651e-004   3.0718960875e-004
  4.4773750000e+008   1.5985452597e-005  -2.4985107696e-004   9.9630417614e-001  -5.7823586402e-003   1.0003969758e+000  -2.3934849242e-003   5.3625619341e-004   8.1829253205e-005
  4.5632500000e+008  -1.6042336009e-004  -3.1329442454e-004   9.9343387912e-001  -5.7407410481e-003   1.0001923801e+000  -2.5427938583e-003   4.8619246358e-004   1.1682360623e-004
  4.6491250000e+008  -4.2636985675e-004  -2.3661622528e-004   9.9363718067e-001  -7.3413521074e-003   1.0000637995e+000  -2.5118983534e-003   4.1235859439e-004   1.5294252696e-004
  4.7350000000e+008  -4.0318651092e-004  -2.0754737034e-004   9.9233507571e-001  -7.0437281375e-003   1.0003826478e+000  -2.4665175691e-003   5.1120847612e-004  -1.9025841202e-004
  4.8208750000e+008  -3.8744590233e-004  -5.0898974795e-005   9.9182183932e-001  -7.7709344862e-003   9.9958938531e-001  -2.0685821067e-003   6.0162637478e-004   8.1809903216e-005
  4.9067500000e+008  -6.9019177506e-006  -3.0084773572e-004   9.9091329467e-001  -8.0034301899e-003   1.0000932711e+000  -2.5352095500e-003   3.0426963379e-004  -2.9003608657e-005
  4.9926250000e+008  -9.1273939762e-005  -3.2064038178e-004   9.9107871839e-001  -7.3620966085e-003   9.9963217869e-001  -2.3552758797e-003   5.1701144020e-004   7.7757810534e-005
  5.0785000000e+008  -4.5956760028e-004  -2.0897114245e-004   9.9259834341e-001  -6.3297126608e-003   9.9986269609e-001  -1.6292248427e-003   5.5358647525e-004   3.3812255331e-004
  5.1643750000e+008  -7.3097204937e-004   4.2430388949e-005   9.9046612571e-001  -5.7987024795e-003   1.0002456714e+000  -2.2960726515e-003   7.6275415208e-004  -9.9930584113e-006
  5.2502500000e+008  -3.2739330744e-004   4.5248329461e-004   9.9106437108e-001  -5.5123811977e-003   1.0006957325e+000  -1.5103740174e-003   2.9992239799e-004  -2.9434180777e-004
  5.3361250000e+008   4.7185694904e-004   4.3191096785e-004   9.9260788893e-001  -7.7553106980e-003   1.0004280328e+000  -1.9825602587e-003  -2.1415764499e-005  -7.2423377362e-004
  5.4220000000e+008   8.3448223932e-004   1.8026038753e-004   9.9251504025e-001  -7.3134748398e-003   1.0009076514e+000  -1.9469118511e-003  -7.9001112854e-004  -4.4465790696e-004
  5.5078750000e+008   8.3993336353e-004  -4.2278485674e-004   9.9332288065e-001  -8.4290377782e-003   1.0005391110e+000  -2.7383220806e-003  -9.1909140768e-004  -2.6836471633e-004
  5.5937500000e+008   4.3928240971e-004  -7.7339813202e-004   9.9277552226e-001  -7.3585471340e-003   1.0004206785e+000  -2.8853904835e-003  -9.7518364117e-004   1.7304726658e-004
  5.6796250000e+008   2.9422384913e-004  -8.3088256963e-004   9.9479546770e-001  -5.7718324371e-003   1.0008493487e+000  -2.8147592386e-003  -1.1528898390e-003   5.4213862246e-004
  5.7655000000e+008  -2.8347470518e-004  -1.1775931457e-003   9.9374417896e-001  -8.1770291144e-003   1.0006867933e+000  -3.3260676898e-003  -7.8525968466e-004   7.8430137106e-004
  5.8513750000e+008  -3.8645501946e-004  -9.0456212015e-004   9.9344936381e-001  -7.3824704643e-003   9.9969202357e-001  -2.8778509673e-003  -9.6158534287e-004   8.5718056832e-004
  5.9372500000e+008  -6.1574218463e-004  -8.7811358318e-004   9.9314554719e-001  -7.2953046651e-003   1.0003315935e+000  -2.4937131755e-003  -5.2549352415e-004   1.0528270378e-003
  6.0231250000e+008  -1.0335264835e-003  -4.8841707004e-004   9.9447051986e-001  -5.3007911607e-003   1.0001635940e+000  -2.6036048749e-003  -4.2984863859e-004   1.0767009442e-003
  6.1090000000e+008  -9.1632525306e-004  -3.3249773666e-004   9.9471359280e-001  -7.8149048325e-003   9.9996715540e-001  -2.5522199334e-003  -4.5928714363e-004   9.2383702359e-004
  6.1948750000e+008  -8.8704411617e-004   6.2400348885e-005   9.9018671508e-001  -6.9772411395e-003   9.9917141196e-001  -2.7996041541e-003  -3.0605861194e-004   6.7930086528e-004
  6.2807500000e+008  -7.5060986374e-004   4.7592483273e-005   9.9427299089e-001  -9.4068379240e-003   1.0004900425e+000  -2.5666214887e-003   1.4137997963e-004   4.7316110510e-004
  6.3666250000e+008  -4.4948304673e-004   6.5846412599e-004   9.9430879228e-001  -6.3215181800e-003   1.0004745757e+000  -3.0792269933e-003   1.6233168715e-004   3.2897041835e-004
  6.4525000000e+008   3.8022314759e-005   6.1833885546e-004   9.9386446125e-001  -7.1932730658e-003   1.0002521565e+000  -2.6129560286e-003   4.0985325312e-004   7.3483470969e-005
  6.5383750000e+008   1.3656195194e-004   3.2726784469e-004   9.9355960382e-001  -6.9352049110e-003   1.0001447937e+000  -3.1463902790e-003   2.1920537770e-004  -1.2339841856e-004
  6.6242500000e+008   4.9114487135e-004   1.2684244639e-004   9.8787260297e-001  -8.4496730609e-003   1.0006740155e+000  -3.6265400263e-003   1.5657309238e-004  -2.9408216205e-004
  6.7101250000e+008   3.9772819940e-004  -2.7482383757e-004   9.9400083293e-001  -6.2949920751e-003   9.9993544759e-001  -2.0576166098e-003   2.8888562194e-004  -7.8269891132e-004
  6.7960000000e+008   6.9149166255e-004  -4.2023879978e-004   9.8999037795e-001  -8.0403757754e-003   1.0005597827e+000  -3.5954575474e-003   2.2319964860e-004  -9.9740776056e-004
  6.8818750000e+008   3.4968088286e-004  -8.0265247877e-004   9.9054556396e-001  -8.8233539252e-003   1.0006275509e+000  -3.6806640965e-003  -7.1362218283e-005  -9.9282580670e-004
  6.9677500000e+008   1.2240731524e-004  -1.0051487045e-003   9.9191123203e-001  -7.3889846472e-003   1.0003130575e+000  -2.9531568039e-003  -2.5149457616e-004  -1.2332773624e-003
  7.0536250000e+008  -2.5484830094e-004  -1.1134967281e-003   9.9017187761e-001  -8.1692415709e-003   9.9983700845e-001  -3.0726053113e-003  -2.3018229050e-004  -1.2211808409e-003
  7.1395000000e+008  -6.3123772347e-004  -1.1396381196e-003   9.8948189597e-001  -7.9806554236e-003   1.0003505375e+000  -3.1491692193e-003  -5.6695779477e-004  -1.2913914187e-003
  7.2253750000e+008  -1.1611034242e-003  -8.4546835105e-004   9.8851926939e-001  -8.7303806055e-003   9.9974630635e-001  -2.9185203663e-003  -9.0521444703e-004  -1.1474907673e-003
  7.3112500000e+008  -1.0529672366e-003  -3.4974475231e-004   9.9017082371e-001  -8.9186335590e-003   1.0003330645e+000  -2.5484849897e-003  -9.4858982267e-004  -9.0365926442e-004
  7.3971250000e+008  -1.1291452935e-003   7.1310609686e-005   9.9151776042e-001  -8.2904651904e-003   9.9954128752e-001  -3.7469713404e-003  -1.1233795208e-003  -6.4921529744e-004
  7.4830000000e+008  -8.6767789236e-004   5.3417609467e-004   9.8993240869e-001  -8.0213025358e-003   9.9984952568e-001  -2.6043036446e-003  -9.5945757102e-004  -6.4970850855e-004
  7.5688750000e+008  -7.5772018535e-004   7.0546625145e-004   9.8973371616e-001  -9.3041081436e-003   9.9960668410e-001  -3.2390164057e-003  -1.1810409551e-003  -1.1634999871e-004
  7.6547500000e+008  -1.7163400955e-005   8.1806594484e-004   9.9135866437e-001  -8.6070731858e-003   9.9973294561e-001  -3.2582744902e-003  -1.1093315028e-003   1.0217561052e-006
  7.7406250000e+008   1.1155756453e-004   8.0877530332e-004   9.9031201022e-001  -8.4291210999e-003   9.9954289614e-001  -3.6672247675e-003  -7.6065020034e-004   2.6986532874e-004
  7.8265000000e+008   5.4064555892e-004   4.6432839407e-004   9.8981200605e-001  -8.8043936335e-003   9.9928552488e-001  -2.9687877359e-003  -6.4771852223e-004   7.6533469236e-004
  7.9123750000e+008   5.6516575692e-004   2.0099998140e-004   9.8906127666e-001  -7.5776076923e-003   9.9927661581e-001  -2.8833839648e-003  -4.1894349125e-004   5.1872516717e-004
  7.9982500000e+008   6.2444334431e-004   1.2616873742e-004   9.8949493124e-001  -7.8906596708e-003   1.0006602154e+000  -1.9540646316e-003  -3.8207999744e-004   7.0203953604e-004
  8.0841250000e+008   7.9011799529e-004   8.6255370437e-005   9.9001139138e-001  -8.9693693289e-003   1.0000133093e+000  -2.7978673532e-003  -3.2286653347e-004   7.7852343438e-004
  8.1700000000e+008   9.8779041038e-004  -1.8358624117e-004   9.9073798205e-001  -8.1135515848e-003   1.0000286736e+000  -2.5463273708e-003  -1.9578668117e-004   7.8689037464e-004
  8.2558750000e+008   9.7495899558e-004  -4.4794697385e-004   9.9162486187e-001  -8.5754370264e-003   1.0007160956e+000  -3.0817145948e-003  -3.4296668357e-004   1.0420255073e-003
  8.3417500000e+008   9.6556293251e-004  -1.0025530616e-003   9.9067183604e-001  -8.2212034066e-003   1.0014751609e+000  -3.5950597851e-003  -2.2467701068e-004   1.2060363805e-003
  8.4276250000e+008   6.4013434705e-004  -1.1873216688e-003   9.8942584682e-001  -9.3028281521e-003   9.9997855803e-001  -3.3586688292e-003  -1.4833982493e-005   1.2241940478e-003
  8.5135000000e+008   1.1713697929e-004  -1.2934860137e-003   9.8938587290e-001  -7.3630705267e-003   1.0011337671e+000  -2.8560089022e-003   1.9708370942e-004   1.3000913616e-003
  8.5993750000e+008  -1.9581125546e-004  -1.1930939035e-003   9.9023122149e-001  -7.8521332971e-003   1.0003503823e+000  -3.7648557437e-003   1.8588837807e-004   1.0843700245e-003
  8.6852500000e+008  -5.8430733355e-004  -8.6033029113e-004   9.8814484016e-001  -8.2802829269e-003   9.9982108079e-001  -4.0059374482e-003   5.9678375348e-004   7.3812776767e-004
  8.7711250000e+008  -5.8598076354e-004  -5.9718263376e-004   9.9018039909e-001  -8.9869838644e-003   1.0007147128e+000  -4.1866838886e-003   4.6357996310e-004   3.3370835068e-004
  8.8570000000e+008  -3.9057038536e-004  -5.0825471812e-004   9.9242808709e-001  -8.2009190797e-003   9.9990673055e-001  -4.3863475000e-003   5.0765753648e-004   5.7713245830e-005
  8.9428750000e+008  -2.2482782439e-004  -2.6760001950e-004   9.9041670777e-001  -1.0618648744e-002   9.9963285155e-001  -4.0767938526e-003   2.4061608064e-004  -2.6840538740e-004
  9.0287500000e+008   2.3979647907e-005  -8.2339777764e-005   9.9274734726e-001  -7.7033453487e-003   9.9960458127e-001  -5.3231974149e-003   6.4328719697e-005  -3.7525081906e-004
  9.1146250000e+008   2.3884911437e-004  -9.9835318410e-005   9.9062606970e-001  -9.7997688336e-003   9.9903161414e-001  -4.2381123021e-003  -4.9606577716e-004  -4.4151727221e-004
  9.2005000000e+008   2.3550116299e-004  -4.6950680927e-004   9.9080596288e-001  -7.7541137044e-003   9.9882666702e-001  -3.3240908807e-003  -6.3076442923e-004  -5.2747769418e-004
  9.2863750000e+008   4.7976345644e-004  -5.3890390743e-004   9.8989284427e-001  -8.6848682207e-003   9.9943272163e-001  -3.7575033631e-003  -9.3942838660e-004  -5.4017266130e-004
  9.3722500000e+008   4.0140589089e-004  -7.5528132589e-004   9.9152164140e-001  -7.2074880746e-003   9.9890796582e-001  -3.4670095578e-003  -1.1552277821e-003  -5.8354678407e-004
  9.4581250000e+008   2.6508361132e-004  -1.1250389084e-003   9.9173250896e-001  -7.8252105452e-003   9.9937368681e-001  -2.8750458445e-003  -1.3200773682e-003  -4.7466069854e-004
  9.5440000000e+008  -8.1676673208e-005  -1.1785192791e-003   9.9222596882e-001  -8.1964154360e-003   9.9978145555e-001  -2.3565198304e-003  -1.4133296496e-003  -4.7547841523e-004
  9.6298750000e+008  -3.8315431892e-004  -1.4467841029e-003   9.9339816521e-001  -6.4656281907e-003   9.9994012669e-001  -4.4288450686e-003  -1.5095726298e-003  -2.4419188847e-004
  9.7157500000e+008  -7.2827543037e-004  -1.3085788012e-003   9.9117079435e-001  -7.9100355705e-003   9.9979115542e-001  -3.5315403247e-003  -1.4536704789e-003  -3.2333891572e-005
  9.8016250000e+008  -9.7965734032e-004  -9.1817733097e-004   9.9424804509e-001  -7.1388702816e-003   9.9962784686e-001  -5.1733408496e-003  -1.5679042573e-003   9.5830618997e-005
  9.8875000000e+008  -1.0997670525e-003  -5.7819097590e-004   9.9211679619e-001  -7.4414251029e-003   9.9971080981e-001  -4.1881344414e-003  -1.4038993136e-003   2.1754344321e-004
  9.9733750000e+008  -1.1282848798e-003  -2.8984952036e-004   9.9162443698e-001  -8.4360139390e-003   9.9860340724e-001  -2.7737577157e-003  -1.1951309296e-003   1.2620333954e-004
  1.0059250000e+009  -1.0774523279e-003   1.6348010176e-004   9.9184807193e-001  -7.9413465054e-003   1.0008694327e+000  -3.9109245157e-003  -7.6103683266e-004   2.4906408369e-004
  1.0145125000e+009  -8.3786011900e-004   5.3185100572e-004   9.9235759475e-001  -1.0453268662e-002   9.9967107232e-001  -3.9847514417e-003  -4.7605728401e-004   3.4398128251e-004
  1.0231000000e+009  -4.9634779097e-004   4.6975014549e-004   9.9060150261e-001  -7.4889103551e-003   9.9953238912e-001  -3.2674155206e-003  -2.8455614739e-004   3.3953911211e-004
  1.0316875000e+009  -2.1736030586e-004   7.3750478081e-004   9.9128534357e-001  -9.3519050591e-003   9.9942816237e-001  -4.1861689862e-003  -2.1855216526e-005   1.4267627581e-004
  1.0402750000e+009   2.5347616781e-004   7.6155614977e-004   9.9024109923e-001  -8.1205110807e-003   9.9987042634e-001  -3.6542428279e-003   3.0884465456e-004   3.5592335156e-005
  1.0488625000e+009   5.4668161031e-004   5.6865537772e-004   9.9112215442e-001  -8.2729768621e-003   9.9924520510e-001  -3.8468154712e-003   7.0467680747e-004  -1.3043132060e-004
  1.0574500000e+009   7.2443335542e-004   2.3449338144e-004   9.8992933265e-001  -8.5857197538e-003   9.9940657035e-001  -4.1567340557e-003   8.5298552527e-004  -3.7442649073e-004
