# Hz S RI R 50.000000
! Metas.Vna.Tools, 2.8.8664.20301
! Metas.Vna.Data, 2.8.8664.20285
! Created: UTC 2024.02.11 10:08:30
! FREQ                re:S1,1             im:S1,1             re:S2,1             im:S2,1             re:S1,2             im:S1,2             re:S2,2             im:S2,2          
  1.3000000000e+008   8.2537540563e-004  -1.2232177678e-003   9.8770390963e-001  -7.6284262457e-003   1.0010546139e+000  -3.4948176554e-004   5.7571049293e-004   7.8958497301e-004
  1.3858750000e+008  -1.8823642011e-004  -1.4441073168e-003   9.8958321085e-001  -7.4816037451e-003   1.0006200153e+000   6.6249169985e-005   8.4939387076e-004   2.0054690886e-004
  1.4717500000e+008  -1.8954826126e-003  -1.4269287545e-003   9.9073655137e-001  -8.3647618023e-003   1.0010458398e+000   1.6322095680e-004   4.9221803720e-004   2.2156753678e-004
  1.5576250000e+008  -9.5236932538e-004  -1.2987672979e-004   9.9462328605e-001  -6.6161778371e-003   1.0005794942e+000   3.7689266662e-004   1.1987470735e-003  -1.0396639188e-003
  1.6435000000e+008  -9.8175270542e-004   7.2930511581e-004   9.9487870937e-001  -4.9108863122e-003   1.0008680311e+000  -2.2272123909e-004   5.1679042600e-004  -5.7733125194e-004
  1.7293750000e+008  -7.1998467339e-004   3.1946447066e-004   9.9468526237e-001  -4.6041165031e-003   1.0005121986e+000  -2.1238484095e-004   7.3847094148e-004  -9.4141827934e-004
  1.8152500000e+008  -2.8280134504e-004   3.6232111765e-004   9.9435453472e-001  -6.3815663515e-003   1.0004986644e+000  -5.3943613488e-004   7.1755007432e-004  -9.3769328657e-004
  1.9011250000e+008  -5.0654373028e-004   5.0482159710e-004   9.9575189507e-001  -7.1586199730e-003   1.0011782476e+000  -8.5520793587e-004   2.0118152472e-004  -9.7545690888e-004
  1.9870000000e+008  -2.4621722283e-004   8.1547089585e-004   9.9612447950e-001  -5.8656536281e-003   1.0004583738e+000  -5.5698508543e-004   2.7971574039e-004  -4.4560253147e-004
  2.0728750000e+008   2.6709050205e-004  -4.1022985192e-005   9.9351003821e-001  -5.3072451710e-003   1.0009289467e+000  -8.9945999625e-004  -1.6419587051e-004  -3.4948005052e-004
  2.1587500000e+008   2.8988032927e-004  -2.5137763474e-004   9.9597667720e-001  -5.3604593914e-003   9.9995719936e-001  -5.2138152574e-004  -6.7120791696e-004  -2.0286373958e-005
  2.2446250000e+008   5.9058056397e-004  -1.4643102434e-004   9.9432196124e-001  -6.4051077694e-003   1.0003539966e+000  -5.5096820603e-004  -4.2827078949e-004  -1.5391081811e-004
  2.3305000000e+008  -7.6000190118e-005   7.2909388066e-005   9.9374125131e-001  -6.9884288905e-003   1.0003569643e+000  -9.5140395509e-004  -5.7036608806e-004  -1.4832834057e-005
  2.4163750000e+008  -1.1418167455e-004  -5.3934249545e-004   9.9296800184e-001  -7.4660227018e-003   1.0000752444e+000  -8.5389387462e-004  -9.6448364506e-004   1.3210346681e-004
  2.5022500000e+008  -4.2323734939e-004  -1.0789317793e-003   9.9415749271e-001  -6.0258057042e-003   1.0005926221e+000  -1.3873095075e-003  -7.9090484729e-004   7.8415148586e-004
  2.5881250000e+008  -3.0602473371e-004  -3.9972124479e-004   9.9204143563e-001  -7.0022318240e-003   1.0009938866e+000  -1.3069146029e-003  -4.0099589826e-004   5.2778249937e-004
  2.6740000000e+008  -8.8184402523e-004  -5.5394825975e-004   9.9419178861e-001  -7.7923060204e-003   1.0001181648e+000  -1.5695158741e-003  -3.1429671160e-004   1.0582327242e-004
  2.7598750000e+008  -5.7697906991e-004  -1.6713071321e-004   9.9220665460e-001  -7.4611361008e-003   1.0004506282e+000  -1.2460214075e-003  -4.8800012869e-004   3.7963212538e-004
  2.8457500000e+008  -8.1927645149e-004  -4.0934375648e-004   9.9208323718e-001  -6.5323794977e-003   1.0005385100e+000  -9.4200673617e-004  -3.9167828019e-004   4.8671807727e-004
  2.9316250000e+008  -5.9074934927e-004  -6.1711742048e-004   9.9376128385e-001  -5.6495699058e-003   1.0002179416e+000  -1.9864645347e-003  -1.9172804710e-004   5.0429515433e-004
  3.0175000000e+008  -8.4844634502e-004   2.7378765615e-004   9.9419852898e-001  -9.2152174906e-003   1.0006885847e+000  -4.5200132917e-004  -4.9145299980e-004   6.4287365551e-004
  3.1033750000e+008  -9.1769135388e-004   2.1771265930e-004   9.9506782063e-001  -5.7156341097e-003   1.0019423063e+000  -1.1273651912e-003  -8.6858835407e-004   7.9655557136e-004
  3.1892500000e+008  -7.8886922408e-004   1.7214848604e-004   9.9393710836e-001  -6.3627598917e-003   1.0007866607e+000  -1.0259736995e-003  -7.5913271344e-004   2.4303095299e-004
  3.2751250000e+008  -8.2814502694e-004   1.5083256999e-004   9.9346496079e-001  -7.0022006047e-003   1.0004737241e+000  -2.3810108690e-003  -6.8793981430e-004   2.8305846003e-004
  3.3610000000e+008  -7.4924527455e-004   2.2940045682e-004   9.9522445220e-001  -7.0657034058e-003   1.0015419761e+000  -1.3309664131e-003  -5.3619957246e-004   1.6187449516e-004
  3.4468750000e+008  -5.5764275800e-004   2.0183257486e-005   9.9326444070e-001  -7.2034305708e-003   1.0002560338e+000  -1.5842779462e-003  -5.5912794179e-004   4.1951873090e-004
  3.5327500000e+008  -5.6894076545e-004   8.4547629684e-005   9.9458993210e-001  -7.3119901813e-003   9.9965907865e-001  -2.0691695493e-003  -4.2892655947e-004   1.7119896697e-004
  3.6186250000e+008  -5.4156644417e-004   3.3222798217e-005   9.9363342421e-001  -8.8448113297e-003   1.0000893605e+000  -1.1922424852e-003  -6.7744899268e-004   2.7229535942e-004
  3.7045000000e+008  -6.5285845607e-004   5.7504412940e-004   9.9169337720e-001  -6.6375403170e-003   1.0006708559e+000  -1.5674382891e-003  -5.1738512933e-004   1.0253354752e-004
  3.7903750000e+008  -5.9505982300e-005   3.7316400661e-004   9.9240936629e-001  -6.2805860584e-003   1.0001896513e+000  -1.0738399474e-003  -3.4138829437e-004   1.1141295048e-004
  3.8762500000e+008  -2.7107399151e-004   5.9794179900e-004   9.9488586274e-001  -6.1200988914e-003   1.0001801820e+000  -1.1112932488e-003  -2.7249681058e-004   5.4713504424e-004
  3.9621250000e+008   1.3953959210e-004   3.8429706570e-004   9.9398768316e-001  -6.3068997695e-003   1.0005321301e+000  -1.5102668865e-003  -5.0170773653e-004   5.3312520349e-004
  4.0480000000e+008   2.7246486401e-004   4.2501627911e-004   9.9445727655e-001  -6.4015897143e-003   1.0001574514e+000  -1.2307367961e-003   7.9432723955e-005   2.9941421321e-004
  4.1338750000e+008   1.8397216671e-005   1.4511360529e-005   9.9430756439e-001  -6.2041826035e-003   1.0007920455e+000  -1.5326559821e-003  -6.5050462889e-005   4.3243911899e-004
  4.2197500000e+008   5.1023764380e-005  -7.9117126418e-005   9.9534412659e-001  -6.9357209410e-003   1.0008713271e+000  -1.4786653290e-003   1.2662542444e-004   3.7281905286e-004
  4.3056250000e+008   2.2019113947e-004   4.1098370370e-005   9.9824045129e-001  -6.1097218797e-003   1.0009316646e+000  -1.7186311289e-003   4.5905100936e-004   3.6973185778e-004
  4.3915000000e+008  -5.3656378620e-005  -3.6123556535e-004   9.9907172378e-001  -4.0768210780e-003   1.0006023057e+000  -1.8109510116e-003   3.8631566175e-004   3.5532046069e-004
  4.4773750000e+008   7.6584790493e-005  -3.1699484737e-004   9.9806427611e-001  -5.5697213998e-003   1.0008482435e+000  -2.0812219858e-003   7.0072395612e-004   1.9288178738e-004
  4.5632500000e+008  -1.5889475695e-004  -2.6449836308e-004   9.9641061729e-001  -6.4010195537e-003   1.0006272692e+000  -1.6234414070e-003   7.4821796005e-004   1.6354822474e-004
  4.6491250000e+008  -4.5928276455e-004  -2.6159028205e-004   9.9197429440e-001  -8.6091758201e-003   1.0000795524e+000  -1.8275970629e-003   4.9959765600e-004   1.2468756309e-004
  4.7350000000e+008  -5.4586229607e-004  -2.1606799076e-004   9.9109496934e-001  -8.9088822790e-003   1.0006039246e+000  -2.0328618927e-003   5.1687248541e-004  -4.7071810943e-005
  4.8208750000e+008  -3.2314177431e-004   5.4348461612e-005   9.8972152104e-001  -8.5212092873e-003   9.9992956565e-001  -1.5878554911e-003   6.9705437750e-004   1.0768668944e-004
  4.9067500000e+008  -1.6296733394e-004  -3.8975217668e-004   9.8917894634e-001  -8.3625523189e-003   1.0002102866e+000  -1.8628555541e-003   2.8592343803e-004   7.9368896976e-005
  4.9926250000e+008  -6.0359409028e-005  -3.3805842479e-004   9.9040030511e-001  -8.0203017295e-003   9.9978556617e-001  -1.7510793163e-003   4.6031046628e-004  -8.4784525517e-005
  5.0785000000e+008  -3.7753439850e-004  -2.7570546536e-004   9.8994716560e-001  -7.6797888364e-003   9.9992270898e-001  -1.0567158481e-003   3.1786113121e-004   3.3020053408e-004
  5.1643750000e+008  -4.9277270246e-004   9.3567653918e-005   9.8988782291e-001  -6.4716198438e-003   1.0006289400e+000  -1.2297626948e-003   7.9379481340e-004  -2.5804463855e-005
  5.2502500000e+008  -2.9903111986e-004   4.8317840759e-004   9.8930277280e-001  -7.7260514483e-003   1.0006293440e+000  -9.1193136340e-004   1.0737327755e-004  -4.0105958771e-004
  5.3361250000e+008   3.7186416377e-004   3.8385132969e-004   9.9005082875e-001  -8.5727000702e-003   1.0006522682e+000  -1.7678730939e-003  -1.0067804756e-005  -5.5662147774e-004
  5.4220000000e+008   6.4836062709e-004   4.9036512810e-005   9.8982989398e-001  -9.1768296794e-003   1.0009007835e+000  -1.7186716325e-003  -6.9091594440e-004  -1.6646354457e-004
  5.5078750000e+008   6.3977673015e-004  -5.8486854256e-004   9.8974697869e-001  -8.0238579980e-003   1.0002089072e+000  -2.6668698680e-003  -9.9447151801e-004  -2.4039054242e-004
  5.5937500000e+008   4.2088475738e-004  -7.3793483928e-004   9.8790444090e-001  -8.7137018831e-003   1.0004326934e+000  -1.6058567295e-003  -9.6610280950e-004   2.0621561852e-004
  5.6796250000e+008   2.4999336642e-004  -9.5294366692e-004   9.9070875055e-001  -7.9004807274e-003   1.0005091366e+000  -2.4168895989e-003  -1.0456248029e-003   3.1631964415e-004
  5.7655000000e+008  -1.1370205248e-004  -1.0477660211e-003   9.8972962675e-001  -1.0651582365e-002   1.0003801482e+000  -3.1930618601e-003  -9.0585310872e-004   7.4547513277e-004
  5.8513750000e+008  -4.1678123107e-004  -1.0496022178e-003   9.8893491841e-001  -1.0305292198e-002   1.0002597944e+000  -1.7287984282e-003  -7.1376639784e-004   8.8267839938e-004
  5.9372500000e+008  -5.1578283503e-004  -9.7857705014e-004   9.8856437414e-001  -8.0218854864e-003   9.9942039042e-001  -2.5241795806e-003  -6.7568760316e-004   1.1147155678e-003
  6.0231250000e+008  -1.1676138021e-003  -5.1268492105e-004   9.8938484743e-001  -6.7567546707e-003   1.0001835549e+000  -1.8216005264e-003  -5.4310944230e-004   9.7619224395e-004
  6.1090000000e+008  -8.6495544606e-004  -4.4813607748e-004   9.8836849086e-001  -9.8870759575e-003   1.0003153049e+000  -1.9763813341e-003  -4.0417333796e-004   9.7754467082e-004
  6.1948750000e+008  -8.6633416645e-004  -9.4204313786e-005   9.8854782380e-001  -9.1688099171e-003   9.9964265966e-001  -2.1086655840e-003  -2.8073801033e-004   7.4237614077e-004
  6.2807500000e+008  -8.0427167933e-004  -4.1020792897e-005   9.9009307125e-001  -1.0037037823e-002   1.0001511993e+000  -2.3865952730e-003  -1.6956885691e-005   3.6932685546e-004
  6.3666250000e+008  -4.1882268345e-004   6.1618817509e-004   9.9084325544e-001  -8.6959765330e-003   1.0006899322e+000  -2.4032064889e-003   1.4762010574e-005   2.8751616390e-004
  6.4525000000e+008  -2.2378672346e-004   5.3326598134e-004   9.8881810466e-001  -9.0407167514e-003   9.9988720218e-001  -2.1733442089e-003   1.7999499751e-004  -6.5866725015e-007
  6.5383750000e+008   1.2225393956e-004   3.1896919846e-004   9.8982451587e-001  -8.0344986192e-003   9.9999518966e-001  -1.8619347663e-003   3.5814993988e-004  -2.3615340518e-004
  6.6242500000e+008   3.6253443256e-004   2.0082710414e-004   9.8780649721e-001  -8.2444048866e-003   1.0006481093e+000  -2.4395054732e-003   2.0869376102e-004  -3.7705879489e-004
  6.7101250000e+008   4.0936445724e-004   1.7061800450e-005   9.9032913112e-001  -8.3364421808e-003   9.9986794506e-001  -1.9501886018e-003   3.0235373568e-004  -6.5426950987e-004
  6.7960000000e+008   8.0086639712e-004  -4.2188759515e-004   9.8627053278e-001  -9.1688110996e-003   1.0007786198e+000  -2.7609269795e-003   3.3411127596e-005  -1.0118705250e-003
  6.8818750000e+008   2.3439629217e-004  -9.7795889243e-004   9.8977187469e-001  -9.5775310860e-003   1.0000399438e+000  -2.6976027191e-003   9.4462363714e-005  -1.1417709893e-003
  6.9677500000e+008   3.3381975943e-004  -9.6816695909e-004   9.8853928877e-001  -8.1900362259e-003   1.0006532873e+000  -2.5391970971e-003  -3.0184470213e-004  -1.2209457989e-003
  7.0536250000e+008  -9.2211785629e-005  -1.2045764187e-003   9.8837230930e-001  -9.6525892856e-003   1.0005521753e+000  -2.5056619882e-003  -4.7895665942e-004  -1.2558970805e-003
  7.1395000000e+008  -5.7145032439e-004  -1.1310520176e-003   9.8867633246e-001  -8.5071712408e-003   1.0001665896e+000  -2.2483257035e-003  -6.4395696836e-004  -1.1537829433e-003
  7.2253750000e+008  -1.1422554326e-003  -9.8468627791e-004   9.8667577776e-001  -9.3422990708e-003   9.9999951270e-001  -2.3719192737e-003  -8.8034703713e-004  -1.1682862775e-003
  7.3112500000e+008  -1.1787127988e-003  -5.8575661983e-004   9.8580093353e-001  -9.3610460075e-003   9.9993789123e-001  -2.5502816938e-003  -8.6669228186e-004  -9.0372131616e-004
  7.3971250000e+008  -1.1119386110e-003  -1.5153613759e-004   9.8969061468e-001  -9.4678416660e-003   9.9970697126e-001  -2.5071095307e-003  -1.0928452995e-003  -7.3548910303e-004
  7.4830000000e+008  -9.8864580310e-004   4.3838377528e-004   9.8920001786e-001  -7.8600301139e-003   9.9931726731e-001  -2.4706662376e-003  -1.0269107828e-003  -5.7813580109e-004
  7.5688750000e+008  -9.0432298656e-004   5.9503965447e-004   9.8842706577e-001  -1.0135646356e-002   9.9971914758e-001  -3.0152244553e-003  -1.1304777160e-003  -2.2682864227e-004
  7.6547500000e+008  -2.7380231613e-004   7.5044218840e-004   9.9175739726e-001  -8.9556482611e-003   9.9947021344e-001  -2.6171621299e-003  -1.1990407337e-003   4.6149948005e-005
  7.7406250000e+008  -2.9275413924e-005   8.4069528615e-004   9.9187810276e-001  -9.0981063912e-003   9.9968109134e-001  -2.5062431965e-003  -8.5568597078e-004   1.7998730123e-004
  7.8265000000e+008   4.2658282102e-004   5.3172313373e-004   9.9005719361e-001  -7.9044372970e-003   9.9965147012e-001  -2.7060201439e-003  -8.9694840546e-004   6.3001646243e-004
  7.9123750000e+008   7.3728558609e-004   3.5669119449e-004   9.9097257623e-001  -6.7988095220e-003   9.9983627743e-001  -1.7773162488e-003  -8.6138233635e-004   5.5940602897e-004
  7.9982500000e+008   8.4758540129e-004   2.1244133590e-004   9.9155363107e-001  -7.7661119685e-003   1.0001697793e+000  -1.9329500751e-003  -5.4344257012e-004   7.6235016496e-004
  8.0841250000e+008   1.0293337439e-003   9.7197320132e-005   9.9037927117e-001  -8.8892630936e-003   1.0001217346e+000  -2.0253373866e-003  -5.1995300763e-004   8.6403800078e-004
  8.1700000000e+008   1.1161895747e-003  -3.2026520496e-004   9.9083050175e-001  -8.8821724120e-003   1.0005450221e+000  -2.5887984387e-003  -3.3250968943e-004   9.4257512488e-004
  8.2558750000e+008   1.1691838010e-003  -5.2331271224e-004   9.8840477742e-001  -8.7180332887e-003   1.0009962692e+000  -2.6580627355e-003  -2.6916270915e-004   9.8548084805e-004
  8.3417500000e+008   8.9974742882e-004  -1.1829537815e-003   9.8773462194e-001  -1.0410131605e-002   1.0010262503e+000  -2.9188542764e-003  -1.2045364757e-004   1.1719560148e-003
  8.4276250000e+008   5.6771906478e-004  -1.1617451309e-003   9.8775915670e-001  -8.6891863991e-003   9.9916290845e-001  -2.4673107645e-003   7.3212582980e-005   1.0797372002e-003
  8.5135000000e+008   6.0037434294e-005  -1.3708405199e-003   9.8814958517e-001  -9.3784172094e-003   1.0003371864e+000  -2.9188100461e-003   3.2402001147e-004   1.1580050244e-003
  8.5993750000e+008  -1.4785821255e-004  -1.2516693127e-003   9.8743582812e-001  -8.9179107062e-003   1.0005942735e+000  -3.1143268904e-003   3.7515412308e-004   1.1106014939e-003
  8.6852500000e+008  -5.0783708061e-004  -9.1163085293e-004   9.8468970017e-001  -1.0677924787e-002   1.0000155362e+000  -2.0109512915e-003   5.3342115214e-004   6.6188935883e-004
  8.7711250000e+008  -6.2873270507e-004  -6.7184729954e-004   9.8598607391e-001  -1.0665210319e-002   1.0001757405e+000  -2.9000263531e-003   3.9775923759e-004   1.8143197217e-004
  8.8570000000e+008  -4.4053939499e-004  -4.7427845409e-004   9.8872370554e-001  -8.9609405613e-003   9.9968913120e-001  -3.0960975008e-003   3.4613773696e-004  -1.0686128023e-005
  8.9428750000e+008  -3.9549496292e-004  -2.7337334136e-004   9.9128203610e-001  -9.6096820702e-003   9.9982374134e-001  -3.0249727012e-003   2.6923675378e-004  -2.8388779481e-004
  9.0287500000e+008   8.5773487514e-005  -2.3256878864e-004   9.9228935160e-001  -8.9363029063e-003   9.9948814608e-001  -3.3327425367e-003   2.6799589420e-005  -2.8273920838e-004
  9.1146250000e+008   2.3084103339e-004  -1.3218143553e-004   9.9279060761e-001  -9.2362012623e-003   9.9888534206e-001  -3.9242416308e-003  -2.9732051337e-004  -3.8435667412e-004
  9.2005000000e+008   3.1661400694e-004  -3.0383718459e-004   9.9180161555e-001  -7.9114933108e-003   9.9889329743e-001  -2.2966755329e-003  -6.2722283197e-004  -6.8138602840e-004
  9.2863750000e+008   5.9843477509e-004  -5.8504896435e-004   9.9223812562e-001  -7.6013785947e-003   9.9998750148e-001  -3.5800913099e-003  -8.2269338048e-004  -7.7362074098e-004
  9.3722500000e+008   5.6172628497e-004  -7.7946579189e-004   9.8943114766e-001  -8.7949486358e-003   9.9982144810e-001  -2.6858535105e-003  -1.1767662860e-003  -6.3052402697e-004
  9.4581250000e+008   2.4087257680e-004  -1.1260479419e-003   9.9214395054e-001  -7.4303282459e-003   9.9915211590e-001  -2.2231357296e-003  -1.3279331013e-003  -4.5151143927e-004
  9.5440000000e+008   2.3699799739e-006  -1.2079950912e-003   9.9112475300e-001  -8.9548406554e-003   9.9969563446e-001  -1.3440407189e-003  -1.5584337364e-003  -3.0832412342e-004
  9.6298750000e+008  -2.1704719152e-004  -1.2573194274e-003   9.9275275393e-001  -7.5501350592e-003   1.0000302191e+000  -3.3603740803e-003  -1.5687956949e-003  -1.6190762896e-004
  9.7157500000e+008  -5.8831282197e-004  -1.2331507518e-003   9.9251742942e-001  -8.7017272358e-003   1.0001181184e+000  -2.7572474233e-003  -1.5479525369e-003  -2.2757580313e-004
  9.8016250000e+008  -9.3571886486e-004  -1.0639107491e-003   9.9083213889e-001  -9.0268190851e-003   9.9935385862e-001  -3.9051863974e-003  -1.4383020697e-003   9.6157572740e-005
  9.8875000000e+008  -1.1813126807e-003  -7.1574209673e-004   9.8571354479e-001  -1.1572353060e-002   9.9923353301e-001  -2.1681825147e-003  -1.2082824897e-003   2.9077693397e-004
  9.9733750000e+008  -1.1499662739e-003  -4.3293490423e-004   9.8392310450e-001  -1.0816765479e-002   9.9957010209e-001  -2.5396318177e-003  -1.0827741428e-003   2.1669059413e-004
  1.0059250000e+009  -1.0337779062e-003   7.6566521602e-005   9.8653801811e-001  -9.6533894936e-003   1.0003574869e+000  -2.4523801309e-003  -7.2374962826e-004   3.2688985867e-004
  1.0145125000e+009  -8.7215883259e-004   3.8892045530e-004   9.8766403331e-001  -1.2329976293e-002   9.9928438805e-001  -3.0773713143e-003  -3.0336795343e-004   2.7453404833e-004
  1.0231000000e+009  -6.0370138048e-004   5.3674674590e-004   9.8776698663e-001  -1.0255582298e-002   9.9972382223e-001  -3.7526302515e-003  -2.3564898504e-004   2.5373893739e-004
  1.0316875000e+009  -1.6656537680e-004   8.8485479996e-004   9.8724430161e-001  -1.1082248685e-002   9.9981977733e-001  -3.6007705090e-003   1.1820107319e-004   1.4045235104e-004
  1.0402750000e+009   1.9665897253e-004   7.6470933181e-004   9.8642614461e-001  -1.0483330120e-002   9.9950948062e-001  -3.3839501074e-003   4.2431556219e-004  -7.7650427591e-005
  1.0488625000e+009   5.6069165854e-004   5.8546137558e-004   9.8635651738e-001  -1.0057781073e-002   9.9946504414e-001  -3.0388645813e-003   7.0492933329e-004  -2.8636946925e-004
  1.0574500000e+009   7.8635365504e-004   3.9348212583e-004   9.8696339996e-001  -1.0262299721e-002   9.9950048007e-001  -3.1109025856e-003   7.3549429723e-004  -5.2890646541e-004
