# Hz S RI R 50.000000
! Metas.Vna.Tools, 2.8.8664.20301
! Metas.Vna.Data, 2.8.8664.20285
! Created: UTC 2024.02.11 10:08:11
! FREQ                re:S1,1             im:S1,1             re:S2,1             im:S2,1             re:S1,2             im:S1,2             re:S2,2             im:S2,2          
  1.3000000000e+008   1.3368617900e-005  -1.5760650639e-003   9.9830596294e-001  -5.7358500172e-003   1.0001538172e+000  -1.5527842826e-003   8.1719386656e-004   7.2335063559e-004
  1.3858750000e+008  -6.3125304028e-004  -1.1780531856e-003   9.9923404689e-001  -4.3193613137e-003   1.0009918792e+000  -1.4473917869e-003   1.5616254426e-003  -4.1091135278e-004
  1.4717500000e+008  -1.2468474582e-003  -9.0896890975e-004   9.9790453968e-001  -5.2822899030e-003   1.0003671297e+000  -1.4826297860e-003   1.1203621149e-003   3.5456448816e-004
  1.5576250000e+008  -1.5608600423e-003   2.7266493111e-004   9.9912839338e-001  -4.3731413738e-003   1.0000492792e+000  -1.4558970056e-003   8.2880673935e-004  -8.7573036329e-004
  1.6435000000e+008  -1.0230340621e-003   6.6966039079e-004   9.9860594407e-001  -4.4422144085e-003   1.0009458981e+000  -1.4091270695e-003   1.2588225156e-003  -6.8155433747e-004
  1.7293750000e+008  -8.9474606577e-004   1.2953914913e-003   9.9924269619e-001  -3.9397085466e-003   1.0003436273e+000  -1.6366167677e-003   8.0551152434e-004  -8.8093167050e-004
  1.8152500000e+008  -1.4393091721e-004   8.5391872764e-004   9.9731990259e-001  -5.5590744518e-003   9.9996818309e-001  -2.0067814176e-003   4.8195229218e-004  -6.4456574007e-004
  1.9011250000e+008  -6.7333583363e-004   1.2523585568e-003   9.9968368924e-001  -6.0417301314e-003   1.0006526294e+000  -2.5697999480e-003   1.9349678361e-004  -1.0581215529e-003
  1.9870000000e+008  -1.1620701050e-004   1.0645670413e-003   9.9885418680e-001  -4.7376316631e-003   1.0003373705e+000  -2.1750697873e-003   2.7842289609e-004  -3.6136372381e-004
  2.0728750000e+008   7.6951131835e-005   3.9060440585e-004   9.9789069537e-001  -4.7634539570e-003   1.0012457164e+000  -2.1275219012e-003   9.5138428774e-005  -1.4989484770e-004
  2.1587500000e+008   4.1901631584e-004  -2.1547837688e-004   9.9984352609e-001  -4.6698635723e-003   9.9963900006e-001  -1.5891673975e-003  -7.2813935703e-005   1.3228379180e-004
  2.2446250000e+008   3.2116666001e-004  -6.2459125016e-004   9.9858251520e-001  -4.5400399415e-003   1.0005462011e+000  -2.3489696397e-003  -2.2741387876e-004   1.6242917061e-004
  2.3305000000e+008   1.5694268083e-004   2.6524237448e-005   9.9803988233e-001  -4.6626039026e-003   1.0001837053e+000  -1.9489376196e-003  -2.2544795658e-004   1.0874320563e-004
  2.4163750000e+008   2.0773816684e-004  -4.4678908985e-004   9.9580797691e-001  -7.1178200406e-003   1.0004244136e+000  -2.6098197386e-003  -3.0154393555e-004   1.4098792512e-004
  2.5022500000e+008  -2.4985150719e-004  -5.9732287410e-004   9.9572304235e-001  -5.9146098222e-003   9.9994120274e-001  -1.8723177519e-003  -9.8973696330e-004   7.1477427817e-004
  2.5881250000e+008  -9.5091794349e-004  -7.5959408524e-004   9.9654486462e-001  -6.0054808720e-003   1.0005839236e+000  -3.0472477198e-003  -7.4296442901e-004   7.0405866457e-004
  2.6740000000e+008  -8.9418027531e-004  -4.9784929016e-004   9.9799699815e-001  -7.5575695103e-003   1.0003130495e+000  -3.5148025155e-003  -4.7577701205e-004   2.3806268688e-004
  2.7598750000e+008  -4.0121311164e-004  -3.6183281320e-004   9.9749851647e-001  -5.6829676437e-003   1.0003538676e+000  -2.2085089062e-003  -2.6626789738e-004   7.6199351101e-004
  2.8457500000e+008  -9.8416622948e-004  -5.5616775677e-004   9.9658866472e-001  -5.0625921442e-003   1.0002044138e+000  -1.7327130049e-003  -1.9002012978e-004   4.4966669879e-004
  2.9316250000e+008  -8.2954386119e-004  -8.0140137800e-005   9.9692251397e-001  -5.3643924432e-003   1.0008885787e+000  -2.8464342379e-003  -2.7362174379e-004   4.6332421888e-004
  3.0175000000e+008  -1.1324444022e-003   5.2872428110e-004   9.9695172982e-001  -7.1094951465e-003   1.0002706654e+000  -1.8703744489e-003  -5.6309171777e-004   3.3522889085e-004
  3.1033750000e+008  -8.5356092695e-004   4.8741411949e-004   9.9726460691e-001  -4.3733889444e-003   1.0010459245e+000  -2.5694556324e-003  -6.4027793764e-004   5.8129403584e-004
  3.1892500000e+008  -9.1322293207e-004   2.1680822104e-004   9.9724115979e-001  -6.5693026934e-003   1.0004381170e+000  -2.4492627022e-003  -8.6519523192e-004   2.2013275236e-004
  3.2751250000e+008  -5.6304308895e-004   4.0581526933e-004   9.9737525186e-001  -6.4592902561e-003   1.0003544199e+000  -3.2005321961e-003  -5.8964115859e-004   3.0119340487e-004
  3.3610000000e+008  -7.2155090302e-004   1.3409629051e-004   9.9967975060e-001  -5.3032115303e-003   1.0017415205e+000  -3.1092277174e-003  -6.0918676311e-004   1.1020654408e-004
  3.4468750000e+008  -3.7921278020e-004   1.7689488065e-004   9.9667999932e-001  -6.3532184047e-003   1.0002854158e+000  -2.5446638450e-003  -3.9252570842e-004  -1.3051321273e-005
  3.5327500000e+008  -4.4750899112e-004   1.8100437964e-004   9.9584515911e-001  -7.1832387004e-003   9.9890528635e-001  -3.3511017880e-003  -8.3282320609e-004  -5.2557350691e-005
  3.6186250000e+008  -5.1804045907e-004   8.5453187166e-005   9.9642471121e-001  -6.1538919562e-003   1.0007136649e+000  -2.8169785628e-003  -3.0374850508e-004   4.4715083252e-004
  3.7045000000e+008  -8.4953869119e-004   2.2256386262e-004   9.9291784176e-001  -6.5419894008e-003   1.0009001402e+000  -3.2476696953e-003  -6.1996641435e-004   2.1541518543e-004
  3.7903750000e+008  -3.8582129128e-004   5.3500677664e-004   9.8983554344e-001  -7.5247763301e-003   1.0007558296e+000  -3.2920619436e-003  -5.5426506445e-004   1.0113075338e-004
  3.8762500000e+008  -5.2117061428e-004   2.0274494869e-004   9.9744608440e-001  -5.6477162944e-003   9.9970472184e-001  -2.9078095683e-003  -5.3735507877e-004   5.4020740427e-004
  3.9621250000e+008  -1.3899698042e-004   1.9270453879e-004   9.9614024735e-001  -5.9410556087e-003   1.0007802286e+000  -2.8273547633e-003  -6.0558947183e-004   5.1789077381e-004
  4.0480000000e+008   1.9023486458e-004   3.7781535575e-004   9.9772282599e-001  -6.4953460793e-003   1.0006343563e+000  -3.1710841419e-003  -7.9683817892e-005   3.5611066661e-004
  4.1338750000e+008  -1.6692512754e-004   2.6501189337e-004   9.9654093106e-001  -5.9962231999e-003   1.0009584901e+000  -2.7373018610e-003   1.8454578312e-004   3.6933281566e-004
  4.2197500000e+008  -2.1840477909e-004   3.6603025245e-005   9.9744913270e-001  -6.3294600037e-003   1.0006813420e+000  -2.8012609386e-003   2.1557179057e-004   5.0780649529e-004
  4.3056250000e+008   1.0815790728e-004   3.8760397518e-004   9.9770558989e-001  -5.8121936939e-003   1.0005805704e+000  -3.1350217131e-003   4.5124392363e-004   3.2502621480e-004
  4.3915000000e+008   9.9921050037e-005  -8.5876954464e-005   9.9839501788e-001  -5.3516413311e-003   1.0002379251e+000  -3.6274894736e-003   3.5097536136e-004   3.1513421358e-004
  4.4773750000e+008   1.3419166559e-004  -1.0543312897e-004   9.9894447617e-001  -5.7571715976e-003   1.0003410243e+000  -3.4557586210e-003   5.2175918473e-004  -5.0082764717e-005
  4.5632500000e+008   1.3888211622e-004  -3.6705890732e-004   9.9616036043e-001  -5.2523596514e-003   1.0002453908e+000  -3.1761532324e-003   6.8431411167e-004   1.6812198260e-004
  4.6491250000e+008   1.3907267761e-004  -1.0571404865e-004   9.9761937094e-001  -6.3003374884e-003   1.0000796552e+000  -3.4804470651e-003   6.3062089528e-004   1.4681315555e-004
  4.7350000000e+008  -2.3286075511e-004  -2.5512053612e-004   9.9653424720e-001  -6.6478856612e-003   1.0003219306e+000  -3.1463714758e-003   3.0477931637e-004   4.8326978149e-005
  4.8208750000e+008  -1.4631757162e-005  -2.1538412093e-004   9.9508048139e-001  -7.1022103467e-003   9.9978263386e-001  -2.8224524336e-003   6.2568384237e-004   1.3223212825e-004
  4.9067500000e+008   1.1276393534e-004  -6.8327897272e-004   9.9342701836e-001  -6.4868948814e-003   9.9999976646e-001  -3.4430275759e-003   2.3195057246e-004   1.6349036066e-005
  4.9926250000e+008  -1.7017538709e-004  -7.6911868416e-004   9.9488877709e-001  -6.9202298355e-003   9.9969470507e-001  -2.9221280078e-003   6.2397097720e-004  -7.5237212739e-005
  5.0785000000e+008  -7.4509891625e-004  -6.3005219062e-004   9.9507661864e-001  -6.9768082095e-003   9.9990697961e-001  -2.6457670054e-003   5.1713043366e-004   4.1838997735e-004
  5.1643750000e+008  -1.0020666548e-003  -1.0898719328e-004   9.9052044241e-001  -6.1520279196e-003   1.0002271202e+000  -2.6702185751e-003   9.1761807339e-004   1.0020450446e-004
  5.2502500000e+008  -8.3385734064e-004   5.7970581307e-004   9.9262216623e-001  -7.1616972455e-003   1.0003636205e+000  -2.3371449997e-003   5.4827943633e-004  -2.5540258006e-004
  5.3361250000e+008   3.1025039389e-005   5.2564501161e-004   9.9388569855e-001  -8.2071172622e-003   1.0006088300e+000  -2.9242411808e-003  -3.1003872857e-007  -6.5953349909e-004
  5.4220000000e+008   4.9846614689e-004   5.1891715760e-004   9.9227336412e-001  -8.5734987415e-003   1.0011816846e+000  -3.0782982121e-003  -6.7310682316e-004  -3.0492315251e-004
  5.5078750000e+008   4.8246288171e-004  -2.1830397200e-004   9.9213861964e-001  -8.4619770045e-003   1.0000010141e+000  -3.5178372461e-003  -9.3589430596e-004  -3.2260194315e-004
  5.5937500000e+008   4.0526287331e-004  -3.1447176672e-004   9.9034517662e-001  -7.7255047978e-003   1.0006305024e+000  -3.3824541694e-003  -8.4676985193e-004   7.0222853295e-005
  5.6796250000e+008   3.4387176647e-004  -6.1866647382e-004   9.9248618205e-001  -8.6701566744e-003   1.0004785326e+000  -3.7174785341e-003  -9.9436157551e-004   5.1860176612e-004
  5.7655000000e+008  -5.5886767013e-005  -9.2031597788e-004   9.9325557922e-001  -8.2568470147e-003   1.0004218734e+000  -3.5754453510e-003  -8.5606679663e-004   7.0446095906e-004
  5.8513750000e+008  -1.4196986576e-004  -7.2827022294e-004   9.9322857521e-001  -8.6095792345e-003   9.9992722053e-001  -2.9051528016e-003  -9.3567129487e-004   8.8722959915e-004
  5.9372500000e+008  -2.0997877182e-004  -9.3866746957e-004   9.9004687522e-001  -9.3269734189e-003   1.0000799172e+000  -4.0052236147e-003  -6.2047998004e-004   9.0857748974e-004
  6.0231250000e+008  -7.7803327470e-004  -6.3708510564e-004   9.9113399218e-001  -7.4811681240e-003   1.0001496653e+000  -3.7118809802e-003  -3.8426798817e-004   9.6138257449e-004
  6.1090000000e+008  -6.9870374018e-004  -7.3142996919e-004   9.9294301358e-001  -9.8990519323e-003   1.0000531316e+000  -3.5537539886e-003  -3.7225588676e-004   9.9338200628e-004
  6.1948750000e+008  -7.6466300225e-004  -2.4227564672e-004   9.9190840045e-001  -7.3380745789e-003   9.9975629533e-001  -4.0850837379e-003  -3.1195553117e-004   6.3440629919e-004
  6.2807500000e+008  -8.2262313393e-004  -2.6660751759e-004   9.9341951618e-001  -9.9111141595e-003   1.0005420379e+000  -3.7268609084e-003   1.4240616743e-004   4.4881491543e-004
  6.3666250000e+008  -6.3867750613e-004   2.7922454513e-004   9.9444089793e-001  -7.4329229496e-003   1.0004240537e+000  -4.1259283485e-003   1.4491425530e-004   3.5367825626e-004
  6.4525000000e+008  -4.4390677480e-004   3.7697339020e-004   9.9272492042e-001  -7.5725791333e-003   1.0003615871e+000  -3.4461403541e-003   4.2220768039e-004   4.3904277070e-005
  6.5383750000e+008  -1.2239591570e-004   3.5927623647e-004   9.9384969886e-001  -6.8685099329e-003   1.0000361331e+000  -3.0056858442e-003   3.8376244981e-004  -1.2201968992e-004
  6.6242500000e+008   3.9135913200e-005   3.2128954124e-004   9.9041568657e-001  -9.6864619298e-003   1.0006680479e+000  -4.3887564150e-003   3.2179891188e-004  -3.2768288232e-004
  6.7101250000e+008   2.3153378898e-004   3.1994536464e-005   9.8986053342e-001  -8.1516628348e-003   1.0007350056e+000  -2.9603764279e-003   2.7901903640e-004  -4.0372117282e-004
  6.7960000000e+008   6.6330398640e-004  -1.3452253002e-004   9.8965635621e-001  -8.7863156383e-003   9.9998305844e-001  -4.0822219410e-003   2.0107390015e-005  -9.1743118081e-004
  6.8818750000e+008   3.3872312449e-004  -2.4809546255e-004   9.8925170584e-001  -9.5684088073e-003   1.0001774201e+000  -4.4116879985e-003  -4.7177333983e-005  -1.0559581737e-003
  6.9677500000e+008   2.3655973046e-004  -6.9298655965e-004   9.9018538569e-001  -7.7430666534e-003   9.9972528185e-001  -3.8055638095e-003  -8.6126643406e-005  -1.0969967110e-003
  7.0536250000e+008   1.6223421561e-005  -8.4885870789e-004   9.9153187894e-001  -8.1431712307e-003   9.9995717285e-001  -4.1097051067e-003  -3.0305333232e-004  -1.2840997119e-003
  7.1395000000e+008  -3.0881058615e-004  -9.2623087639e-004   9.9309365142e-001  -8.3712797537e-003   9.9966953706e-001  -3.5189551933e-003  -4.7878703969e-004  -1.1767823069e-003
  7.2253750000e+008  -7.8835896619e-004  -8.4472579121e-004   9.9118837168e-001  -8.9677938229e-003   1.0001203137e+000  -3.5876516573e-003  -7.4184791845e-004  -1.2840493775e-003
  7.3112500000e+008  -7.7668997801e-004  -6.6505715100e-004   9.8816867051e-001  -9.4294527935e-003   9.9989029663e-001  -4.1451321913e-003  -1.0361393448e-003  -8.4758517654e-004
  7.3971250000e+008  -8.8085520506e-004  -3.3813340468e-004   9.8849900864e-001  -1.0449177120e-002   9.9943168575e-001  -4.2979531572e-003  -1.1010019512e-003  -6.2650093091e-004
  7.4830000000e+008  -1.0664751405e-003   1.2887461777e-004   9.9003963596e-001  -8.4205451255e-003   9.9901573730e-001  -4.0129014690e-003  -1.0101238998e-003  -5.9893583695e-004
  7.5688750000e+008  -8.7659407398e-004   4.2921307436e-004   9.8866058304e-001  -9.3755161306e-003   9.9901393670e-001  -4.4851974337e-003  -1.0882870392e-003  -1.4242977290e-004
  7.6547500000e+008  -3.8887057892e-004   4.5622305953e-004   9.8859680371e-001  -1.0399506249e-002   9.9920838381e-001  -4.1525459103e-003  -1.1349224242e-003   2.3557444445e-004
  7.7406250000e+008  -2.6185850618e-004   6.9659229950e-004   9.8938413328e-001  -1.0010493757e-002   9.9993864543e-001  -4.1178307408e-003  -5.8137385326e-004   3.5229368436e-004
  7.8265000000e+008   1.8374466711e-005   5.2274686401e-004   9.8886614279e-001  -8.5628889618e-003   9.9908604889e-001  -3.9163046361e-003  -5.7272427023e-004   7.1807850684e-004
  7.9123750000e+008   2.2247426017e-004   4.6293545168e-004   9.8968670549e-001  -8.3442764920e-003   9.9917190575e-001  -3.5346293116e-003  -4.5198071843e-004   5.6351743872e-004
  7.9982500000e+008   1.3438387985e-004   5.6304597594e-004   9.9374595316e-001  -6.4073393141e-003   1.0000472360e+000  -2.8513158839e-003  -3.5903764612e-004   6.5503381036e-004
  8.0841250000e+008   7.3625408625e-004   5.8550970567e-004   9.9276320141e-001  -8.6719219181e-003   1.0000611859e+000  -3.6018938424e-003  -2.9243054115e-004   6.8174062534e-004
  8.1700000000e+008   1.0169663075e-003   3.4661804903e-004   9.9429281763e-001  -7.5417084056e-003   1.0006187458e+000  -3.2392633104e-003  -3.9746647099e-004   7.3117023043e-004
  8.2558750000e+008   1.3983855930e-003   8.2362646068e-005   9.9431783699e-001  -6.7711473383e-003   1.0013177697e+000  -4.2733393498e-003  -5.5797314629e-004   1.0066952813e-003
  8.3417500000e+008   1.5077477587e-003  -6.8953482815e-004   9.9445037679e-001  -7.7853889464e-003   1.0017860537e+000  -4.0753365662e-003  -3.9865719931e-004   1.0450976728e-003
  8.4276250000e+008   1.2382708909e-003  -1.2784537902e-003   9.9358139870e-001  -7.2094278463e-003   9.9975441263e-001  -4.4585743345e-003  -1.6612004885e-004   1.3048685117e-003
  8.5135000000e+008   6.5415187393e-004  -1.4472847680e-003   9.9381296284e-001  -7.0430004013e-003   1.0006267470e+000  -4.1371815977e-003   1.9745702913e-004   1.4216503054e-003
  8.5993750000e+008   1.7410914917e-004  -1.7017354482e-003   9.9371162654e-001  -7.7631131647e-003   9.9946117749e-001  -4.6892080340e-003   4.3543136894e-004   1.2345073800e-003
  8.6852500000e+008  -4.8333771206e-004  -1.4881188349e-003   9.8845592102e-001  -9.8484283810e-003   1.0000335532e+000  -4.6575157553e-003   7.5101747153e-004   8.2209526554e-004
  8.7711250000e+008  -7.4167457753e-004  -1.1790589113e-003   9.8928028641e-001  -1.0540560731e-002   1.0008851477e+000  -4.8125343723e-003   6.5865886834e-004   4.7225376967e-004
  8.8570000000e+008  -8.7814236510e-004  -7.2084857092e-004   9.9152152888e-001  -8.5344269614e-003   9.9888564345e-001  -4.2043886848e-003   4.5446590879e-004   1.7693752311e-004
  8.9428750000e+008  -8.6490430443e-004  -5.6009084968e-004   9.9045503090e-001  -1.0522748274e-002   9.9945428046e-001  -4.4710986539e-003   2.7061232839e-004  -2.6474418010e-004
  9.0287500000e+008  -5.3413268769e-004  -2.6771578172e-004   9.9411969694e-001  -8.5023863255e-003   9.9912593567e-001  -5.3993046580e-003  -2.5379474622e-005  -3.1624629644e-004
  9.1146250000e+008  -2.7456782493e-004  -1.0295063648e-006   9.9293337249e-001  -8.6505224574e-003   9.9873196725e-001  -4.5848158673e-003  -2.9737871384e-004  -3.7319281255e-004
  9.2005000000e+008  -1.4108183363e-004   3.7814795299e-005   9.9291066041e-001  -7.8407009199e-003   9.9907909911e-001  -4.0952383874e-003  -5.5948168997e-004  -5.5795543851e-004
  9.2863750000e+008   2.8724412852e-004  -1.8844930773e-005   9.9441415311e-001  -8.0610193117e-003   9.9919732738e-001  -4.8257121688e-003  -7.8612878771e-004  -5.6476640026e-004
  9.3722500000e+008   3.7146846464e-004  -2.0119545932e-004   9.9388495156e-001  -6.5234058357e-003   9.9869132784e-001  -4.2860078872e-003  -1.0148690821e-003  -5.2583117870e-004
  9.4581250000e+008   6.4179135700e-004  -5.6561541962e-004   9.9389430854e-001  -7.1408594300e-003   9.9937997117e-001  -4.3810533024e-003  -1.3545805562e-003  -3.6004182729e-004
  9.5440000000e+008   4.4393019843e-004  -8.8159015917e-004   9.9302191944e-001  -8.1112009306e-003   1.0002539251e+000  -3.5744062150e-003  -1.3473907579e-003  -4.2528924903e-004
  9.6298750000e+008   1.9800705824e-004  -1.1356119874e-003   9.9554606570e-001  -7.0305582221e-003   9.9991045524e-001  -4.8027553405e-003  -1.5390605247e-003  -1.5809814646e-004
  9.7157500000e+008  -2.9441372398e-005  -1.3684245602e-003   9.9379872173e-001  -8.0509960192e-003   1.0000290331e+000  -5.2289373855e-003  -1.4786354366e-003  -5.9197503301e-005
  9.8016250000e+008  -5.5042322441e-004  -1.3194473534e-003   9.9633248058e-001  -7.7457637864e-003   9.9976330130e-001  -5.4649509524e-003  -1.5494118794e-003   1.2636363849e-004
  9.8875000000e+008  -9.2739532126e-004  -1.0807444211e-003   9.9657559278e-001  -6.7420497608e-003   9.9928830775e-001  -4.1299458978e-003  -1.5023762904e-003   3.4839677889e-004
  9.9733750000e+008  -1.0384881142e-003  -9.6523181986e-004   9.9517886204e-001  -7.7332824615e-003   9.9896049775e-001  -4.4456885897e-003  -1.2449305125e-003   2.6080249323e-004
  1.0059250000e+009  -1.3274674609e-003  -3.3156013588e-004   9.9659171764e-001  -7.7840584414e-003   1.0004915119e+000  -4.9392107740e-003  -8.6056601214e-004   3.0467323067e-004
  1.0145125000e+009  -1.4468465267e-003   9.7235083630e-005   9.9690735215e-001  -9.1867882021e-003   9.9970939283e-001  -4.9884189857e-003  -4.8463351906e-004   3.8806507026e-004
  1.0231000000e+009  -1.2085104417e-003   3.7660733991e-004   9.9579824740e-001  -7.1192170821e-003   9.9956112585e-001  -5.1036831438e-003  -2.5965463306e-004   4.2491852672e-004
  1.0316875000e+009  -9.0322736284e-004   9.6735318610e-004   9.9590117817e-001  -9.1971738818e-003   9.9948034136e-001  -5.8512281490e-003   5.3490951970e-005   3.3278574443e-004
  1.0402750000e+009  -3.0149028834e-004   1.0616749079e-003   9.9563650284e-001  -7.7350886261e-003   9.9954731098e-001  -3.8504817435e-003   3.6698143425e-004   1.7158979510e-004
  1.0488625000e+009   7.1750075383e-005   1.0850386437e-003   9.9647657274e-001  -8.0973473687e-003   9.9906393202e-001  -4.4021684915e-003   7.1774774180e-004   3.8105081270e-006
  1.0574500000e+009   5.9100500795e-004   8.8182173175e-004   9.9592673411e-001  -7.7835973861e-003   9.9963510674e-001  -4.4412414145e-003   9.0908651518e-004  -2.7276186555e-004
