# Hz S RI R 50.000000
! Metas.Vna.Tools, 2.8.8664.20301
! Metas.Vna.Data, 2.8.8664.20285
! Created: UTC 2024.02.11 10:08:12
! FREQ                re:S1,1             im:S1,1             re:S2,1             im:S2,1             re:S1,2             im:S1,2             re:S2,2             im:S2,2          
  1.3000000000e+008  -4.5329158237e-004  -9.6103537304e-004   1.0022562368e+000  -3.9300062257e-003   1.0003935759e+000  -8.7611392428e-004   1.0605302264e-003   1.0255027280e-003
  1.3858750000e+008  -7.0010721040e-004  -1.0557269298e-003   1.0032890112e+000  -2.8952113643e-003   1.0009387917e+000  -1.9200708849e-003   7.3356882887e-004  -7.0537821952e-005
  1.4717500000e+008  -1.6128229685e-003  -8.7514075902e-004   1.0017792432e+000  -4.4269493261e-003   9.9988209917e-001  -1.1562311425e-003   3.8076758624e-004  -1.9082903156e-004
  1.5576250000e+008  -1.4989991414e-003   2.0586356035e-005   1.0029555004e+000  -4.2228974823e-003   1.0007353203e+000  -1.1105172069e-003   1.0428041503e-003  -8.2423394157e-004
  1.6435000000e+008  -9.9370317019e-004   6.5542212958e-004   1.0038098228e+000  -3.2997394859e-003   1.0003546544e+000  -1.4997932054e-003   1.0475996508e-003  -4.3697952840e-004
  1.7293750000e+008  -1.2264352850e-003   9.3152435645e-004   1.0036787132e+000  -2.8047711750e-003   1.0003658199e+000  -1.4148275398e-003   4.0259771737e-004  -1.0892631801e-003
  1.8152500000e+008  -1.1323823804e-003   5.4839108060e-004   1.0018995739e+000  -3.6149017691e-003   1.0002957065e+000  -1.6673992865e-003   6.1720658621e-004  -8.2546606293e-004
  1.9011250000e+008  -8.1625109810e-004   3.3634930998e-004   1.0038774471e+000  -4.3100510174e-003   1.0005537036e+000  -1.3301952538e-003   5.5255089640e-004  -1.5754323623e-003
  1.9870000000e+008  -6.8986140317e-004   1.3107190144e-003   1.0033415822e+000  -4.8730342032e-003   1.0003233473e+000  -1.9720878505e-003   6.9732805963e-004  -4.6318597416e-004
  2.0728750000e+008   4.3210237051e-004   2.3855676984e-004   1.0027781670e+000  -3.5300477307e-003   1.0008348637e+000  -2.0509902719e-003   4.0000241429e-004  -6.7420293071e-004
  2.1587500000e+008   1.6714125526e-004  -1.1489342470e-004   1.0034499006e+000  -3.9134618606e-003   1.0000954357e+000  -1.5167056226e-003  -4.8196269235e-004   2.0265214233e-004
  2.2446250000e+008   5.9698298981e-004  -4.2065255380e-004   1.0028104497e+000  -3.4999312961e-003   1.0003708312e+000  -1.6854503159e-003  -1.0154979010e-006   2.3649683544e-004
  2.3305000000e+008   6.4002274992e-005  -4.5595341209e-004   1.0025416815e+000  -4.6948715303e-003   1.0003309986e+000  -1.8568839330e-003  -2.8551657028e-004  -5.1888038383e-005
  2.4163750000e+008  -2.2393965538e-004  -3.8628053561e-004   1.0020970965e+000  -5.5982222201e-003   1.0005394870e+000  -2.5625389074e-003  -6.8137693072e-004   3.7561783023e-004
  2.5022500000e+008  -4.4753998034e-004  -8.8740918885e-004   1.0035203876e+000  -2.8575725706e-003   1.0001581111e+000  -1.7080543078e-003  -8.8760195882e-004   6.0521970518e-004
  2.5881250000e+008  -2.8397703367e-004  -9.3626793421e-004   1.0026045926e+000  -3.0932815583e-003   1.0005091778e+000  -3.0493005070e-003  -4.7461862522e-004   4.8044932351e-004
  2.6740000000e+008  -9.7696016353e-004  -7.3363160542e-004   1.0017630044e+000  -4.2297802030e-003   1.0009542263e+000  -2.6598707373e-003  -6.0217506375e-004   6.4197990983e-004
  2.7598750000e+008  -2.1951164301e-004  -4.2686872804e-004   1.0009734145e+000  -4.2394310990e-003   1.0007548471e+000  -2.4628688268e-003  -2.8128398516e-004   6.5718661952e-004
  2.8457500000e+008  -7.5478079667e-004  -4.7656373481e-005   1.0020658686e+000  -3.5509979906e-003   1.0005020436e+000  -1.5192215519e-003  -2.3624661651e-004   9.5008817918e-004
  2.9316250000e+008  -5.3803510751e-004  -2.3657299811e-004   1.0024787135e+000  -4.2833602381e-003   1.0005276679e+000  -3.0163552618e-003  -2.6748808843e-004   4.5288210363e-004
  3.0175000000e+008  -9.4140032787e-004   2.8155489147e-004   1.0022522058e+000  -5.6004756869e-003   1.0006955774e+000  -1.8780821479e-003  -3.4004594022e-004   5.7612361774e-004
  3.1033750000e+008  -1.1358450180e-003   3.1012131754e-004   1.0037806597e+000  -3.6872415939e-003   1.0005620344e+000  -2.6890327732e-003  -5.6850586357e-004   7.5646908265e-004
  3.1892500000e+008  -7.4568488546e-004   2.7970357191e-004   1.0018822294e+000  -5.9590649690e-003   9.9990424976e-001  -2.1248047910e-003  -6.6618497429e-004   5.6455249912e-004
  3.2751250000e+008  -6.7228572459e-004   4.0403483949e-005   1.0016238733e+000  -5.8293315836e-003   1.0004993580e+000  -2.4547739235e-003  -6.2895805704e-004   1.7401689707e-004
  3.3610000000e+008  -6.7540015836e-004  -3.1028634206e-005   1.0005916055e+000  -4.1664410727e-003   1.0007377549e+000  -2.9733352883e-003  -7.9884892354e-004   5.9519048381e-005
  3.4468750000e+008  -7.5341148683e-004   5.8611320220e-004   1.0008774491e+000  -3.4132010866e-003   1.0002918944e+000  -2.2148329169e-003  -5.5038072448e-004   7.1716403566e-005
  3.5327500000e+008  -4.5612381785e-004   5.6119884484e-005   1.0021846559e+000  -5.7399068527e-003   9.9884811798e-001  -3.0068558599e-003  -4.8607508475e-004   1.7672185235e-004
  3.6186250000e+008  -5.1574803807e-004   4.2420410116e-004   1.0018982483e+000  -5.9776020081e-003   1.0005767376e+000  -2.3067553512e-003  -5.9948758435e-004   3.5564941367e-004
  3.7045000000e+008  -5.1208495205e-004   4.2015573580e-004   1.0012383840e+000  -5.2956621891e-003   1.0008629829e+000  -2.7012472504e-003  -5.8186452345e-004   7.8357104944e-005
  3.7903750000e+008  -1.4820075531e-004   5.3887014264e-004   1.0007654069e+000  -4.4409968944e-003   1.0005080251e+000  -2.6876266865e-003  -3.8213550919e-004   7.4345183468e-005
  3.8762500000e+008  -5.6349167603e-005   2.1115554285e-004   1.0017394955e+000  -3.9510416226e-003   1.0002839852e+000  -3.0536459780e-003  -7.2387027666e-004   5.2573648359e-004
  3.9621250000e+008  -1.4741970056e-005   1.2643912761e-004   1.0019114500e+000  -4.1576169662e-003   1.0007813001e+000  -2.8263256511e-003  -6.2048102152e-004   5.0456873860e-004
  4.0480000000e+008   4.5694439346e-005   2.0483873614e-004   1.0029504062e+000  -5.5978883316e-003   1.0004186565e+000  -2.6670843612e-003  -9.0810452628e-005   4.6161417245e-004
  4.1338750000e+008   1.5330531367e-004   1.1164909754e-004   1.0018390959e+000  -3.4439011017e-003   1.0007670658e+000  -2.5688159768e-003   5.9319750357e-005   3.2915095433e-004
  4.2197500000e+008  -1.8437257084e-004  -1.8029719592e-004   1.0027865376e+000  -4.5024382743e-003   1.0008003448e+000  -2.5222627005e-003  -5.2152567641e-005   5.4274029898e-004
  4.3056250000e+008   1.4394968387e-004  -2.0041225661e-005   1.0022186597e+000  -4.9954053186e-003   1.0007645834e+000  -2.7505880567e-003   2.9328424830e-004   2.7219165702e-004
  4.3915000000e+008  -2.2115544771e-005  -2.9186145450e-004   1.0038946764e+000  -4.6166602322e-003   1.0002165926e+000  -3.1906930758e-003   5.9074281308e-004   1.0190966760e-004
  4.4773750000e+008   4.7424226944e-005  -2.5261221088e-004   1.0031110854e+000  -4.4766643171e-003   1.0003812051e+000  -3.1018969461e-003   6.1801008184e-004   7.0117786966e-005
  4.5632500000e+008  -1.2222799932e-004  -5.9081191151e-005   1.0007148099e+000  -3.9556644190e-003   1.0001334371e+000  -2.8260142048e-003   7.1803992714e-004   2.2486179860e-004
  4.6491250000e+008  -1.5667665318e-004  -2.7356829737e-004   1.0021494279e+000  -5.6818553361e-003   9.9998193800e-001  -2.9809040573e-003   5.5755756940e-004   1.9301543446e-005
  4.7350000000e+008  -3.5045413275e-004  -4.5321189814e-004   1.0020699506e+000  -4.9278339092e-003   1.0001882758e+000  -3.0087423543e-003   6.1137517907e-004   5.4007948940e-005
  4.8208750000e+008  -2.8164380632e-004  -9.2726572732e-005   9.9939526213e-001  -5.3912313404e-003   9.9983310669e-001  -2.5740573718e-003   5.1067196795e-004   2.0539970837e-004
  4.9067500000e+008   2.0183205179e-004  -2.9507119084e-004   9.9892465364e-001  -5.0190101799e-003   9.9999820905e-001  -3.0897413348e-003   4.0479503084e-004   6.1154070065e-005
  4.9926250000e+008  -1.8206030712e-004  -6.3431813352e-004   9.9934387517e-001  -4.9058710410e-003   9.9949148447e-001  -2.8355611537e-003   4.3646053020e-004  -4.1720856871e-006
  5.0785000000e+008  -8.7412967956e-004  -5.1846468426e-004   9.9942980381e-001  -5.2494675943e-003   9.9967659268e-001  -2.2144929592e-003   6.6100026336e-004   3.3433563200e-004
  5.1643750000e+008  -5.8521566060e-004   1.4826573104e-004   9.9909696676e-001  -4.9122632619e-003   1.0005482811e+000  -2.6708390383e-003   9.1298358297e-004  -2.0952978016e-005
  5.2502500000e+008  -4.3873159995e-004   7.9352325550e-004   1.0006598081e+000  -3.8026331501e-003   1.0007744308e+000  -2.0327773253e-003   4.6964011924e-004  -2.4898103663e-004
  5.3361250000e+008   6.2826290739e-004   4.9164169084e-004   1.0020508150e+000  -6.0470326485e-003   1.0007307129e+000  -2.5309883538e-003   2.0099873038e-004  -6.6727528901e-004
  5.4220000000e+008   8.5128624077e-004   1.7488137795e-004   1.0015010790e+000  -5.8039986851e-003   1.0007334659e+000  -2.8770953265e-003  -7.1421578397e-004  -3.6695015312e-004
  5.5078750000e+008   7.1934650682e-004  -5.8744067220e-004   1.0015301582e+000  -6.2520489134e-003   1.0002199065e+000  -3.3132364432e-003  -9.4945601662e-004  -5.3224296349e-004
  5.5937500000e+008   5.4074539713e-004  -6.7571888020e-004   9.9954897173e-001  -5.3618213296e-003   1.0005501153e+000  -3.5026182856e-003  -8.7508457930e-004   6.2605116332e-005
  5.6796250000e+008   3.5724194957e-004  -9.6676649777e-004   1.0010879658e+000  -5.2189464969e-003   1.0004261946e+000  -3.1938376460e-003  -1.0948954896e-003   4.3943020515e-004
  5.7655000000e+008  -3.4320835651e-004  -1.1965008031e-003   1.0012378670e+000  -7.4713905126e-003   1.0003356652e+000  -3.5375421750e-003  -8.3575447492e-004   6.6527263979e-004
  5.8513750000e+008  -4.6007648857e-004  -8.8016847085e-004   9.9928404109e-001  -6.1985753005e-003   9.9943587481e-001  -2.8935922409e-003  -8.0952649263e-004   8.5033550902e-004
  5.9372500000e+008  -7.7666453147e-004  -7.7635963438e-004   9.9946134347e-001  -4.8820738012e-003   9.9957960609e-001  -3.8934432052e-003  -5.7982514873e-004   1.0037283734e-003
  6.0231250000e+008  -1.0045523175e-003  -4.9374563227e-004   9.9961896946e-001  -3.9068315842e-003   1.0002396404e+000  -3.7254852005e-003  -3.6534632478e-004   1.0149047227e-003
  6.1090000000e+008  -9.5009849852e-004  -3.1776056576e-004   1.0007626179e+000  -6.7871819677e-003   1.0003598287e+000  -2.8937836001e-003  -4.7435513827e-004   8.8396944940e-004
  6.1948750000e+008  -9.2715812698e-004   3.9842113718e-005   9.9927636603e-001  -6.0383762549e-003   9.9993244748e-001  -2.8211181481e-003  -3.6175547883e-004   7.3485182532e-004
  6.2807500000e+008  -7.2022406672e-004   7.5256638151e-005   9.9948128889e-001  -7.1447690975e-003   9.9969290562e-001  -3.0196744728e-003   7.7897836015e-005   5.3960380981e-004
  6.3666250000e+008  -3.3508117485e-004   5.0504505727e-004   1.0005365043e+000  -5.1392266432e-003   1.0001776417e+000  -4.6680921953e-003   8.2004815198e-005   2.8701948745e-004
  6.4525000000e+008   6.2929245750e-005   3.7097329237e-004   1.0003850898e+000  -6.2447509396e-003   1.0002414587e+000  -3.3446747778e-003   4.1589102456e-004  -9.1266668919e-005
  6.5383750000e+008   1.1678383907e-004   1.9166107907e-004   1.0016175274e+000  -5.6534478066e-003   1.0003123132e+000  -2.7587521226e-003   4.1656246522e-004  -5.9820679860e-005
  6.6242500000e+008   5.0958867111e-004   8.6958540147e-005   9.9873090794e-001  -5.7456955346e-003   1.0006521585e+000  -3.8732079304e-003   3.6330755109e-004  -4.2850715227e-004
  6.7101250000e+008   3.3097880100e-004  -2.0184990194e-004   9.9840601166e-001  -4.8887466918e-003   9.9999116635e-001  -3.1217420108e-003   3.5855196975e-004  -5.4630238592e-004
  6.7960000000e+008   6.7016810975e-004  -5.1351767324e-004   9.9682611156e-001  -5.7012173058e-003   1.0002553025e+000  -3.4059050735e-003   2.7891865667e-004  -8.6549191530e-004
  6.8818750000e+008   1.1677129339e-004  -8.5858765243e-004   9.9666753575e-001  -6.1217733279e-003   1.0004604368e+000  -3.9320944002e-003   8.0929600483e-005  -9.6686569653e-004
  6.9677500000e+008   3.9080078904e-007  -8.8069747098e-004   1.0002893345e+000  -6.1098640458e-003   1.0002206057e+000  -3.9983269347e-003  -1.1732477431e-004  -1.1573243440e-003
  7.0536250000e+008  -3.8218587468e-004  -9.9064060020e-004   9.9996410796e-001  -5.6536707370e-003   1.0000385386e+000  -3.5998600021e-003  -2.6763367440e-004  -1.2169987729e-003
  7.1395000000e+008  -6.1903032251e-004  -8.9413465323e-004   9.9904661571e-001  -5.8735563324e-003   1.0001190573e+000  -3.7162932343e-003  -4.3432435028e-004  -1.2068755011e-003
  7.2253750000e+008  -1.1264046661e-003  -6.4382109470e-004   9.9764177640e-001  -6.0810486778e-003   1.0000464338e+000  -3.8123576571e-003  -5.8958599601e-004  -1.2254800635e-003
  7.3112500000e+008  -1.0663440254e-003  -2.8535302248e-004   9.9877262495e-001  -5.9495344986e-003   1.0003695239e+000  -3.5666335816e-003  -8.9496112806e-004  -9.5243047142e-004
  7.3971250000e+008  -1.0127362470e-003   6.7144527265e-005   9.9854056305e-001  -6.8650805468e-003   9.9972381984e-001  -4.5659662855e-003  -1.0439236719e-003  -7.1415463689e-004
  7.4830000000e+008  -8.6058412065e-004   5.2710985899e-004   9.9957153642e-001  -5.2777814727e-003   1.0000264986e+000  -3.8627810908e-003  -9.9281414851e-004  -7.0773898577e-004
  7.5688750000e+008  -6.3780143762e-004   6.6944574009e-004   9.9837680625e-001  -6.5505393204e-003   9.9873862657e-001  -4.2124292601e-003  -1.0391162143e-003  -1.7055843917e-004
  7.6547500000e+008  -1.1152397940e-004   7.4565709065e-004   1.0004585357e+000  -6.5179764518e-003   9.9951262495e-001  -4.1737240869e-003  -1.0716694429e-003  -8.6334257808e-005
  7.7406250000e+008   1.8154330982e-004   7.8964482390e-004   9.9916938897e-001  -6.3173250035e-003   9.9954096546e-001  -3.8195974031e-003  -7.3664453528e-004   2.4351385870e-004
  7.8265000000e+008   4.2808065164e-004   3.2617467704e-004   9.9921168644e-001  -5.6516947214e-003   9.9919421385e-001  -4.2880702848e-003  -7.7858532733e-004   6.7580272082e-004
  7.9123750000e+008   5.2860867281e-004   2.0148657328e-004   9.9991175182e-001  -4.8183269092e-003   9.9906162495e-001  -2.9985359263e-003  -5.4371787051e-004   6.3809093691e-004
  7.9982500000e+008   4.4007791106e-004   2.5879215390e-004   1.0004383169e+000  -5.8177005208e-003   1.0001529217e+000  -2.0963397856e-003  -4.3532083573e-004   6.8520114246e-004
  8.0841250000e+008   7.3920797930e-004   3.8315190989e-004   9.9900651346e-001  -7.4294885574e-003   1.0003307540e+000  -3.0083112167e-003  -4.3422355675e-004   9.0639124737e-004
  8.1700000000e+008   9.9946167960e-004   1.7016095818e-004   1.0005007996e+000  -4.7656591098e-003   1.0002262744e+000  -3.1713827341e-003  -3.6919320825e-004   7.3483372072e-004
  8.2558750000e+008   1.1592509810e-003  -8.1700039129e-005   1.0008294922e+000  -4.6769170882e-003   1.0005965275e+000  -3.9675621622e-003  -5.2534630974e-004   9.1607228621e-004
  8.3417500000e+008   1.1667366159e-003  -8.8945083258e-004   1.0004301381e+000  -5.6220816493e-003   1.0004332060e+000  -4.1135731359e-003  -3.6615525489e-004   1.3105402702e-003
  8.4276250000e+008   7.1418774372e-004  -1.2415008128e-003   9.9908871559e-001  -6.6096238840e-003   9.9941995420e-001  -4.4192232432e-003  -6.5200556949e-005   1.3597463066e-003
  8.5135000000e+008   2.8455502953e-004  -1.3609788683e-003   9.9928069766e-001  -6.5357668313e-003   1.0016649198e+000  -4.4061708266e-003   2.9799791136e-004   1.4176056310e-003
  8.5993750000e+008  -7.9071654802e-005  -1.4048263163e-003   9.9892842780e-001  -6.3439897924e-003   1.0009061862e+000  -3.9618252348e-003   3.6052494272e-004   1.3110816963e-003
  8.6852500000e+008  -5.1386485149e-004  -1.0542459609e-003   9.9785572437e-001  -6.3878735517e-003   9.9978042552e-001  -4.5532058881e-003   7.3703215267e-004   1.0510726317e-003
  8.7711250000e+008  -4.7894079001e-004  -7.5496518886e-004   9.9859137933e-001  -5.3388274812e-003   1.0002439377e+000  -4.3561066723e-003   6.8662884237e-004   7.3080112522e-004
  8.8570000000e+008  -5.1787971312e-004  -3.7811063118e-004   1.0013599560e+000  -5.5526829377e-003   9.9989965942e-001  -5.1691960407e-003   7.4033869410e-004   3.0871991944e-004
  8.9428750000e+008  -2.7214913382e-004  -1.7832011974e-004   9.9927251574e-001  -7.6748364433e-003   9.9869745094e-001  -4.1511626408e-003   4.5289450062e-004  -1.7700151040e-004
  9.0287500000e+008  -1.3256258833e-004  -1.3113338202e-004   9.9961756027e-001  -6.4002868456e-003   9.9949202633e-001  -5.4351140712e-003   2.6105841572e-004  -3.9894689827e-004
  9.1146250000e+008   1.4175696361e-004  -9.9988555383e-005   1.0001118137e+000  -7.8540399801e-003   9.9887591316e-001  -4.6252865138e-003  -1.8330608244e-004  -6.3320888403e-004
  9.2005000000e+008   2.2517001163e-004  -2.8665622293e-004   1.0001967817e+000  -6.3944974192e-003   9.9918766120e-001  -3.2274109373e-003  -4.4231524880e-004  -7.3664597175e-004
  9.2863750000e+008   4.8952718844e-004  -3.8509514316e-004   1.0005142042e+000  -4.6885492603e-003   9.9893905213e-001  -4.2793098684e-003  -6.0090077353e-004  -6.8861910033e-004
  9.3722500000e+008   4.1158017661e-004  -7.4034202826e-004   9.9971407350e-001  -6.2778421793e-003   9.9886616331e-001  -4.0129746477e-003  -1.1022147185e-003  -9.3093820141e-004
  9.4581250000e+008   4.1555335216e-004  -1.1627081857e-003   1.0011435339e+000  -6.3060541887e-003   9.9877507921e-001  -4.0425427912e-003  -1.4866325125e-003  -6.1696994181e-004
  9.5440000000e+008   8.9926025613e-005  -1.2722576948e-003   9.9998585602e-001  -6.8559953209e-003   1.0000629104e+000  -4.2878908840e-003  -1.4253498394e-003  -5.7188145449e-004
  9.6298750000e+008  -3.9745023658e-004  -1.2969375301e-003   1.0015475823e+000  -5.0809985367e-003   1.0000038826e+000  -4.6216460806e-003  -1.5577049749e-003  -3.2610803650e-004
  9.7157500000e+008  -6.7899182481e-004  -1.1518957104e-003   1.0020576261e+000  -7.4412141315e-003   9.9990584403e-001  -4.3496723729e-003  -1.4767037972e-003  -2.1075307621e-004
  9.8016250000e+008  -9.7441528390e-004  -1.0418728972e-003   1.0013127438e+000  -5.7053737609e-003   9.9965479101e-001  -4.9364393887e-003  -1.5909317121e-003   5.8768190779e-005
  9.8875000000e+008  -1.1991890888e-003  -5.9516248934e-004   1.0000227262e+000  -6.3867859483e-003   9.9933968312e-001  -4.9584566954e-003  -1.3876448467e-003   3.2366780974e-004
  9.9733750000e+008  -1.1366259094e-003  -3.4196764948e-004   1.0000255810e+000  -7.0072375741e-003   9.9936780799e-001  -3.9110277755e-003  -1.2294337837e-003   2.6383955739e-004
  1.0059250000e+009  -9.7987729083e-004   1.2615855950e-004   1.0009804637e+000  -5.0754029559e-003   1.0001362169e+000  -4.2124908080e-003  -1.0490093159e-003   2.9295275830e-004
  1.0145125000e+009  -9.3523258905e-004   4.4695076569e-004   1.0001635346e+000  -9.5285500307e-003   9.9898741701e-001  -4.0007737602e-003  -4.8653219173e-004   4.4211459591e-004
  1.0231000000e+009  -6.5588863764e-004   5.2026867723e-004   9.9934970505e-001  -6.6748776392e-003   9.9953874114e-001  -4.9633979454e-003  -2.3627711124e-004   4.3432340747e-004
  1.0316875000e+009  -3.2307195151e-004   6.8318707665e-004   9.9982986592e-001  -6.7691435883e-003   9.9907267958e-001  -4.9512800798e-003   3.9400838871e-006   3.0569158349e-004
  1.0402750000e+009   1.3797709538e-004   7.0141319114e-004   9.9905336466e-001  -6.5090109034e-003   1.0001719609e+000  -4.0396921360e-003   3.1473996827e-004   2.8822423923e-004
  1.0488625000e+009   4.3997377317e-004   4.7079734728e-004   1.0002308182e+000  -6.3657991392e-003   9.9933688182e-001  -3.9575637092e-003   6.3800519271e-004  -2.4649905158e-005
  1.0574500000e+009   6.8073472708e-004   2.0132603378e-004   9.9966705255e-001  -6.1380889697e-003   9.9922721814e-001  -3.8938572063e-003   9.6969573052e-004  -3.2774999292e-004
