# Hz S RI R 50.000000
! Metas.Vna.Tools, 2.8.8664.20301
! Metas.Vna.Data, 2.8.8664.20285
! Created: UTC 2024.02.11 10:08:45
! FREQ                re:S1,1             im:S1,1             re:S2,1             im:S2,1             re:S1,2             im:S1,2             re:S2,2             im:S2,2          
  1.3000000000e+008   2.6485365136e-004  -1.1771662288e-003   9.9527320897e-001  -5.8928835776e-003   1.0006896404e+000   4.4862858249e-004   8.2077722604e-004   5.0207599064e-004
  1.3858750000e+008  -8.0453471026e-004  -9.3451898513e-004   9.9538566215e-001  -5.3199309214e-003   1.0001231160e+000   7.6126845824e-004   1.1067665781e-003   2.6322058700e-004
  1.4717500000e+008  -2.1041221110e-003  -1.1587300699e-003   9.9669711763e-001  -5.9116565875e-003   1.0005356174e+000   1.9628559973e-005   9.5962396121e-004   5.3570869018e-005
  1.5576250000e+008  -1.1336773040e-003  -3.1132204272e-005   9.9671584314e-001  -5.0838248601e-003   1.0012051711e+000   4.8390443896e-004   1.2093150603e-003  -6.8809580750e-004
  1.6435000000e+008  -9.8179936150e-004   5.8713675353e-004   9.9593643295e-001  -5.4973060619e-003   1.0008525228e+000   3.0532893383e-004   1.1925183593e-003  -2.0483017501e-004
  1.7293750000e+008  -1.0483306156e-003   7.7901550910e-004   9.9511838370e-001  -5.4655490670e-003   1.0005813317e+000  -1.8535325338e-004   1.0972288539e-003  -7.6686178762e-004
  1.8152500000e+008  -3.0961993414e-004   5.1084303856e-004   9.9536035823e-001  -5.7548604064e-003   9.9995750259e-001  -2.1477498341e-004   6.4895823132e-004  -5.6578858811e-004
  1.9011250000e+008  -5.4590756368e-004   4.4270767923e-004   9.9642512646e-001  -6.4723686192e-003   1.0007777718e+000  -2.4850145876e-004   2.2524911604e-004  -9.5837376551e-004
  1.9870000000e+008  -4.2408472883e-004   8.9175373415e-004   9.9560371233e-001  -6.4355304474e-003   1.0006495716e+000  -2.3373174748e-004   6.5391244860e-004  -1.2705904500e-004
  2.0728750000e+008   4.6321322021e-004   3.7621778767e-004   9.9562249878e-001  -6.5274103973e-003   1.0007355445e+000  -8.2448615611e-004  -1.9983674826e-005  -4.5430257803e-004
  2.1587500000e+008   1.7517260639e-004  -2.8210139588e-004   9.9693034022e-001  -5.1528616413e-003   9.9979359935e-001   4.3863432372e-004  -3.7441683270e-004   5.0370270943e-005
  2.2446250000e+008   7.7689721745e-004  -4.7329835295e-004   9.9681182683e-001  -6.0400534587e-003   1.0006867160e+000  -1.0797844229e-005  -1.4037790551e-004   9.9043973609e-006
  2.3305000000e+008   1.9590939930e-005  -6.0300332738e-005   9.9593646618e-001  -5.8744552278e-003   1.0003555213e+000  -2.3534019589e-004  -3.7404510488e-004   1.3575509269e-004
  2.4163750000e+008  -1.7000309592e-004  -4.6577742043e-004   9.9614847066e-001  -7.5880057922e-003   9.9925784643e-001  -8.2769329086e-004  -7.8816165526e-004   2.5923264951e-005
  2.5022500000e+008  -2.3163094248e-004  -7.1154279167e-004   9.9554149852e-001  -5.8680218253e-003   1.0003444453e+000  -6.9132369787e-005  -1.1756990535e-003   7.0012577240e-004
  2.5881250000e+008  -7.0855520453e-004  -5.8533524065e-004   9.9529862686e-001  -5.6323975310e-003   1.0011365527e+000  -4.0375114658e-004  -9.0784164537e-004   4.8014241647e-004
  2.6740000000e+008  -8.1764765745e-004  -2.9623149518e-004   9.9581098516e-001  -6.0177307013e-003   1.0008781002e+000  -9.1677762531e-004  -7.2022536603e-004   2.2370006415e-004
  2.7598750000e+008  -2.5884598657e-004  -2.9050394560e-004   9.9516562799e-001  -7.1388576286e-003   1.0009371016e+000  -3.8730272566e-004  -5.7646734500e-004   7.1488401444e-004
  2.8457500000e+008  -8.1075010913e-004  -1.0329126229e-004   9.9551915310e-001  -6.2629500553e-003   1.0009414625e+000  -3.2098953146e-005  -4.6092586128e-004   4.4625120069e-004
  2.9316250000e+008  -6.9970462435e-004  -6.2736828672e-004   9.9202341548e-001  -8.4973699889e-003   1.0010035461e+000  -7.7850812875e-004  -1.2119505248e-004   4.3975308913e-004
  3.0175000000e+008  -1.0365208087e-003   2.2127724069e-004   9.9243981373e-001  -9.4045254153e-003   1.0009100340e+000   4.1163968481e-005  -4.6063659616e-004   4.4247128684e-004
  3.1033750000e+008  -9.4273903074e-004   3.1373245803e-004   9.9313854890e-001  -6.3750588018e-003   1.0019852679e+000  -5.4846567181e-004  -6.1404777969e-004   4.1310995623e-004
  3.1892500000e+008  -6.7354348128e-004   1.4275637665e-004   9.9231427025e-001  -7.9126942523e-003   1.0002332240e+000   4.9900970900e-004  -7.9289039173e-004   4.9040720130e-004
  3.2751250000e+008  -4.6583293423e-004   6.8613995527e-005   9.9166373186e-001  -8.2737383169e-003   1.0006800308e+000  -1.2099980116e-003  -6.8768427924e-004   9.4903893150e-005
  3.3610000000e+008  -8.8623976598e-004   1.7057404334e-004   9.9258788985e-001  -6.5575016820e-003   1.0008667129e+000  -7.6180353200e-004  -7.2087144789e-004   1.9125601138e-004
  3.4468750000e+008  -8.3352282608e-004   4.1923522403e-005   9.9302715547e-001  -6.8247460883e-003   1.0011525113e+000  -3.1523304013e-004  -8.4714580071e-004   1.1036436803e-004
  3.5327500000e+008  -4.3967996740e-004   1.0391496500e-004   9.9303618644e-001  -8.9802378337e-003   9.9950154110e-001  -1.4945788247e-003  -8.3881066589e-004   2.7176593074e-004
  3.6186250000e+008  -4.3917768397e-004   3.2250267783e-004   9.9396910874e-001  -7.4216969068e-003   1.0003494622e+000  -8.0377891061e-004  -5.3262679705e-004   3.2436303882e-004
  3.7045000000e+008  -5.4818692544e-004   6.2711878511e-004   9.9601827192e-001  -5.5405767359e-003   1.0006713118e+000  -1.2866639860e-003  -7.9533311004e-004   3.6474223363e-004
  3.7903750000e+008  -3.9332272028e-004   3.8852368971e-004   9.9486669796e-001  -6.5726945107e-003   1.0007998045e+000  -6.2702002409e-004  -4.0240942223e-004   2.9675582928e-004
  3.8762500000e+008  -2.7134620153e-004   3.9797871630e-004   9.9772323110e-001  -5.3491461198e-003   9.9980104645e-001  -9.9249892745e-004  -4.0023191164e-004   7.9158761152e-004
  3.9621250000e+008  -1.9052510729e-004   2.5254574696e-004   9.9602416974e-001  -5.9024341236e-003   1.0008725362e+000  -1.2764679689e-003  -4.8135794872e-004   7.6236449801e-004
  4.0480000000e+008   1.5286126497e-004   4.6257431162e-004   9.9627102029e-001  -7.5531878758e-003   1.0006396945e+000  -1.0652328063e-003  -2.1444685210e-004   2.4895541005e-004
  4.1338750000e+008   2.9209853116e-004   8.8081312614e-006   9.9479806910e-001  -5.7759962202e-003   1.0010047595e+000  -1.0773928323e-003   2.7832059544e-004   4.6410243584e-004
  4.2197500000e+008  -1.1412670808e-005  -6.7374318217e-005   9.9489322870e-001  -6.2542874255e-003   1.0004640166e+000  -9.9445221501e-004   2.3474394888e-005   4.8229537587e-004
  4.3056250000e+008   2.2027477762e-004  -1.0861219325e-004   9.9530240149e-001  -6.4515250016e-003   1.0006169304e+000  -1.0590464314e-003   4.3068048705e-004   4.1634984023e-004
  4.3915000000e+008   3.3986188758e-004  -4.4222088055e-006   9.9646081638e-001  -5.8951221414e-003   1.0006622543e+000  -1.5000587276e-003   7.2709074558e-004   4.0706980092e-004
  4.4773750000e+008   2.2512629889e-004  -2.4596476371e-004   9.9620901909e-001  -6.5258691880e-003   1.0003538553e+000  -1.2647378581e-003   6.4370617169e-004  -1.0799249384e-004
  4.5632500000e+008   9.8718719988e-006  -2.8356614365e-004   9.9382773086e-001  -6.0502273335e-003   1.0005127219e+000  -1.5050093148e-003   6.5004366784e-004   1.2451069309e-004
  4.6491250000e+008  -2.0381099128e-004  -1.5044239677e-004   9.9580626005e-001  -7.0339844804e-003   1.0001746663e+000  -1.5406626683e-003   5.6159332423e-004  -5.0651833622e-005
  4.7350000000e+008  -3.3493320937e-004  -4.4643005345e-004   9.9463627406e-001  -7.5195208828e-003   1.0002879348e+000  -1.0660911075e-003   6.8632787873e-004  -9.5864674426e-005
  4.8208750000e+008  -3.2906347081e-004  -7.9325421764e-006   9.9314299026e-001  -6.7086259718e-003   9.9982986890e-001  -1.2097257632e-003   6.8502743471e-004  -7.0637783405e-005
  4.9067500000e+008  -5.2760818076e-005  -3.8667392875e-004   9.9325487972e-001  -6.8819068370e-003   1.0000137060e+000  -1.4579419182e-003   3.3978779363e-004  -1.6876175693e-004
  4.9926250000e+008  -1.1559357426e-004  -5.1246107998e-004   9.9334433695e-001  -6.8039713087e-003   1.0000200648e+000  -8.1608275570e-004   6.7643174290e-004  -2.0599284501e-004
  5.0785000000e+008  -4.5832693529e-004  -1.6911536220e-004   9.9343456438e-001  -6.8941675427e-003   9.9996125989e-001  -6.6019278212e-004   4.4381251657e-004   7.3873420136e-005
  5.1643750000e+008  -5.1175644784e-004   7.3355298427e-005   9.9233140120e-001  -6.0935743859e-003   1.0004944868e+000  -4.4238744109e-004   6.2704554708e-004  -9.5837563044e-005
  5.2502500000e+008  -2.8789391841e-004   4.4716589545e-004   9.9433932459e-001  -5.8196109222e-003   1.0005935008e+000  -2.7688966624e-004   1.1720167566e-004  -4.3271823031e-004
  5.3361250000e+008   3.9429366812e-004   2.1316211628e-004   9.9538861504e-001  -7.6643002327e-003   1.0006335883e+000  -1.0833412577e-003  -3.0341004842e-004  -6.7721367880e-004
  5.4220000000e+008   5.9606981178e-004   9.3175333955e-005   9.8940080409e-001  -8.9154260489e-003   1.0006697816e+000  -1.5878843790e-003  -1.0056439665e-003  -1.9282967564e-004
  5.5078750000e+008   5.2792176780e-004  -4.9327124246e-004   9.8303853903e-001  -1.1525123502e-002   1.0005858415e+000  -1.6915723104e-003  -1.0606243114e-003  -9.2670826737e-006
  5.5937500000e+008   4.7648158252e-004  -6.1791642691e-004   9.8643242682e-001  -8.3041454782e-003   1.0006336253e+000  -1.2075831949e-003  -1.0035033364e-003   3.3575420636e-004
  5.6796250000e+008   3.0949468932e-004  -6.1863388966e-004   9.9610181752e-001  -6.9038827897e-003   1.0003841795e+000  -1.5336013657e-003  -1.0468741001e-003   5.7623184447e-004
  5.7655000000e+008  -1.4350004293e-004  -9.5125291106e-004   9.9608877591e-001  -8.5348756464e-003   1.0009894460e+000  -1.6467297920e-003  -8.5125138771e-004   1.0345099605e-003
  5.8513750000e+008  -3.4658154983e-004  -8.1460534774e-004   9.9571760376e-001  -7.7609840596e-003   1.0001080929e+000  -1.5821855865e-003  -7.7391477914e-004   9.4175284405e-004
  5.9372500000e+008  -5.9724194699e-004  -8.1869978695e-004   9.9508777168e-001  -7.0052013125e-003   9.9987099102e-001  -2.0064775671e-003  -5.3535625141e-004   1.1202142640e-003
  6.0231250000e+008  -9.0549460762e-004  -5.0899586895e-004   9.9416874790e-001  -7.4090247711e-003   1.0002931021e+000  -1.3626318852e-003  -2.2773148374e-004   1.0306356286e-003
  6.1090000000e+008  -8.4051304428e-004  -5.4394582982e-004   9.9536837311e-001  -7.3247126419e-003   9.9934924683e-001  -1.3358987644e-003  -4.5897953486e-004   1.0326504976e-003
  6.1948750000e+008  -8.0928140538e-004  -7.5836072223e-005   9.9340363240e-001  -7.0487003565e-003   9.9955420387e-001  -1.9817529881e-003  -1.8004271165e-004   5.4677685807e-004
  6.2807500000e+008  -8.5643431714e-004   1.1793421806e-005   9.9550491777e-001  -8.6121376758e-003   1.0002606324e+000  -2.1532092684e-003   2.0409425340e-004   3.0568539930e-004
  6.3666250000e+008  -3.7546434883e-004   3.7095463758e-004   9.9705327699e-001  -7.2142430061e-003   9.9960153746e-001  -1.9206488096e-003   2.0682681748e-004   2.3413284087e-004
  6.4525000000e+008  -3.6440441039e-006   4.0150099990e-004   9.9586689279e-001  -5.5516173585e-003   1.0002574107e+000  -2.0673453596e-003   4.2741064678e-004  -2.7939117382e-004
  6.5383750000e+008   5.9423492516e-005   2.5370508431e-004   9.9496488566e-001  -6.8314900302e-003   9.9961604084e-001  -1.5022540493e-003   4.2169143702e-004  -3.1351488662e-004
  6.6242500000e+008   2.1359333575e-004   2.1101834104e-004   9.9394008368e-001  -6.2441793978e-003   1.0003357875e+000  -2.7807624231e-003   4.2695647937e-004  -5.7072309816e-004
  6.7101250000e+008   2.2338272222e-004  -1.5031294654e-004   9.9508008716e-001  -6.0735025641e-003   9.9955977594e-001  -1.0452347437e-003   2.4162018847e-004  -7.8026250301e-004
  6.7960000000e+008   5.9839257514e-004  -3.5932538885e-004   9.9421092550e-001  -5.7956326623e-003   1.0007750595e+000  -1.9737558456e-003   1.8242734563e-004  -1.2097019003e-003
  6.8818750000e+008   2.4720226812e-004  -7.5476790021e-004   9.9469825861e-001  -7.1018196195e-003   1.0004544859e+000  -2.2905340274e-003  -2.2980645562e-004  -1.2140586744e-003
  6.9677500000e+008   2.3759209034e-004  -8.4833412482e-004   9.9587209711e-001  -5.9062164654e-003   1.0000774132e+000  -1.7721658542e-003  -4.1527187199e-004  -1.2252856100e-003
  7.0536250000e+008  -1.8254064122e-004  -9.7274404844e-004   9.9540385721e-001  -7.3676704502e-003   1.0005998766e+000  -2.1281817549e-003  -5.5193528382e-004  -1.5104316748e-003
  7.1395000000e+008  -3.4321514628e-004  -1.0464276229e-003   9.9547176001e-001  -7.0007827081e-003   9.9991690455e-001  -1.8960209343e-003  -7.7292106566e-004  -1.3376606657e-003
  7.2253750000e+008  -1.0973987670e-003  -8.3125148251e-004   9.9358826016e-001  -6.9433836026e-003   9.9951399451e-001  -2.3326537129e-003  -1.0090961953e-003  -1.1335854276e-003
  7.3112500000e+008  -9.7402818735e-004  -5.2475172281e-004   9.9442044845e-001  -7.1310693777e-003   1.0005495465e+000  -2.2488177756e-003  -9.8352495172e-004  -8.3585683177e-004
  7.3971250000e+008  -1.0195939804e-003  -2.1154655756e-004   9.9441543407e-001  -8.6689374672e-003   9.9899786405e-001  -2.1373238346e-003  -1.2329804623e-003  -6.0080609851e-004
  7.4830000000e+008  -1.0256878455e-003   3.6195145828e-004   9.9486701629e-001  -5.6455089943e-003   9.9956315811e-001  -1.8016354359e-003  -1.0823847105e-003  -5.9588489719e-004
  7.5688750000e+008  -9.1609814633e-004   3.9156968246e-004   9.9502338583e-001  -7.9069637469e-003   9.9946296328e-001  -1.6340961843e-003  -1.2670891624e-003  -6.5413718148e-005
  7.6547500000e+008  -4.0168104355e-004   8.2091593326e-004   9.9579173780e-001  -7.8301837028e-003   9.9918006312e-001  -2.2880191543e-003  -1.0933172592e-003   1.0373853316e-004
  7.7406250000e+008  -1.4768381791e-004   7.9210468479e-004   9.9535424582e-001  -7.3165350976e-003   1.0001260630e+000  -1.4955291792e-003  -9.3121049228e-004   2.3441869860e-004
  7.8265000000e+008   1.4690917593e-004   6.3907253546e-004   9.9442629743e-001  -6.6136425125e-003   9.9980159518e-001  -1.9168214424e-003  -8.3515423697e-004   7.1598030462e-004
  7.9123750000e+008   5.1081234826e-004   6.2098744469e-004   9.9614056776e-001  -6.2163599343e-003   9.9990048675e-001  -1.6852824111e-003  -6.8000372945e-004   5.8451975850e-004
  7.9982500000e+008   6.2249244566e-004   3.9605898131e-004   9.9716008917e-001  -6.2313303161e-003   1.0006846191e+000  -9.2381044962e-004  -6.1662362375e-004   7.5228838899e-004
  8.0841250000e+008   1.0725019365e-003   2.6188919372e-004   9.9694814546e-001  -6.7294552850e-003   9.9976717023e-001  -2.1524631263e-003  -4.2394034847e-004   9.6232683864e-004
  8.1700000000e+008   1.3290569951e-003  -1.0687463398e-004   9.9833623708e-001  -5.5894129965e-003   1.0004033212e+000  -2.0297721266e-003  -5.3244547924e-004   9.3403703188e-004
  8.2558750000e+008   1.2277539802e-003  -5.5134688600e-004   9.9620632494e-001  -5.5637651852e-003   1.0009860171e+000  -2.0213987691e-003  -3.3452114101e-004   1.0990643577e-003
  8.3417500000e+008   1.0195864855e-003  -1.0618405069e-003   9.9474307277e-001  -8.6460749563e-003   1.0007566458e+000  -2.6544321079e-003   2.7644341131e-005   1.2926818735e-003
  8.4276250000e+008   6.8274685975e-004  -1.4098891522e-003   9.9311067836e-001  -7.6580344395e-003   9.9982261990e-001  -2.4573897904e-003   2.8447896680e-005   1.1367236602e-003
  8.5135000000e+008   1.2824673283e-004  -1.2889684820e-003   9.9398829448e-001  -7.0063295314e-003   1.0006375280e+000  -1.9213347925e-003   3.1705083071e-004   1.1255691345e-003
  8.5993750000e+008  -1.2393573827e-004  -1.3629086611e-003   9.9303994934e-001  -7.7521320748e-003   1.0007354791e+000  -2.9021573954e-003   3.8793669551e-004   9.7834541867e-004
  8.6852500000e+008  -5.2647660237e-004  -9.5097909493e-004   9.9017404770e-001  -7.7300540602e-003   9.9965171872e-001  -2.1407184420e-003   4.6973712373e-004   5.3402116807e-004
  8.7711250000e+008  -4.4860587265e-004  -7.0598970053e-004   9.9161915546e-001  -8.6985250195e-003   1.0002476770e+000  -2.5216231770e-003   4.6687526662e-004   1.5131915929e-004
  8.8570000000e+008  -4.8945354417e-004  -5.5112091375e-004   9.9352955145e-001  -6.8510263180e-003   9.9949810733e-001  -3.7897994100e-003   3.7856780560e-004   2.6973784357e-005
  8.9428750000e+008  -3.7662813916e-004  -2.4942917741e-004   9.9077384999e-001  -8.4784994305e-003   1.0000207628e+000  -3.1042877130e-003  -2.4391668258e-005  -3.1882385998e-004
  9.0287500000e+008   7.6796151489e-005  -2.9909247249e-004   9.9268434183e-001  -8.7993503367e-003   9.9962714154e-001  -3.5965941805e-003  -1.6976153844e-004  -4.1969835330e-004
  9.1146250000e+008   1.0342732195e-004  -1.1291153515e-004   9.9285613359e-001  -9.3852744400e-003   9.9848728225e-001  -3.1356920501e-003  -6.0406953993e-004  -3.1778381292e-004
  9.2005000000e+008   1.8542630676e-004  -2.9572917495e-004   9.9175780233e-001  -7.4097626500e-003   9.9844652333e-001  -1.9651434441e-003  -9.0766557495e-004  -5.4895422756e-004
  9.2863750000e+008   3.5156541133e-004  -4.0061514916e-004   9.9510816948e-001  -7.7898779141e-003   9.9925605779e-001  -3.0651464919e-003  -1.0534278021e-003  -6.1523038517e-004
  9.3722500000e+008   4.3725782879e-004  -7.6091919870e-004   9.9581968043e-001  -6.2124287468e-003   9.9916198972e-001  -3.1171614958e-003  -1.1637940174e-003  -6.5665086428e-004
  9.4581250000e+008   3.4397199861e-004  -1.0283760786e-003   9.9603658532e-001  -5.8493320464e-003   9.9950277696e-001  -1.7702126861e-003  -1.3116697520e-003  -4.0341702658e-004
  9.5440000000e+008   3.1133921487e-005  -1.1816906056e-003   9.9568757268e-001  -6.7804910826e-003   9.9958024876e-001  -2.0554800244e-003  -1.4498224474e-003  -1.9778489660e-004
  9.6298750000e+008  -1.8700201540e-004  -1.3411823442e-003   9.9690963189e-001  -5.3152642815e-003   1.0006247331e+000  -2.3404104017e-003  -1.4221090496e-003  -7.5940686135e-005
  9.7157500000e+008  -4.9468121720e-004  -1.3071750997e-003   9.9614448444e-001  -7.3203472671e-003   1.0011005767e+000  -2.0063861702e-003  -1.3629051441e-003  -9.4578890173e-005
  9.8016250000e+008  -7.4709423124e-004  -1.0931321510e-003   9.9796730697e-001  -6.7423442353e-003   9.9929039291e-001  -3.7919548913e-003  -1.3494955490e-003   1.3834942004e-004
  9.8875000000e+008  -1.0498502770e-003  -8.1802258578e-004   9.9620591400e-001  -5.4463397179e-003   9.9928373969e-001  -2.1334595601e-003  -1.1605178133e-003   1.9741833814e-004
  9.9733750000e+008  -1.0255844425e-003  -5.4004881949e-004   9.9576370416e-001  -7.3060407365e-003   9.9947504508e-001  -2.1956452203e-003  -9.9286206514e-004   2.9575191727e-005
  1.0059250000e+009  -1.0700546983e-003  -3.9165165889e-005   9.9699522106e-001  -5.8677209850e-003   1.0006611359e+000  -2.7867896212e-003  -5.7024774187e-004   8.0466249120e-005
  1.0145125000e+009  -9.0355604649e-004   2.6124323774e-004   9.9371256682e-001  -1.0034610926e-002   1.0001466123e+000  -2.6420583201e-003  -2.9290914718e-004  -1.3789709927e-005
  1.0231000000e+009  -7.1924827585e-004   4.5716692112e-004   9.9221874324e-001  -7.8672092897e-003   9.9964868910e-001  -2.2055238524e-003  -6.3989366887e-005   3.6428227649e-006
  1.0316875000e+009  -3.4602764349e-004   6.8296870767e-004   9.9293690663e-001  -9.0071788908e-003   9.9946900242e-001  -2.7488824738e-003   1.0170600561e-004  -1.6181959212e-004
  1.0402750000e+009   3.3770125714e-005   6.7270813534e-004   9.9226806209e-001  -8.1628404369e-003   9.9951561922e-001  -1.7853642715e-003   2.9915543518e-004  -3.5051564515e-004
  1.0488625000e+009   3.2440846946e-004   6.8245740615e-004   9.9297606930e-001  -8.0995532371e-003   9.9942992523e-001  -2.3278094985e-003   5.7141262736e-004  -5.3294919697e-004
  1.0574500000e+009   6.5797757022e-004   2.4536470100e-004   9.9184948657e-001  -7.3854390841e-003   9.9936897447e-001  -2.5228784137e-003   5.9559051373e-004  -7.7907290049e-004
