# Hz S RI R 50.000000
! Metas.Vna.Tools, 2.8.8664.20301
! Metas.Vna.Data, 2.8.8664.20285
! Created: UTC 2024.02.11 10:08:55
! FREQ                re:S1,1             im:S1,1             re:S2,1             im:S2,1             re:S1,2             im:S1,2             re:S2,2             im:S2,2          
  1.3000000000e+008  -1.2856199119e-004  -1.0456571932e-003   9.8895915190e-001  -6.9753289106e-003   1.0005387379e+000   6.6937329268e-004   1.2181481666e-003   2.1653007152e-004
  1.3858750000e+008  -5.8309918471e-004  -1.5926943423e-003   9.8901357494e-001  -6.7031755126e-003   1.0004355905e+000   4.9208779611e-004   9.8634889685e-004  -6.1578960894e-004
  1.4717500000e+008  -1.1618601686e-003  -1.1826750158e-003   9.8824322845e-001  -7.9619516386e-003   9.9993622638e-001   4.5383211850e-004   7.6628442887e-004  -2.4067064719e-004
  1.5576250000e+008  -1.3467614090e-003   2.9859136580e-004   9.8964010534e-001  -7.5165979932e-003   1.0006336561e+000   7.8781181273e-004   1.5412273006e-003  -1.2397441284e-003
  1.6435000000e+008  -9.1813576138e-004   1.0695052216e-003   9.8955122159e-001  -5.9882059439e-003   1.0004126729e+000   3.2617364920e-004   1.0250760787e-003  -6.2478409092e-004
  1.7293750000e+008  -6.1832936863e-004   7.5857276603e-004   9.8973157860e-001  -6.7998117296e-003   1.0002977882e+000   1.0556591517e-004   9.7241168030e-004  -8.4242198992e-004
  1.8152500000e+008  -5.5401134366e-004   5.0982562213e-004   9.8880268860e-001  -6.9920029803e-003   1.0000749437e+000   1.1317442463e-004   7.5650570480e-004  -7.0534722727e-004
  1.9011250000e+008  -7.3008618609e-005   4.5667925282e-004   9.9020057576e-001  -7.8613499277e-003   1.0007861084e+000  -2.6489490718e-004   1.1738051835e-004  -1.4824287411e-003
  1.9870000000e+008   2.3859316615e-004   6.4213789701e-004   9.8877067464e-001  -7.0746231789e-003   1.0007895879e+000  -3.8417086874e-004   7.0516011562e-004  -6.3193680836e-004
  2.0728750000e+008  -9.0702408784e-005  -1.5023797824e-004   9.8905631025e-001  -6.5029013950e-003   1.0004386399e+000  -3.6001261993e-004  -2.0703525776e-004  -2.7637838704e-004
  2.1587500000e+008   7.1271043263e-005  -4.1166393107e-004   9.9014661927e-001  -7.1047056040e-003   9.9980075021e-001   1.5380372486e-004  -2.9819911221e-004   6.4155017621e-005
  2.2446250000e+008   3.4110096770e-005  -3.4990634382e-004   9.8958102220e-001  -7.1795870934e-003   1.0007074605e+000   3.8073113176e-004  -2.9003406492e-004  -7.2521794812e-005
  2.3305000000e+008   4.0247120878e-005  -1.3992531621e-004   9.8875993591e-001  -6.6979352708e-003   1.0006744134e+000   1.9946583296e-004  -2.6009186255e-004   3.0401081705e-004
  2.4163750000e+008  -2.1474060948e-004  -3.6044281211e-004   9.8813750239e-001  -8.8557398034e-003   1.0000529489e+000  -9.7280553860e-004  -7.1699939460e-004   9.8841206114e-005
  2.5022500000e+008  -2.2602815658e-004  -5.9473582181e-004   9.9117925192e-001  -7.3976303296e-003   1.0005765714e+000  -4.5013566602e-004  -9.2404292400e-004   7.0894517269e-004
  2.5881250000e+008  -5.4789591022e-004  -5.1246658376e-004   9.8915290801e-001  -6.2306585521e-003   1.0009125191e+000  -1.0616391798e-003  -6.3707234946e-004   1.0920600677e-003
  2.6740000000e+008  -9.7080420447e-004  -4.3492498549e-004   9.8993351457e-001  -7.7161677049e-003   1.0004604434e+000  -9.6090047920e-004  -7.3680679848e-004   5.3376256433e-004
  2.7598750000e+008   1.4570195026e-004  -5.5374215895e-004   9.8831838401e-001  -8.5314667330e-003   1.0000290846e+000  -7.2784397707e-004  -5.2097778504e-004   6.9182322010e-004
  2.8457500000e+008  -6.6269463988e-004  -2.4836585689e-004   9.8753831404e-001  -8.5509094372e-003   1.0003226058e+000  -1.7539353827e-004  -4.7936779809e-004   8.5359134514e-004
  2.9316250000e+008  -5.2237201048e-004  -2.4722482776e-004   9.9015870884e-001  -7.3249592192e-003   1.0009041361e+000  -8.0805871887e-004  -5.6181339379e-004   4.8642901244e-004
  3.0175000000e+008  -1.0055101563e-003   2.3067206148e-004   9.9136096688e-001  -8.9929188427e-003   1.0004468067e+000  -7.2434696298e-005  -3.5754821560e-004   2.2828015488e-004
  3.1033750000e+008  -8.1761054848e-004   3.3898479448e-005   9.8965862592e-001  -7.2543568842e-003   1.0011907351e+000  -8.4624027739e-004  -5.8329038030e-004   6.1387517867e-004
  3.1892500000e+008  -6.3656265757e-004   1.7601328555e-004   9.8982422680e-001  -7.4421622758e-003   1.0005190648e+000   2.2157484260e-004  -9.3523725737e-004   2.8793665301e-004
  3.2751250000e+008  -5.4701101168e-004   3.4029076344e-005   9.9007720849e-001  -8.3400021993e-003   9.9995373254e-001  -1.2237058919e-003  -3.9374291452e-004   5.7548921306e-004
  3.3610000000e+008  -8.9438551721e-004   7.6146914042e-005   9.9193161691e-001  -7.2595222661e-003   1.0011306527e+000  -8.3225581902e-004  -6.0024422362e-004   2.1583269925e-004
  3.4468750000e+008  -7.7853569648e-004   5.1142626449e-005   9.8969198611e-001  -7.4527009763e-003   1.0009640601e+000  -7.9396423189e-004  -5.4761942358e-004   1.1434490473e-004
  3.5327500000e+008  -5.1701418680e-004   1.7766549315e-004   9.9179778493e-001  -7.5375941226e-003   9.9971400548e-001  -1.2606224897e-003  -5.4711415980e-004   4.5838779755e-006
  3.6186250000e+008  -4.0833885910e-004   4.0963856125e-004   9.9072032535e-001  -7.4095002150e-003   1.0011278136e+000  -5.0145541988e-004  -5.2312543182e-004   2.2674822654e-004
  3.7045000000e+008  -9.3579573653e-004   4.6282082253e-004   9.8854816300e-001  -7.7861663414e-003   1.0010053623e+000  -1.1560290679e-003  -7.6160887245e-004   2.7373389899e-004
  3.7903750000e+008  -6.6520771816e-004   5.9668184004e-004   9.8809715552e-001  -7.7596715928e-003   1.0006652944e+000  -1.1213178694e-003  -6.2560080693e-004   4.0789527812e-004
  3.8762500000e+008  -3.6114332753e-004   4.5901685138e-004   9.9130590839e-001  -6.5518553782e-003   9.9986583949e-001  -6.5321391822e-004  -5.9624086756e-004   4.9957340077e-004
  3.9621250000e+008   1.0868212731e-004   3.5220128263e-004   9.8962925486e-001  -8.0076707615e-003   1.0007836403e+000  -7.1733597795e-004  -6.3918708792e-004   3.1502029557e-004
  4.0480000000e+008   2.4387172332e-004   4.9201020220e-004   9.9097202251e-001  -7.6810435257e-003   1.0006864002e+000  -8.6794305833e-004  -2.6677488309e-004   2.7417375592e-004
  4.1338750000e+008   3.5100039778e-004   3.2247322861e-004   9.9017209679e-001  -6.9102356618e-003   1.0007607181e+000  -1.0130255866e-003   6.9567397320e-005   1.2905877053e-004
  4.2197500000e+008   1.2670806691e-004  -3.2435109619e-004   9.9028204861e-001  -7.9566528807e-003   1.0003447445e+000  -9.5377886819e-004   2.0649629495e-005   6.3840043650e-004
  4.3056250000e+008   3.1793096893e-004  -1.0930041922e-004   9.9069524696e-001  -7.2165511329e-003   1.0006355300e+000  -1.0014537669e-003   3.8419633358e-004   3.6456562990e-004
  4.3915000000e+008   4.0375399646e-005  -2.9926810144e-004   9.9258118343e-001  -6.9783099367e-003   9.9998609548e-001  -1.5589393258e-003   5.3741812400e-004   2.3150678952e-004
  4.4773750000e+008   1.8609828118e-004  -3.8642370460e-004   9.9229707881e-001  -7.2525924328e-003   1.0004214789e+000  -1.6307181040e-003   3.9136672313e-004   1.6764878217e-005
  4.5632500000e+008  -1.9350662525e-004  -5.8782611464e-004   9.9027536143e-001  -7.0330606083e-003   1.0001154431e+000  -1.2588548426e-003   7.0233843221e-004   3.1349555909e-004
  4.6491250000e+008  -2.7036053905e-004  -2.2413359773e-004   9.9099970785e-001  -8.6650071431e-003   1.0002279359e+000  -1.4210556674e-003   5.8720353655e-004   1.7891319199e-005
  4.7350000000e+008  -5.1621121250e-004  -3.8268474117e-004   9.8966720944e-001  -8.0550487212e-003   1.0000108751e+000  -1.0997444434e-003   4.5696885633e-004   9.8143830791e-005
  4.8208750000e+008  -5.3588005043e-004   1.8244171189e-004   9.8761297529e-001  -8.2367816162e-003   9.9979504125e-001  -1.2843892551e-003   8.8555349268e-004   2.0406970307e-004
  4.9067500000e+008  -4.9222952489e-005  -2.0125438570e-004   9.8718198066e-001  -8.7607447556e-003   1.0001363578e+000  -1.4829783480e-003   4.6929510357e-004   8.0747345352e-005
  4.9926250000e+008  -2.7634968502e-004  -2.6499609154e-004   9.8816669764e-001  -7.5214512330e-003   9.9992249391e-001  -1.1539382587e-003   7.4504533059e-004   3.9878745556e-005
  5.0785000000e+008  -4.1098365019e-004  -2.6142821238e-005   9.8714926488e-001  -7.6664508625e-003   1.0000733251e+000  -6.4740709457e-004   6.3820098350e-004   1.3956414780e-004
  5.1643750000e+008  -2.6047975488e-004   2.4731766028e-004   9.8647170742e-001  -7.5061410442e-003   1.0005266030e+000  -1.2405629473e-003   7.5347839364e-004  -2.0983046290e-004
  5.2502500000e+008  -2.1387788510e-004   3.2331207793e-004   9.8799932983e-001  -6.7757679196e-003   1.0008049377e+000  -4.4871549672e-004   2.3194016072e-004  -5.6088442002e-004
  5.3361250000e+008   2.3682393580e-004   2.6889374239e-004   9.8801311648e-001  -8.9876351946e-003   1.0003002700e+000  -1.4671316693e-003  -1.6099821869e-004  -6.8221443504e-004
  5.4220000000e+008   5.6614486098e-004  -3.1183377649e-005   9.8739776729e-001  -8.4730739497e-003   1.0003366120e+000  -1.1350545699e-003  -7.4585577739e-004  -2.8382226977e-004
  5.5078750000e+008   5.0475338637e-004  -5.4040836968e-004   9.8792355813e-001  -1.0280654407e-002   1.0001240949e+000  -1.4029060226e-003  -9.6576331063e-004  -3.5359401772e-004
  5.5937500000e+008   4.9863845595e-004  -6.9773035727e-004   9.8722793624e-001  -9.2851255619e-003   1.0003995576e+000  -1.2967211867e-003  -9.0135387833e-004   1.1702070371e-004
  5.6796250000e+008   3.5486834175e-004  -7.9521077618e-004   9.8782046478e-001  -9.8548720328e-003   1.0002165900e+000  -1.1136342990e-003  -1.0690792563e-003   3.3241527030e-004
  5.7655000000e+008  -2.6151874257e-004  -9.9140992674e-004   9.8930497500e-001  -9.1053268919e-003   1.0001989100e+000  -1.6672439512e-003  -8.6673725247e-004   6.0040303828e-004
  5.8513750000e+008  -4.7267912914e-004  -9.7628389836e-004   9.8684256483e-001  -9.9261735485e-003   9.9999583080e-001  -1.4911146567e-003  -9.4796944887e-004   6.9421054019e-004
  5.9372500000e+008  -5.3264613684e-004  -9.0867393316e-004   9.8624865649e-001  -9.5642649228e-003   1.0001433772e+000  -1.8784448424e-003  -6.3358741754e-004   9.6421966094e-004
  6.0231250000e+008  -1.0776294078e-003  -5.8730617732e-004   9.8633290824e-001  -8.6563083411e-003   9.9997932794e-001  -1.3277342843e-003  -5.5087548191e-004   8.1685280130e-004
  6.1090000000e+008  -8.8805556805e-004  -3.1863853629e-004   9.8702992808e-001  -1.0632529027e-002   9.9943743009e-001  -1.3435181039e-003  -5.8125604376e-004   9.0553354170e-004
  6.1948750000e+008  -9.1191330483e-004   1.4260646215e-005   9.8710192218e-001  -7.0787836335e-003   9.9974273223e-001  -1.1612584808e-003  -3.4878415195e-004   7.9634923201e-004
  6.2807500000e+008  -1.0097078839e-003   5.3092967651e-005   9.8735377887e-001  -1.0627322218e-002   1.0001268848e+000  -1.4863550541e-003  -1.7728776275e-004   6.4190268438e-004
  6.3666250000e+008  -3.5320268881e-004   4.9869688618e-004   9.8827815927e-001  -8.4700986075e-003   1.0005002335e+000  -1.9080930604e-003   1.3955630556e-004   3.2421450957e-004
  6.4525000000e+008  -1.0563001044e-004   4.7540778699e-004   9.8658158068e-001  -7.5696247648e-003   1.0004008651e+000  -1.1580111535e-003   2.8078067632e-004   8.2672168932e-005
  6.5383750000e+008   5.0134505736e-005   3.5780319320e-004   9.8733711052e-001  -9.2938483471e-003   9.9968777879e-001  -1.1969907291e-003   2.0596929819e-004  -4.2017382326e-005
  6.6242500000e+008   3.6928548368e-004   2.6189327730e-004   9.8562181121e-001  -9.2628224285e-003   1.0003421798e+000  -2.4015607380e-003   1.9573366917e-004  -3.8596804958e-004
  6.7101250000e+008   5.0506729730e-004  -8.6055061982e-005   9.8774957431e-001  -7.7931403312e-003   9.9993301162e-001  -1.0162292069e-003   3.6998979526e-004  -5.8047749083e-004
  6.7960000000e+008   7.9391460651e-004  -4.5789925599e-004   9.8722313271e-001  -9.1465965193e-003   9.9979884208e-001  -2.0151553934e-003   3.5484167262e-004  -8.7625933127e-004
  6.8818750000e+008   2.7173578961e-004  -9.3333909797e-004   9.8583393992e-001  -9.2216711943e-003   9.9999028056e-001  -2.0759598434e-003   8.8688920281e-005  -1.1308921738e-003
  6.9677500000e+008   2.7020953942e-004  -1.0941059076e-003   9.8618871126e-001  -9.5737227229e-003   9.9974044709e-001  -2.2935830376e-003  -1.1430756499e-004  -1.0851664206e-003
  7.0536250000e+008  -4.4528214228e-005  -1.1925756484e-003   9.8709484749e-001  -8.3200779140e-003   9.9969737183e-001  -1.8719848748e-003  -3.4768119338e-004  -1.1455067300e-003
  7.1395000000e+008  -5.6388040774e-004  -1.1858643667e-003   9.8557495729e-001  -7.9165627326e-003   9.9967585628e-001  -1.8214371534e-003  -4.7786830782e-004  -1.1431951763e-003
  7.2253750000e+008  -9.9135018024e-004  -1.0318182647e-003   9.8421008661e-001  -9.4279171258e-003   9.9971409684e-001  -1.9002785989e-003  -7.1862143125e-004  -1.2998071169e-003
  7.3112500000e+008  -1.0653758251e-003  -7.0113704544e-004   9.8453058526e-001  -9.6047807152e-003   1.0001805136e+000  -1.7902710796e-003  -8.6163948282e-004  -1.0904840745e-003
  7.3971250000e+008  -1.1130292439e-003  -1.3277001037e-004   9.8631716011e-001  -1.0141881126e-002   9.9954251301e-001  -1.8664087222e-003  -1.1244771250e-003  -9.5707846718e-004
  7.4830000000e+008  -1.0844839378e-003   3.2704645258e-004   9.8600750609e-001  -8.4207992140e-003   9.9970959580e-001  -1.1876231385e-003  -1.0212160323e-003  -7.3487725224e-004
  7.5688750000e+008  -9.1175904185e-004   7.6155881633e-004   9.8614101095e-001  -1.1014093787e-002   9.9902334122e-001  -2.4274664116e-003  -1.2787706669e-003  -4.8694460349e-004
  7.6547500000e+008  -3.1350293361e-004   8.6435665507e-004   9.8555271591e-001  -1.0473328697e-002   9.9957456887e-001  -2.3084383386e-003  -1.2616031987e-003  -1.9885351273e-004
  7.7406250000e+008  -7.0003036226e-006   9.3547910209e-004   9.8610068510e-001  -1.0371800238e-002   9.9967819469e-001  -1.9688700886e-003  -1.0040076860e-003   6.7182913562e-005
  7.8265000000e+008   3.4558992804e-004   6.4879762733e-004   9.8683083252e-001  -8.7980559701e-003   9.9977459878e-001  -2.3143777642e-003  -1.0896818535e-003   4.2241488102e-004
  7.9123750000e+008   8.1279488657e-004   4.5313088057e-004   9.8715203502e-001  -8.5731549019e-003   9.9983569987e-001  -2.1759002984e-003  -1.0005615627e-003   4.3480264783e-004
  7.9982500000e+008   9.3629923836e-004   1.4313360063e-004   9.8838114914e-001  -7.3810853108e-003   1.0003886139e+000  -1.3230276742e-003  -8.0194013447e-004   7.2471079027e-004
  8.0841250000e+008   1.0781998011e-003  -6.2965654298e-005   9.8696055571e-001  -1.0457494715e-002   9.9985500410e-001  -1.5527529083e-003  -8.2195284056e-004   1.0690213947e-003
  8.1700000000e+008   1.2423855819e-003  -4.7882038309e-004   9.8775542618e-001  -9.1168830809e-003   1.0004394622e+000  -1.9190409429e-003  -5.0811292961e-004   1.0770882819e-003
  8.2558750000e+008   1.0879070910e-003  -7.5235168322e-004   9.8959196339e-001  -8.2571904691e-003   1.0000969634e+000  -2.4234729286e-003  -6.4770026012e-004   1.3499245035e-003
  8.3417500000e+008   9.1026780813e-004  -1.2483490175e-003   9.8943169883e-001  -8.5376588263e-003   1.0018401451e+000  -2.5900708170e-003  -2.1580965962e-004   1.4331390612e-003
  8.4276250000e+008   3.2772772022e-004  -1.2468906575e-003   9.8644066610e-001  -8.6717395645e-003   9.9948711314e-001  -2.1685909352e-003  -2.6928470135e-005   1.2310532109e-003
  8.5135000000e+008  -1.4890544303e-004  -1.1727528739e-003   9.8695581850e-001  -8.7758278115e-003   1.0009103154e+000  -2.2694831630e-003   3.7359944760e-004   1.2749795748e-003
  8.5993750000e+008  -2.7002346465e-004  -1.1692947892e-003   9.8807107462e-001  -7.0979133103e-003   9.9949017712e-001  -2.2400905801e-003   2.9805295842e-004   1.2113926574e-003
  8.6852500000e+008  -5.8701393894e-004  -9.1995541234e-004   9.8763281858e-001  -7.6333917347e-003   9.9956059248e-001  -1.3654459136e-003   5.6500892913e-004   9.6813626098e-004
  8.7711250000e+008  -4.4086656939e-004  -5.9124353467e-004   9.8710332551e-001  -9.0688102620e-003   1.0000004791e+000  -3.1183647806e-003   6.4093975708e-004   3.1768516665e-004
  8.8570000000e+008  -4.1619417423e-004  -4.1924185664e-004   9.8871960848e-001  -7.9273609638e-003   9.9921629000e-001  -2.7782523138e-003   7.0822755265e-004   1.8117305987e-004
  8.9428750000e+008  -1.2822546851e-004  -1.7492772395e-004   9.8764138101e-001  -9.4625507987e-003   9.9966410759e-001  -2.1258497485e-003   4.2680659391e-004  -2.4025363886e-004
  9.0287500000e+008   1.6773652277e-004  -2.1487162466e-004   9.8662266940e-001  -9.3709518846e-003   9.9976393374e-001  -3.6316188514e-003   4.0874346413e-005  -4.7099075426e-004
  9.1146250000e+008   2.1664453570e-004  -2.7558921041e-004   9.8573425997e-001  -1.0406121742e-002   9.9867783310e-001  -2.2607136638e-003  -3.5621789880e-004  -4.9061699803e-004
  9.2005000000e+008   2.8315826487e-004  -4.6624312351e-004   9.8520516435e-001  -7.9926465937e-003   9.9879939036e-001  -1.9398802570e-003  -4.9251540664e-004  -7.2619200261e-004
  9.2863750000e+008   4.8975656952e-004  -5.6742913743e-004   9.8698108316e-001  -8.7150329685e-003   9.9912737282e-001  -2.9964421650e-003  -7.0789713324e-004  -7.7812174819e-004
  9.3722500000e+008   3.3903029395e-004  -8.3809145724e-004   9.8913243771e-001  -8.2893986163e-003   9.9878209079e-001  -2.1197736683e-003  -8.9947920616e-004  -8.8373601937e-004
  9.4581250000e+008   3.5949155433e-004  -1.1603627389e-003   9.8741149741e-001  -7.9658574888e-003   9.9962264974e-001  -1.6951746563e-003  -1.3498268135e-003  -7.6817395135e-004
  9.5440000000e+008  -4.0670621388e-005  -1.2341795141e-003   9.8600586356e-001  -9.5590379220e-003   1.0007337559e+000  -1.3942916295e-003  -1.4665531185e-003  -4.9095571378e-004
  9.6298750000e+008  -3.0193809619e-004  -1.2745471032e-003   9.8730802901e-001  -8.8785856315e-003   1.0006158784e+000  -3.4574564294e-003  -1.5797165573e-003  -2.9578224575e-004
  9.7157500000e+008  -6.1591284671e-004  -1.3532464936e-003   9.8732458745e-001  -8.6429491427e-003   1.0002616732e+000  -2.4081403479e-003  -1.5333137695e-003  -3.0506624253e-004
  9.8016250000e+008  -9.3394965216e-004  -1.0261423426e-003   9.8712063976e-001  -9.8312374469e-003   9.9952909032e-001  -3.5195676631e-003  -1.5388011130e-003  -2.4045470632e-005
  9.8875000000e+008  -1.0886115523e-003  -5.9877647400e-004   9.8647469589e-001  -8.0788900934e-003   9.9824322308e-001  -1.9361884631e-003  -1.5254015648e-003   1.1538579648e-004
  9.9733750000e+008  -1.1185926677e-003  -3.4056084943e-004   9.8668485270e-001  -1.0550725639e-002   9.9910580167e-001  -1.5883460505e-003  -1.4414986174e-003   1.3531949079e-004
  1.0059250000e+009  -9.6181226716e-004   1.3349789191e-004   9.8751284823e-001  -9.2191890704e-003   1.0000037745e+000  -2.5947537680e-003  -9.6717913053e-004   2.5465897213e-004
  1.0145125000e+009  -7.6312077469e-004   4.8222680645e-004   9.8649414177e-001  -1.0995155108e-002   9.9970348104e-001  -1.6973633093e-003  -6.4774221785e-004   2.1615320788e-004
  1.0231000000e+009  -5.2970164555e-004   4.0651560766e-004   9.8700203452e-001  -9.0156620485e-003   9.9929581632e-001  -2.7899199615e-003  -4.7766204569e-004   3.4825270244e-004
  1.0316875000e+009  -1.6808504826e-004   6.3326487889e-004   9.8714574193e-001  -1.0540181194e-002   9.9920148460e-001  -2.7958018401e-003  -3.9105105246e-005   1.1584452839e-004
  1.0402750000e+009   2.7040163498e-004   6.9088618493e-004   9.8543597885e-001  -9.4455151402e-003   9.9984242646e-001  -2.2527296499e-003   3.9020251027e-004  -4.6540005964e-005
  1.0488625000e+009   4.9604744278e-004   4.7966269171e-004   9.8696466178e-001  -9.2173671577e-003   9.9904868022e-001  -3.1990232720e-003   5.1226803475e-004  -1.9825785250e-004
  1.0574500000e+009   6.6791726993e-004   1.7314730214e-004   9.8645127221e-001  -9.3783848418e-003   9.9924427927e-001  -2.8904059196e-003   7.8555243430e-004  -4.6980630365e-004
