# Hz S RI R 50.000000
! Metas.Vna.Tools, 2.8.8664.20301
! Metas.Vna.Data, 2.8.8664.20285
! Created: UTC 2024.02.11 10:08:40
! FREQ                re:S1,1             im:S1,1             re:S2,1             im:S2,1             re:S1,2             im:S1,2             re:S2,2             im:S2,2          
  1.3000000000e+008   7.2285600507e-004  -9.7702933117e-004   9.9456051715e-001  -5.8806449355e-003   1.0005917329e+000  -2.5585599864e-004   1.6322515781e-003   2.8876567323e-004
  1.3858750000e+008  -1.1362284577e-003  -1.2963991766e-003   9.9473856326e-001  -6.4673283166e-003   1.0010029939e+000   4.6415745813e-004   1.6816174113e-003  -4.8610724625e-004
  1.4717500000e+008  -1.7218516770e-003  -1.3680200327e-003   9.9197008058e-001  -6.7358856419e-003   1.0006362421e+000   4.3115323836e-004   7.2124105958e-004  -2.1590878742e-004
  1.5576250000e+008  -1.1242102095e-003  -1.3082195180e-004   9.9236345608e-001  -5.7246370846e-003   1.0009583799e+000   5.5353681955e-004   1.4724840435e-003  -8.4881689423e-004
  1.6435000000e+008  -8.7213948617e-004   4.8160698471e-004   9.9415724288e-001  -6.4880907609e-003   1.0006480235e+000   2.0448408838e-004   9.6165151050e-004  -6.6580559681e-004
  1.7293750000e+008  -1.4268812397e-003   6.0932488550e-004   9.9730483605e-001  -4.9836029867e-003   1.0003337835e+000  -8.3209798246e-005   1.4368218743e-003  -7.1493980588e-004
  1.8152500000e+008  -7.4530653622e-004   3.3751585696e-004   9.9644061219e-001  -5.5663067429e-003   9.9979246100e-001  -1.2412735023e-004   4.4088448059e-004  -8.4593264550e-004
  1.9011250000e+008  -7.1903026880e-004   4.2648076406e-004   9.9753597287e-001  -6.8054370347e-003   1.0007805487e+000  -2.4566562856e-004   2.4576132833e-004  -1.0223210561e-003
  1.9870000000e+008   5.9606769580e-005   6.2247507804e-004   9.9757731652e-001  -4.9535868031e-003   1.0006947046e+000  -2.0988719889e-004   5.3249575095e-004  -2.6479010652e-004
  2.0728750000e+008   6.0717615421e-004   3.9042317781e-004   9.9757326262e-001  -5.0795137472e-003   1.0005603557e+000  -1.1509017369e-005   5.1470777671e-005  -4.7469619157e-004
  2.1587500000e+008   1.9768951663e-004  -8.6507797797e-005   9.9773369701e-001  -5.4885003965e-003   9.9988114773e-001   5.0331481416e-004  -4.5610605976e-004  -1.2774214739e-004
  2.2446250000e+008   1.3413080943e-004  -5.4170361216e-004   9.9627094858e-001  -6.1424367445e-003   1.0003062227e+000   8.4683078659e-005  -4.2830257821e-004  -6.3092031825e-006
  2.3305000000e+008  -7.8685030520e-005   1.6568047356e-004   9.9270738806e-001  -6.7297821795e-003   1.0001808388e+000  -4.3891456782e-004  -3.2065190813e-004   2.7245014816e-004
  2.4163750000e+008   1.4680033073e-005  -3.2408463429e-004   9.9664667866e-001  -6.4771587479e-003   1.0003798026e+000  -9.6225419701e-004  -8.7069594980e-004   2.9327913077e-004
  2.5022500000e+008  -2.8423650853e-004  -5.5614566258e-004   9.9685352592e-001  -5.1543666682e-003   1.0005153692e+000  -9.3693936406e-004  -1.1794366526e-003   7.0574378470e-004
  2.5881250000e+008  -4.1736399707e-004  -6.4910701810e-004   9.9486918481e-001  -5.6770417657e-003   1.0005062140e+000  -1.6574018981e-003  -7.1130060671e-004   7.4880043518e-004
  2.6740000000e+008  -6.0279679026e-004  -4.4610763484e-004   9.9552951160e-001  -6.5849467036e-003   1.0013030441e+000  -1.8842811193e-003  -6.3893038694e-004   2.1424027531e-004
  2.7598750000e+008  -5.5336227051e-004  -4.6846955212e-004   9.9402089407e-001  -7.4176070740e-003   1.0009919650e+000  -2.1877559886e-004  -5.8910513359e-004   8.4017133651e-004
  2.8457500000e+008  -8.9530978240e-004  -4.1015559007e-004   9.9493375748e-001  -6.1404541295e-003   1.0004737431e+000  -3.4520284209e-004  -5.0640301224e-004   9.9309605774e-004
  2.9316250000e+008  -7.6026103829e-004  -4.8578581826e-004   9.9548473197e-001  -6.2592429119e-003   1.0007572470e+000  -1.0133316576e-003  -4.4013751143e-004   4.2897255938e-004
  3.0175000000e+008  -9.3775095230e-004   3.7932348978e-004   9.9566092226e-001  -7.4573406297e-003   1.0000846735e+000  -1.0666915295e-003  -3.9374530170e-004   5.5973218173e-004
  3.1033750000e+008  -8.8066533641e-004   3.2601372101e-004   9.9778015039e-001  -4.8353654356e-003   1.0012671733e+000  -8.3921897333e-004  -6.8935656933e-004   6.9829425006e-004
  3.1892500000e+008  -8.1154709259e-004   1.7867903626e-004   9.9568526078e-001  -5.2824360136e-003   1.0003855650e+000  -5.2292568434e-004  -5.8347209977e-004   4.2552845115e-004
  3.2751250000e+008  -6.8412983701e-004   8.4765929224e-006   9.9618353652e-001  -7.0937405323e-003   1.0005620641e+000  -1.4028807805e-003  -7.0029220536e-004   2.8067448125e-004
  3.3610000000e+008  -7.9531080301e-004   1.5626223735e-004   9.9792222499e-001  -7.1813965575e-003   1.0015921811e+000  -1.2396743111e-003  -6.5294609602e-004   7.1466518041e-005
  3.4468750000e+008  -6.6780422110e-004   2.5395950271e-004   9.9674926260e-001  -6.1445352398e-003   1.0002199837e+000  -5.5116449669e-004  -3.3727982685e-004  -4.1472956147e-005
  3.5327500000e+008  -5.8842615014e-004   4.4347132628e-004   9.9582900304e-001  -7.5082657580e-003   9.9945075034e-001  -1.7671469241e-003  -5.5466408353e-004   1.0963980828e-004
  3.6186250000e+008  -3.4976232088e-004   2.9648199447e-004   9.9718879670e-001  -7.5111566955e-003   1.0002854851e+000  -7.1613272574e-004  -7.2746619725e-004   3.5967946272e-004
  3.7045000000e+008  -7.0317004657e-004   6.6428579070e-004   9.9524337989e-001  -5.8563362837e-003   1.0008759260e+000  -1.2222086527e-003  -6.3798065482e-004  -4.3079622498e-005
  3.7903750000e+008  -2.6830085303e-004   6.3451585212e-004   9.9626347060e-001  -6.1441951668e-003   1.0005340897e+000  -5.9536320265e-004  -4.3562336330e-004   1.6509290581e-004
  3.8762500000e+008  -1.6630972790e-004   5.4132539572e-004   9.9911720061e-001  -6.0237648617e-003   1.0002861567e+000  -6.3027875410e-004  -3.3025386614e-004   3.3479333456e-004
  3.9621250000e+008  -7.2197516804e-005   1.9731686040e-004   9.9744325305e-001  -7.1569513801e-003   1.0004241332e+000  -7.7899236956e-004  -6.2549804513e-004   6.4390700899e-004
  4.0480000000e+008  -4.9133986312e-005   1.9813211722e-004   9.9818347908e-001  -5.5916054100e-003   1.0002343520e+000  -1.1170622622e-003  -3.1312854906e-004   2.1810166275e-004
  4.1338750000e+008   9.9577769536e-005   1.9725655234e-004   9.9742877543e-001  -5.3868166521e-003   1.0009329840e+000  -1.2561870519e-003  -1.6421876309e-004   6.0544503381e-004
  4.2197500000e+008  -2.3357116978e-004  -2.1332346766e-004   9.9788334385e-001  -6.0955340968e-003   1.0009523841e+000  -9.2710449185e-004   1.4733891351e-006   6.6412399631e-004
  4.3056250000e+008   2.0159167721e-004   1.3635238856e-004   9.9764211887e-001  -6.0645299834e-003   1.0005331855e+000  -1.3560375203e-003   2.7233642117e-004   3.8825462931e-004
  4.3915000000e+008  -4.9998958811e-005  -1.1162903265e-004   9.9918925956e-001  -5.0969238177e-003   1.0006582881e+000  -1.5158843504e-003   4.0910474047e-004   3.8618268723e-004
  4.4773750000e+008  -2.0352187050e-004  -3.4744460267e-004   9.9416691783e-001  -7.2381946562e-003   1.0004743005e+000  -1.6347417745e-003   4.2369336662e-004   1.8902805130e-004
  4.5632500000e+008  -1.4531452274e-004  -4.7260992190e-004   9.9163185505e-001  -7.2671179438e-003   1.0003441451e+000  -1.6205261273e-003   8.1521573581e-004   4.1385269688e-005
  4.6491250000e+008  -3.5163856246e-004  -3.0326758480e-004   9.9301517633e-001  -8.4012911426e-003   1.0002946654e+000  -1.5240338778e-003   5.8332203299e-004   2.8265647307e-004
  4.7350000000e+008  -5.1106266337e-004  -4.2888362545e-004   9.9186194727e-001  -7.9563230983e-003   1.0003863148e+000  -1.3250296687e-003   4.3120894855e-004   1.2103012301e-004
  4.8208750000e+008  -5.1093896796e-004   6.9339195026e-005   9.9075586853e-001  -8.0508965907e-003   9.9983719313e-001  -1.2058641337e-003   5.3042131218e-004   2.2313991451e-004
  4.9067500000e+008  -1.4721384214e-004  -9.4758733771e-005   9.8915677908e-001  -9.0159831253e-003   1.0002024215e+000  -1.5134990472e-003   5.0111060658e-004   6.7788053601e-006
  4.9926250000e+008  -3.4959232419e-004  -3.9889021204e-004   9.9152383000e-001  -8.7107887124e-003   1.0000838958e+000  -1.3802059698e-003   6.4555607816e-004  -6.9392210381e-005
  5.0785000000e+008  -4.8162859292e-004  -1.8218091962e-004   9.9571717267e-001  -6.4075058688e-003   9.9985586917e-001  -8.3230563817e-004   8.0097991592e-004   2.7548083280e-004
  5.1643750000e+008  -5.1530458174e-004   2.2712032197e-005   9.9231312084e-001  -6.4949881976e-003   1.0009167863e+000  -1.4872743774e-003   7.5382435765e-004  -8.4407418334e-006
  5.2502500000e+008  -1.8912188509e-004   4.3976020161e-004   9.9324398343e-001  -5.7736742474e-003   1.0008017587e+000  -4.4380551601e-004   3.7536941179e-004  -5.2462220885e-004
  5.3361250000e+008   4.2985109059e-004   2.5544033127e-004   9.9327039178e-001  -8.1953910701e-003   1.0006658808e+000  -1.4067967028e-003  -3.4069945506e-005  -6.8667675855e-004
  5.4220000000e+008   6.5774961464e-004   1.0274392309e-005   9.9300766924e-001  -8.1238484830e-003   1.0008199692e+000  -1.5185441212e-003  -7.9226554562e-004  -5.4421813994e-004
  5.5078750000e+008   5.3696079485e-004  -5.7758699948e-004   9.9028563764e-001  -1.0374319141e-002   1.0000406609e+000  -1.8384950443e-003  -8.5681221068e-004  -2.7279812876e-004
  5.5937500000e+008   3.6928689385e-004  -8.6157431638e-004   9.8911287233e-001  -8.6669875947e-003   1.0002272657e+000  -1.8291985514e-003  -9.1414353451e-004  -4.4156777866e-005
  5.6796250000e+008   2.9915157887e-004  -8.0595246590e-004   9.9188351960e-001  -8.7267826845e-003   1.0000696751e+000  -1.8026784105e-003  -1.0466060032e-003   3.1234465048e-004
  5.7655000000e+008  -3.7963935910e-004  -1.1027547518e-003   9.9362978982e-001  -8.4424920640e-003   9.9988971679e-001  -2.1546510936e-003  -9.6056420160e-004   5.8692117054e-004
  5.8513750000e+008  -4.9662878330e-004  -8.5151964249e-004   9.9190522894e-001  -9.0256582510e-003   9.9980194848e-001  -1.7749083334e-003  -8.8045718717e-004   7.0919644384e-004
  5.9372500000e+008  -7.1289625407e-004  -9.0025977392e-004   9.9238271358e-001  -7.2914108535e-003   1.0001612185e+000  -2.2149711262e-003  -5.8124392967e-004   9.1905247608e-004
  6.0231250000e+008  -9.8599047281e-004  -4.9164649207e-004   9.9150698359e-001  -8.1242038447e-003   1.0003143192e+000  -1.2358700062e-003  -5.6114661842e-004   9.4158782887e-004
  6.1090000000e+008  -8.6168712518e-004  -3.6495167787e-004   9.9351489340e-001  -8.2750428012e-003   1.0000628290e+000  -1.5988648293e-003  -3.7991387781e-004   9.9623544502e-004
  6.1948750000e+008  -8.2813394561e-004   2.1861267164e-005   9.9296213205e-001  -7.5307324955e-003   9.9964794246e-001  -2.3761637418e-003  -3.4972729189e-004   8.5128182791e-004
  6.2807500000e+008  -6.9061641487e-004   1.1010939130e-004   9.9400901112e-001  -8.1142152958e-003   9.9995344453e-001  -1.5111668946e-003  -1.0446811634e-004   4.9714759339e-004
  6.3666250000e+008  -2.9789456138e-004   5.5546682980e-004   9.9443149739e-001  -7.2151343305e-003   1.0000056489e+000  -1.9150345868e-003  -5.4504447307e-005   4.2429478308e-004
  6.4525000000e+008   8.0712750550e-006   3.1875027864e-004   9.9467536759e-001  -6.0960087848e-003   1.0005212901e+000  -1.8489520835e-003   2.8506891817e-004   1.3680094385e-004
  6.5383750000e+008   1.7089621837e-004   4.3944431876e-004   9.9313907704e-001  -7.7144993253e-003   9.9991174073e-001  -1.7559998347e-003   3.0937663927e-004  -9.9609613904e-005
  6.6242500000e+008   3.9371301247e-004   1.8143104456e-004   9.9156728194e-001  -7.8581796017e-003   1.0002453200e+000  -2.7896519041e-003   4.2875057088e-004  -2.7254465647e-004
  6.7101250000e+008   3.8806004187e-004  -2.6144025785e-004   9.9451153892e-001  -6.3923812794e-003   9.9980374181e-001  -1.4467036938e-003   2.8025210041e-004  -6.4172055973e-004
  6.7960000000e+008   6.7611285553e-004  -5.6240844556e-004   9.9316512773e-001  -7.3234507149e-003   1.0007645045e+000  -2.1906247550e-003   2.7332072286e-004  -9.1283232162e-004
  6.8818750000e+008   3.1294901041e-004  -8.7124623025e-004   9.9285879380e-001  -7.1950261565e-003   1.0004284573e+000  -1.5749200142e-003   1.4635788520e-004  -1.0132482044e-003
  6.9677500000e+008   4.6173162127e-005  -1.0858714260e-003   9.9249190059e-001  -6.3131378726e-003   1.0004098066e+000  -2.3612964296e-003  -5.9993273593e-005  -1.1014426021e-003
  7.0536250000e+008  -1.7433250661e-004  -1.1834047184e-003   9.9330849992e-001  -6.7936738839e-003   1.0004872350e+000  -2.3961354055e-003  -3.0407175829e-004  -1.4171564644e-003
  7.1395000000e+008  -7.4017269521e-004  -9.4503702297e-004   9.9351641847e-001  -7.1299007822e-003   1.0007341063e+000  -1.9886104068e-003  -4.9361113800e-004  -1.3012665569e-003
  7.2253750000e+008  -1.0234246329e-003  -7.5901735552e-004   9.9157711016e-001  -8.0572444328e-003   9.9982745195e-001  -2.3697417985e-003  -6.5269117524e-004  -1.2862282250e-003
  7.3112500000e+008  -1.2028428383e-003  -4.3721623073e-004   9.9268842059e-001  -7.4673623979e-003   1.0002660983e+000  -2.0023005662e-003  -8.0809781905e-004  -1.2531115961e-003
  7.3971250000e+008  -1.1672177389e-003  -3.2648081448e-005   9.9381035795e-001  -9.5584256011e-003   9.9985453274e-001  -2.4334788092e-003  -1.1063443282e-003  -9.9407643833e-004
  7.4830000000e+008  -9.4943046139e-004   5.3238905939e-004   9.9206869696e-001  -7.3836383387e-003   1.0001721045e+000  -2.2748990134e-003  -1.0847933475e-003  -8.1397340949e-004
  7.5688750000e+008  -8.2780281773e-004   8.1531610584e-004   9.9272128737e-001  -8.6488457628e-003   9.9942041114e-001  -2.4161528985e-003  -1.2760715923e-003  -3.5603428148e-004
  7.6547500000e+008  -2.6815289180e-004   8.0365181566e-004   9.9304910484e-001  -9.5147304188e-003   9.9984931239e-001  -2.7939716081e-003  -1.2723737108e-003  -1.9935778858e-004
  7.7406250000e+008   7.1165168601e-005   8.2654645197e-004   9.9292869633e-001  -9.1063298292e-003   1.0002155803e+000  -1.9543364260e-003  -9.8929346188e-004  -3.9848391675e-005
  7.8265000000e+008   4.4258365319e-004   6.6627516036e-004   9.9222298629e-001  -7.5519531279e-003   9.9987493282e-001  -1.8324610786e-003  -8.9617550870e-004   3.8752975818e-004
  7.9123750000e+008   7.7083732521e-004   4.6296164304e-004   9.9311212273e-001  -8.4042141082e-003   9.9930979625e-001  -2.2735073987e-003  -1.0183370584e-003   4.6167878094e-004
  7.9982500000e+008   7.9853431603e-004   2.3968086481e-004   9.9250395525e-001  -7.5227765487e-003   1.0006192782e+000  -7.0815294956e-004  -8.0815578150e-004   6.5024086911e-004
  8.0841250000e+008   1.1412936999e-003   7.6571616774e-005   9.9222813615e-001  -8.9633101747e-003   9.9918897586e-001  -2.3652647674e-003  -7.0671693781e-004   9.7514413171e-004
  8.1700000000e+008   1.1888331863e-003  -2.5048847545e-004   9.9437050170e-001  -7.1012339825e-003   9.9995382864e-001  -2.2326760684e-003  -7.2040997477e-004   1.1162082566e-003
  8.2558750000e+008   1.1555933093e-003  -4.5124188611e-004   9.9503648814e-001  -6.2905704004e-003   1.0009030518e+000  -2.6581717131e-003  -7.6995332864e-004   1.3570100513e-003
  8.3417500000e+008   1.0312333028e-003  -1.2480998033e-003   9.9480224971e-001  -8.3314220776e-003   1.0008341212e+000  -3.3517860298e-003  -3.6686527418e-004   1.6102813354e-003
  8.4276250000e+008   5.1304935586e-004  -1.3794873271e-003   9.9336463356e-001  -7.7223293413e-003   1.0002237513e+000  -2.8896026291e-003  -6.9504980365e-005   1.7266318958e-003
  8.5135000000e+008  -8.2906140252e-005  -1.3054189196e-003   9.9425977929e-001  -8.2555366253e-003   1.0003531641e+000  -2.1484259027e-003   1.0258521647e-004   1.6620569378e-003
  8.5993750000e+008  -2.7067028248e-004  -1.1370443645e-003   9.9380874126e-001  -6.3767431737e-003   1.0003843523e+000  -2.6944959173e-003   4.0223547910e-004   1.4117238322e-003
  8.6852500000e+008  -4.3432438398e-004  -9.5340061517e-004   9.9243996710e-001  -8.3637071062e-003   9.9949782243e-001  -2.1141756820e-003   7.2269739212e-004   1.1286215145e-003
  8.7711250000e+008  -5.6104024275e-004  -5.4144817594e-004   9.9194546116e-001  -8.0261059077e-003   1.0004818265e+000  -2.1275633688e-003   7.9350610287e-004   5.5558684691e-004
  8.8570000000e+008  -3.5694511403e-004  -3.4242969374e-004   9.9474310275e-001  -7.6287209963e-003   1.0004116030e+000  -3.3771044608e-003   7.2452843510e-004   2.5508317615e-004
  8.9428750000e+008  -2.4317764791e-004  -2.1355978845e-004   9.9245123720e-001  -8.2199972239e-003   9.9989228874e-001  -3.4256953122e-003   4.3793224060e-004  -1.7694944549e-004
  9.0287500000e+008   1.3110270758e-004  -3.2487263264e-004   9.9406635108e-001  -8.9376246127e-003   9.9966215211e-001  -3.2403618309e-003   3.7538933822e-004  -4.3354157139e-004
  9.1146250000e+008   3.3590274148e-004  -2.8594958528e-004   9.9270464904e-001  -8.1394794393e-003   9.9922777171e-001  -2.6622018341e-003  -1.0123684198e-004  -4.7881876866e-004
  9.2005000000e+008   2.0524251534e-004  -4.0660052517e-004   9.9493816786e-001  -7.3404308716e-003   9.9925615413e-001  -1.5799821100e-003  -3.4552062772e-004  -8.1930384520e-004
  9.2863750000e+008   4.2203971191e-004  -6.4896182871e-004   9.9426022028e-001  -8.4624276074e-003   9.9943632642e-001  -1.9848403531e-003  -6.5235740648e-004  -8.6858024455e-004
  9.3722500000e+008   3.7064878964e-004  -8.1894748954e-004   9.9449038397e-001  -8.2805348579e-003   9.9893736325e-001  -2.5876620502e-003  -1.0187026755e-003  -9.7733673046e-004
  9.4581250000e+008   2.6855217126e-004  -1.1509749859e-003   9.9398751307e-001  -7.2980827918e-003   9.9954590966e-001  -2.6520974519e-003  -1.3591791296e-003  -7.9347534281e-004
  9.5440000000e+008  -1.1501489987e-005  -1.3227472120e-003   9.9276247175e-001  -8.6207656314e-003   1.0003132122e+000  -2.3098995745e-003  -1.4946078213e-003  -7.0012827295e-004
  9.6298750000e+008  -3.0409291627e-004  -1.3398847500e-003   9.9445864439e-001  -5.8514475622e-003   1.0000164781e+000  -2.8731645613e-003  -1.6059255577e-003  -4.8373625366e-004
  9.7157500000e+008  -6.2343601358e-004  -1.3354211848e-003   9.9395290470e-001  -8.1265178431e-003   1.0006222411e+000  -3.1217641419e-003  -1.6469010681e-003  -3.4804919754e-004
  9.8016250000e+008  -9.6259189646e-004  -1.0618961387e-003   9.9568339193e-001  -8.6208568278e-003   9.9985243834e-001  -3.2815596941e-003  -1.6929273891e-003  -1.3874409239e-004
  9.8875000000e+008  -1.1749869744e-003  -6.1841426440e-004   9.9387863103e-001  -7.4210452388e-003   9.9937110574e-001  -3.0105376204e-003  -1.5537202420e-003   1.1357267859e-004
  9.9733750000e+008  -1.1456290350e-003  -3.5210324465e-004   9.9412032768e-001  -9.4466488388e-003   9.9904972494e-001  -2.2778819815e-003  -1.3113730863e-003   7.9210367543e-005
  1.0059250000e+009  -9.4302611188e-004   8.9013984363e-005   9.9431058611e-001  -8.0646444814e-003   9.9993277696e-001  -3.0023024853e-003  -9.2390882586e-004   2.2190104889e-004
  1.0145125000e+009  -8.0911908208e-004   3.4743242280e-004   9.9334310969e-001  -1.0458352738e-002   9.9932660683e-001  -2.9851611681e-003  -6.1150620330e-004   2.9206704788e-004
  1.0231000000e+009  -4.8648754405e-004   4.2749535360e-004   9.9337384519e-001  -7.2490864054e-003   9.9959800042e-001  -3.2367668552e-003  -3.3817678243e-004   3.6533523871e-004
  1.0316875000e+009  -2.6572700058e-004   7.4639125422e-004   9.9410909216e-001  -9.1135751309e-003   9.9934180317e-001  -3.5102642306e-003  -1.8492013101e-005   2.2502401580e-004
  1.0402750000e+009   2.1337159353e-004   6.4062364081e-004   9.9205972242e-001  -8.3500030161e-003   9.9940965456e-001  -2.3785888944e-003   3.5694053609e-004   4.8861809463e-005
  1.0488625000e+009   4.2142563048e-004   3.7145896388e-004   9.9350954675e-001  -8.3823753626e-003   9.9891390214e-001  -3.3508601785e-003   6.7349266378e-004  -2.2408320982e-005
  1.0574500000e+009   5.4566445382e-004   6.7789045564e-005   9.9331423014e-001  -7.8609254332e-003   9.9937016718e-001  -2.5338615896e-003   8.1421463540e-004  -3.3732634063e-004
