# Hz S RI R 50.000000
! Metas.Vna.Tools, 2.8.8664.20301
! Metas.Vna.Data, 2.8.8664.20285
! Created: UTC 2024.02.11 13:54:47
! FREQ                re:S1,1             im:S1,1          
  0.0000000000e+000  -1.0000000000e+000   0.0000000000e+000
  8.7500000000e+006  -9.9970095871e-001   3.7790664022e-003
  1.7500000000e+007  -9.9956454726e-001   7.3928531311e-003
  2.6250000000e+007  -9.9944242127e-001   1.0978960022e-002
  3.5000000000e+007  -9.9932163720e-001   1.4550490995e-002
  4.3750000000e+007  -9.9919720234e-001   1.8112513773e-002
  5.2500000000e+007  -9.9906656681e-001   2.1667615306e-002
  6.1250000000e+007  -9.9892822245e-001   2.5217320005e-002
  7.0000000000e+007  -9.9878119110e-001   2.8762609370e-002
  7.8750000000e+007  -9.9862479662e-001   3.2304154236e-002
  8.7500000000e+007  -9.9845854935e-001   3.5842432937e-002
  9.6250000000e+007  -9.9828208170e-001   3.9377797224e-002
  1.0500000000e+008  -9.9809510988e-001   4.2910511696e-002
  1.1375000000e+008  -9.9789740972e-001   4.6440778694e-002
  1.2250000000e+008  -9.9768880084e-001   4.9968754726e-002
  1.3125000000e+008  -9.9746913577e-001   5.3494561695e-002
  1.4000000000e+008  -9.9723829240e-001   5.7018294822e-002
  1.4875000000e+008  -9.9699616846e-001   6.0540028366e-002
  1.5750000000e+008  -9.9674267749e-001   6.4059819861e-002
  1.6625000000e+008  -9.9647774579e-001   6.7577713310e-002
  1.7500000000e+008  -9.9620131012e-001   7.1093741628e-002
  1.8375000000e+008  -9.9591331588e-001   7.4607928554e-002
  1.9250000000e+008  -9.9561371569e-001   7.8120290148e-002
  2.0125000000e+008  -9.9530246827e-001   8.1630835997e-002
  2.1000000000e+008  -9.9497953753e-001   8.5139570179e-002
  2.1875000000e+008  -9.9464489182e-001   8.8646492059e-002
  2.2750000000e+008  -9.9429850333e-001   9.2151596934e-002
  2.3625000000e+008  -9.9394034762e-001   9.5654876578e-002
  2.4500000000e+008  -9.9357040314e-001   9.9156319687e-002
  2.5375000000e+008  -9.9318865093e-001   1.0265591226e-001
  2.6250000000e+008  -9.9279507431e-001   1.0615363793e-001
  2.7125000000e+008  -9.9238965863e-001   1.0964947823e-001
  2.8000000000e+008  -9.9197239103e-001   1.1314341281e-001
  2.8875000000e+008  -9.9154326030e-001   1.1663541967e-001
  2.9750000000e+008  -9.9110225670e-001   1.2012547534e-001
  3.0625000000e+008  -9.9064937180e-001   1.2361355500e-001
  3.1500000000e+008  -9.9018459841e-001   1.2709963261e-001
  3.2375000000e+008  -9.8970793040e-001   1.3058368109e-001
  3.3250000000e+008  -9.8921936270e-001   1.3406567234e-001
  3.4125000000e+008  -9.8871889114e-001   1.3754557739e-001
  3.5000000000e+008  -9.8820651243e-001   1.4102336645e-001
  3.5875000000e+008  -9.8768222405e-001   1.4449900901e-001
  3.6750000000e+008  -9.8714602425e-001   1.4797247388e-001
  3.7625000000e+008  -9.8659791194e-001   1.5144372924e-001
  3.8500000000e+008  -9.8603788669e-001   1.5491274272e-001
  3.9375000000e+008  -9.8546594867e-001   1.5837948143e-001
  4.0250000000e+008  -9.8488209862e-001   1.6184391201e-001
  4.1125000000e+008  -9.8428633780e-001   1.6530600066e-001
  4.2000000000e+008  -9.8367866798e-001   1.6876571316e-001
  4.2875000000e+008  -9.8305909141e-001   1.7222301494e-001
  4.3750000000e+008  -9.8242761080e-001   1.7567787108e-001
  4.4625000000e+008  -9.8178422927e-001   1.7913024633e-001
  4.5500000000e+008  -9.8112895036e-001   1.8258010518e-001
  4.6375000000e+008  -9.8046177800e-001   1.8602741180e-001
  4.7250000000e+008  -9.7978271651e-001   1.8947213016e-001
  4.8125000000e+008  -9.7909177055e-001   1.9291422395e-001
  4.9000000000e+008  -9.7838894513e-001   1.9635365667e-001
  4.9875000000e+008  -9.7767424559e-001   1.9979039162e-001
  5.0750000000e+008  -9.7694767759e-001   2.0322439190e-001
  5.1625000000e+008  -9.7620924711e-001   2.0665562045e-001
  5.2500000000e+008  -9.7545896042e-001   2.1008404004e-001
  5.3375000000e+008  -9.7469682407e-001   2.1350961330e-001
  5.4250000000e+008  -9.7392284492e-001   2.1693230272e-001
  5.5125000000e+008  -9.7313703006e-001   2.2035207065e-001
  5.6000000000e+008  -9.7233938688e-001   2.2376887935e-001
  5.6875000000e+008  -9.7152992301e-001   2.2718269094e-001
  5.7750000000e+008  -9.7070864635e-001   2.3059346745e-001
  5.8625000000e+008  -9.6987556502e-001   2.3400117083e-001
  5.9500000000e+008  -9.6903068739e-001   2.3740576291e-001
  6.0375000000e+008  -9.6817402208e-001   2.4080720548e-001
  6.1250000000e+008  -9.6730557792e-001   2.4420546023e-001
  6.2125000000e+008  -9.6642536396e-001   2.4760048878e-001
  6.3000000000e+008  -9.6553338949e-001   2.5099225271e-001
  6.3875000000e+008  -9.6462966402e-001   2.5438071353e-001
  6.4750000000e+008  -9.6371419724e-001   2.5776583270e-001
  6.5625000000e+008  -9.6278699908e-001   2.6114757164e-001
  6.6500000000e+008  -9.6184807966e-001   2.6452589170e-001
  6.7375000000e+008  -9.6089744931e-001   2.6790075424e-001
  6.8250000000e+008  -9.5993511857e-001   2.7127212054e-001
  6.9125000000e+008  -9.5896109814e-001   2.7463995189e-001
  7.0000000000e+008  -9.5797539895e-001   2.7800420951e-001
  7.0875000000e+008  -9.5697803210e-001   2.8136485464e-001
  7.1750000000e+008  -9.5596900890e-001   2.8472184847e-001
  7.2625000000e+008  -9.5494834083e-001   2.8807515219e-001
  7.3500000000e+008  -9.5391603955e-001   2.9142472697e-001
  7.4375000000e+008  -9.5287211693e-001   2.9477053398e-001
  7.5250000000e+008  -9.5181658498e-001   2.9811253437e-001
  7.6125000000e+008  -9.5074945592e-001   3.0145068929e-001
  7.7000000000e+008  -9.4967074214e-001   3.0478495988e-001
  7.7875000000e+008  -9.4858045620e-001   3.0811530730e-001
  7.8750000000e+008  -9.4747861083e-001   3.1144169269e-001
  7.9625000000e+008  -9.4636521894e-001   3.1476407721e-001
  8.0500000000e+008  -9.4524029361e-001   3.1808242202e-001
  8.1375000000e+008  -9.4410384809e-001   3.2139668829e-001
  8.2250000000e+008  -9.4295589579e-001   3.2470683721e-001
  8.3125000000e+008  -9.4179645029e-001   3.2801282996e-001
  8.4000000000e+008  -9.4062552535e-001   3.3131462777e-001
  8.4875000000e+008  -9.3944313487e-001   3.3461219184e-001
  8.5750000000e+008  -9.3824929292e-001   3.3790548344e-001
  8.6625000000e+008  -9.3704401374e-001   3.4119446382e-001
  8.7500000000e+008  -9.3582731172e-001   3.4447909427e-001
  8.8375000000e+008  -9.3459920143e-001   3.4775933609e-001
  8.9250000000e+008  -9.3335969758e-001   3.5103515064e-001
  9.0125000000e+008  -9.3210881504e-001   3.5430649925e-001
  9.1000000000e+008  -9.3084656884e-001   3.5757334333e-001
  9.1875000000e+008  -9.2957297416e-001   3.6083564429e-001
  9.2750000000e+008  -9.2828804635e-001   3.6409336357e-001
  9.3625000000e+008  -9.2699180090e-001   3.6734646267e-001
  9.4500000000e+008  -9.2568425346e-001   3.7059490309e-001
  9.5375000000e+008  -9.2436541982e-001   3.7383864637e-001
  9.6250000000e+008  -9.2303531596e-001   3.7707765411e-001
  9.7125000000e+008  -9.2169395796e-001   3.8031188791e-001
  9.8000000000e+008  -9.2034136208e-001   3.8354130945e-001
  9.8875000000e+008  -9.1897754474e-001   3.8676588041e-001
  9.9750000000e+008  -9.1760252248e-001   3.8998556253e-001
  1.0062500000e+009  -9.1621631200e-001   3.9320031759e-001
  1.0150000000e+009  -9.1481893016e-001   3.9641010741e-001
  1.0237500000e+009  -9.1341039396e-001   3.9961489385e-001
  1.0325000000e+009  -9.1199072053e-001   4.0281463883e-001
  1.0412500000e+009  -9.1055992717e-001   4.0600930429e-001
  1.0500000000e+009  -9.0911803132e-001   4.0919885223e-001
  1.0587500000e+009  -9.0766505056e-001   4.1238324471e-001
  1.0675000000e+009  -9.0620100261e-001   4.1556244381e-001
  1.0762500000e+009  -9.0472590534e-001   4.1873641168e-001
  1.0850000000e+009  -9.0323977676e-001   4.2190511051e-001
  1.0937500000e+009  -9.0174263504e-001   4.2506850256e-001
  1.1025000000e+009  -9.0023449846e-001   4.2822655011e-001
  1.1112500000e+009  -8.9871538547e-001   4.3137921551e-001
  1.1200000000e+009  -8.9718531464e-001   4.3452646117e-001
  1.1287500000e+009  -8.9564430471e-001   4.3766824954e-001
  1.1375000000e+009  -8.9409237452e-001   4.4080454314e-001
  1.1462500000e+009  -8.9252954308e-001   4.4393530454e-001
  1.1550000000e+009  -8.9095582953e-001   4.4706049635e-001
  1.1637500000e+009  -8.8937125316e-001   4.5018008127e-001
  1.1725000000e+009  -8.8777583337e-001   4.5329402202e-001
  1.1812500000e+009  -8.8616958973e-001   4.5640228141e-001
  1.1900000000e+009  -8.8455254192e-001   4.5950482230e-001
  1.1987500000e+009  -8.8292470978e-001   4.6260160761e-001
  1.2075000000e+009  -8.8128611327e-001   4.6569260031e-001
  1.2162500000e+009  -8.7963677250e-001   4.6877776345e-001
  1.2250000000e+009  -8.7797670771e-001   4.7185706014e-001
  1.2337500000e+009  -8.7630593926e-001   4.7493045353e-001
  1.2425000000e+009  -8.7462448768e-001   4.7799790686e-001
  1.2512500000e+009  -8.7293237359e-001   4.8105938344e-001
  1.2600000000e+009  -8.7122961779e-001   4.8411484661e-001
  1.2687500000e+009  -8.6951624118e-001   4.8716425980e-001
  1.2775000000e+009  -8.6779226480e-001   4.9020758652e-001
  1.2862500000e+009  -8.6605770984e-001   4.9324479031e-001
  1.2950000000e+009  -8.6431259760e-001   4.9627583481e-001
  1.3037500000e+009  -8.6255694952e-001   4.9930068372e-001
  1.3125000000e+009  -8.6079078719e-001   5.0231930080e-001
  1.3212500000e+009  -8.5901413230e-001   5.0533164988e-001
  1.3300000000e+009  -8.5722700669e-001   5.0833769488e-001
  1.3387500000e+009  -8.5542943232e-001   5.1133739977e-001
  1.3475000000e+009  -8.5362143130e-001   5.1433072859e-001
  1.3562500000e+009  -8.5180302585e-001   5.1731764548e-001
  1.3650000000e+009  -8.4997423833e-001   5.2029811461e-001
  1.3737500000e+009  -8.4813509121e-001   5.2327210026e-001
  1.3825000000e+009  -8.4628560712e-001   5.2623956677e-001
  1.3912500000e+009  -8.4442580880e-001   5.2920047855e-001
  1.4000000000e+009  -8.4255571911e-001   5.3215480009e-001
  1.4087500000e+009  -8.4067536106e-001   5.3510249596e-001
  1.4175000000e+009  -8.3878475776e-001   5.3804353080e-001
  1.4262500000e+009  -8.3688393247e-001   5.4097786932e-001
  1.4350000000e+009  -8.3497290857e-001   5.4390547632e-001
  1.4437500000e+009  -8.3305170956e-001   5.4682631668e-001
  1.4525000000e+009  -8.3112035907e-001   5.4974035533e-001
  1.4612500000e+009  -8.2917888085e-001   5.5264755732e-001
  1.4700000000e+009  -8.2722729878e-001   5.5554788776e-001
  1.4787500000e+009  -8.2526563687e-001   5.5844131182e-001
  1.4875000000e+009  -8.2329391925e-001   5.6132779479e-001
  1.4962500000e+009  -8.2131217016e-001   5.6420730200e-001
  1.5050000000e+009  -8.1932041399e-001   5.6707979890e-001
  1.5137500000e+009  -8.1731867523e-001   5.6994525099e-001
  1.5225000000e+009  -8.1530697850e-001   5.7280362388e-001
  1.5312500000e+009  -8.1328534854e-001   5.7565488323e-001
  1.5400000000e+009  -8.1125381023e-001   5.7849899482e-001
  1.5487500000e+009  -8.0921238856e-001   5.8133592449e-001
  1.5575000000e+009  -8.0716110861e-001   5.8416563816e-001
  1.5662500000e+009  -8.0509999564e-001   5.8698810186e-001
  1.5750000000e+009  -8.0302907499e-001   5.8980328169e-001
  1.5837500000e+009  -8.0094837212e-001   5.9261114383e-001
  1.5925000000e+009  -7.9885791264e-001   5.9541165455e-001
  1.6012500000e+009  -7.9675772224e-001   5.9820478022e-001
  1.6100000000e+009  -7.9464782676e-001   6.0099048729e-001
  1.6187500000e+009  -7.9252825214e-001   6.0376874228e-001
  1.6275000000e+009  -7.9039902446e-001   6.0653951183e-001
  1.6362500000e+009  -7.8826016989e-001   6.0930276264e-001
  1.6450000000e+009  -7.8611171473e-001   6.1205846152e-001
  1.6537500000e+009  -7.8395368542e-001   6.1480657535e-001
  1.6625000000e+009  -7.8178610847e-001   6.1754707113e-001
  1.6712500000e+009  -7.7960901054e-001   6.2027991591e-001
  1.6800000000e+009  -7.7742241841e-001   6.2300507687e-001
  1.6887500000e+009  -7.7522635895e-001   6.2572252126e-001
  1.6975000000e+009  -7.7302085916e-001   6.2843221642e-001
  1.7062500000e+009  -7.7080594617e-001   6.3113412979e-001
  1.7150000000e+009  -7.6858164719e-001   6.3382822891e-001
  1.7237500000e+009  -7.6634798958e-001   6.3651448140e-001
  1.7325000000e+009  -7.6410500078e-001   6.3919285497e-001
  1.7412500000e+009  -7.6185270838e-001   6.4186331745e-001
  1.7500000000e+009  -7.5959114005e-001   6.4452583674e-001
  1.7587500000e+009  -7.5732032360e-001   6.4718038084e-001
  1.7675000000e+009  -7.5504028693e-001   6.4982691784e-001
  1.7762500000e+009  -7.5275105806e-001   6.5246541595e-001
  1.7850000000e+009  -7.5045266514e-001   6.5509584345e-001
  1.7937500000e+009  -7.4814513639e-001   6.5771816873e-001
  1.8025000000e+009  -7.4582850019e-001   6.6033236028e-001
  1.8112500000e+009  -7.4350278499e-001   6.6293838666e-001
  1.8200000000e+009  -7.4116801938e-001   6.6553621657e-001
  1.8287500000e+009  -7.3882423203e-001   6.6812581879e-001
  1.8375000000e+009  -7.3647145175e-001   6.7070716218e-001
  1.8462500000e+009  -7.3410970744e-001   6.7328021572e-001
  1.8550000000e+009  -7.3173902812e-001   6.7584494850e-001
  1.8637500000e+009  -7.2935944290e-001   6.7840132967e-001
  1.8725000000e+009  -7.2697098102e-001   6.8094932853e-001
  1.8812500000e+009  -7.2457367182e-001   6.8348891445e-001
  1.8900000000e+009  -7.2216754473e-001   6.8602005691e-001
  1.8987500000e+009  -7.1975262932e-001   6.8854272547e-001
  1.9075000000e+009  -7.1732895524e-001   6.9105688984e-001
  1.9162500000e+009  -7.1489655225e-001   6.9356251979e-001
  1.9250000000e+009  -7.1245545022e-001   6.9605958520e-001
  1.9337500000e+009  -7.1000567914e-001   6.9854805607e-001
  1.9425000000e+009  -7.0754726907e-001   7.0102790250e-001
  1.9512500000e+009  -7.0508025021e-001   7.0349909467e-001
  1.9600000000e+009  -7.0260465284e-001   7.0596160289e-001
  1.9687500000e+009  -7.0012050736e-001   7.0841539758e-001
  1.9775000000e+009  -6.9762784426e-001   7.1086044923e-001
  1.9862500000e+009  -6.9512669414e-001   7.1329672847e-001
  1.9950000000e+009  -6.9261708770e-001   7.1572420602e-001
  2.0037500000e+009  -6.9009905574e-001   7.1814285271e-001
  2.0125000000e+009  -6.8757262918e-001   7.2055263948e-001
  2.0212500000e+009  -6.8503783901e-001   7.2295353737e-001
  2.0300000000e+009  -6.8249471634e-001   7.2534551753e-001
  2.0387500000e+009  -6.7994329239e-001   7.2772855121e-001
  2.0475000000e+009  -6.7738359845e-001   7.3010260979e-001
  2.0562500000e+009  -6.7481566595e-001   7.3246766475e-001
  2.0650000000e+009  -6.7223952638e-001   7.3482368765e-001
  2.0737500000e+009  -6.6965521135e-001   7.3717065020e-001
  2.0825000000e+009  -6.6706275258e-001   7.3950852420e-001
  2.0912500000e+009  -6.6446218185e-001   7.4183728156e-001
  2.1000000000e+009  -6.6185353107e-001   7.4415689430e-001
  2.1087500000e+009  -6.5923683224e-001   7.4646733456e-001
  2.1175000000e+009  -6.5661211746e-001   7.4876857459e-001
  2.1262500000e+009  -6.5397941892e-001   7.5106058672e-001
  2.1350000000e+009  -6.5133876890e-001   7.5334334344e-001
  2.1437500000e+009  -6.4869019979e-001   7.5561681733e-001
  2.1525000000e+009  -6.4603374407e-001   7.5788098106e-001
  2.1612500000e+009  -6.4336943432e-001   7.6013580746e-001
  2.1700000000e+009  -6.4069730319e-001   7.6238126943e-001
  2.1787500000e+009  -6.3801738346e-001   7.6461734000e-001
  2.1875000000e+009  -6.3532970798e-001   7.6684399233e-001
  2.1962500000e+009  -6.3263430971e-001   7.6906119966e-001
  2.2050000000e+009  -6.2993122167e-001   7.7126893538e-001
  2.2137500000e+009  -6.2722047702e-001   7.7346717296e-001
  2.2225000000e+009  -6.2450210897e-001   7.7565588601e-001
  2.2312500000e+009  -6.2177615085e-001   7.7783504825e-001
  2.2400000000e+009  -6.1904263606e-001   7.8000463351e-001
  2.2487500000e+009  -6.1630159811e-001   7.8216461574e-001
  2.2575000000e+009  -6.1355307059e-001   7.8431496901e-001
  2.2662500000e+009  -6.1079708718e-001   7.8645566750e-001
  2.2750000000e+009  -6.0803368165e-001   7.8858668551e-001
  2.2837500000e+009  -6.0526288786e-001   7.9070799745e-001
  2.2925000000e+009  -6.0248473976e-001   7.9281957786e-001
  2.3012500000e+009  -5.9969927139e-001   7.9492140139e-001
  2.3100000000e+009  -5.9690651687e-001   7.9701344282e-001
  2.3187500000e+009  -5.9410651041e-001   7.9909567703e-001
  2.3275000000e+009  -5.9129928632e-001   8.0116807902e-001
  2.3362500000e+009  -5.8848487898e-001   8.0323062393e-001
  2.3450000000e+009  -5.8566332286e-001   8.0528328701e-001
  2.3537500000e+009  -5.8283465252e-001   8.0732604361e-001
  2.3625000000e+009  -5.7999890261e-001   8.0935886923e-001
  2.3712500000e+009  -5.7715610785e-001   8.1138173947e-001
  2.3800000000e+009  -5.7430630306e-001   8.1339463006e-001
  2.3887500000e+009  -5.7144952312e-001   8.1539751685e-001
  2.3975000000e+009  -5.6858580303e-001   8.1739037581e-001
  2.4062500000e+009  -5.6571517785e-001   8.1937318303e-001
  2.4150000000e+009  -5.6283768272e-001   8.2134591472e-001
  2.4237500000e+009  -5.5995335287e-001   8.2330854721e-001
  2.4325000000e+009  -5.5706222361e-001   8.2526105698e-001
  2.4412500000e+009  -5.5416433034e-001   8.2720342059e-001
  2.4500000000e+009  -5.5125970852e-001   8.2913561474e-001
  2.4587500000e+009  -5.4834839371e-001   8.3105761628e-001
  2.4675000000e+009  -5.4543042155e-001   8.3296940214e-001
  2.4762500000e+009  -5.4250582775e-001   8.3487094940e-001
  2.4850000000e+009  -5.3957464809e-001   8.3676223526e-001
  2.4937500000e+009  -5.3663691846e-001   8.3864323705e-001
  2.5025000000e+009  -5.3369267479e-001   8.4051393220e-001
  2.5112500000e+009  -5.3074195313e-001   8.4237429830e-001
  2.5200000000e+009  -5.2778478957e-001   8.4422431304e-001
  2.5287500000e+009  -5.2482122029e-001   8.4606395424e-001
  2.5375000000e+009  -5.2185128157e-001   8.4789319985e-001
  2.5462500000e+009  -5.1887500972e-001   8.4971202796e-001
  2.5550000000e+009  -5.1589244116e-001   8.5152041675e-001
  2.5637500000e+009  -5.1290361238e-001   8.5331834456e-001
  2.5725000000e+009  -5.0990855993e-001   8.5510578984e-001
  2.5812500000e+009  -5.0690732046e-001   8.5688273118e-001
  2.5900000000e+009  -5.0389993067e-001   8.5864914728e-001
  2.5987500000e+009  -5.0088642734e-001   8.6040501698e-001
  2.6075000000e+009  -4.9786684733e-001   8.6215031924e-001
  2.6162500000e+009  -4.9484122757e-001   8.6388503317e-001
  2.6250000000e+009  -4.9180960506e-001   8.6560913798e-001
  2.6337500000e+009  -4.8877201686e-001   8.6732261301e-001
  2.6425000000e+009  -4.8572850013e-001   8.6902543776e-001
  2.6512500000e+009  -4.8267909208e-001   8.7071759182e-001
  2.6600000000e+009  -4.7962382998e-001   8.7239905494e-001
  2.6687500000e+009  -4.7656275120e-001   8.7406980698e-001
  2.6775000000e+009  -4.7349589316e-001   8.7572982794e-001
  2.6862500000e+009  -4.7042329334e-001   8.7737909795e-001
  2.6950000000e+009  -4.6734498932e-001   8.7901759726e-001
  2.7037500000e+009  -4.6426101872e-001   8.8064530626e-001
  2.7125000000e+009  -4.6117141923e-001   8.8226220548e-001
  2.7212500000e+009  -4.5807622861e-001   8.8386827555e-001
  2.7300000000e+009  -4.5497548471e-001   8.8546349727e-001
  2.7387500000e+009  -4.5186922541e-001   8.8704785154e-001
  2.7475000000e+009  -4.4875748868e-001   8.8862131941e-001
  2.7562500000e+009  -4.4564031254e-001   8.9018388206e-001
  2.7650000000e+009  -4.4251773509e-001   8.9173552079e-001
  2.7737500000e+009  -4.3938979448e-001   8.9327621705e-001
  2.7825000000e+009  -4.3625652893e-001   8.9480595240e-001
  2.7912500000e+009  -4.3311797672e-001   8.9632470857e-001
  2.8000000000e+009  -4.2997417621e-001   8.9783246738e-001
  2.8087500000e+009  -4.2682516580e-001   8.9932921080e-001
  2.8175000000e+009  -4.2367098396e-001   9.0081492096e-001
  2.8262500000e+009  -4.2051166922e-001   9.0228958008e-001
  2.8350000000e+009  -4.1734726017e-001   9.0375317054e-001
  2.8437500000e+009  -4.1417779548e-001   9.0520567485e-001
  2.8525000000e+009  -4.1100331386e-001   9.0664707565e-001
  2.8612500000e+009  -4.0782385407e-001   9.0807735572e-001
  2.8700000000e+009  -4.0463945495e-001   9.0949649797e-001
  2.8787500000e+009  -4.0145015539e-001   9.1090448545e-001
