# Hz S RI R 50.000000
! Metas.Vna.Tools, 2.8.8664.20301
! Metas.Vna.Data, 2.8.8664.20285
! Created: UTC 2024.02.13 19:50:49
! FREQ                re:S1,1             im:S1,1          
  0.0000000000e+000  -1.0000000000e+000   0.0000000000e+000
  1.0000000000e+008  -9.9820325138e-001   4.0892129168e-002
  2.0000000000e+008  -9.9534764670e-001   8.1129440406e-002
  3.0000000000e+008  -9.9097407373e-001   1.2112227228e-001
  4.0000000000e+008  -9.8505012837e-001   1.6085431219e-001
  5.0000000000e+008  -9.7757117666e-001   2.0028113138e-001
  6.0000000000e+008  -9.6854260719e-001   2.3934983249e-001
  7.0000000000e+008  -9.5797539895e-001   2.7800420951e-001
  8.0000000000e+008  -9.4588451957e-001   3.1618672191e-001
  9.0000000000e+008  -9.3228820863e-001   3.5383943862e-001
  1.0000000000e+009  -9.1720760326e-001   3.9090456841e-001
  1.1000000000e+009  -9.0066651548e-001   4.2732479836e-001
  1.2000000000e+009  -8.8269128314e-001   4.6304353351e-001
  1.3000000000e+009  -8.6331065885e-001   4.9800508087e-001
  1.4000000000e+009  -8.4255571911e-001   5.3215480009e-001
  1.5000000000e+009  -8.2045978430e-001   5.6543923252e-001
  1.6000000000e+009  -7.9705834423e-001   5.9780621569e-001
  1.7000000000e+009  -7.7238898622e-001   6.2920498715e-001
  1.8000000000e+009  -7.4649132392e-001   6.5958628021e-001
  1.9000000000e+009  -7.1940692572e-001   6.8890241318e-001
  2.0000000000e+009  -6.9117924201e-001   7.1710737304e-001
  2.1000000000e+009  -6.6185353107e-001   7.4415689430e-001
  2.2000000000e+009  -6.3147678308e-001   7.7000853345e-001
  2.3000000000e+009  -6.0009764233e-001   7.9462173921e-001
  2.4000000000e+009  -5.6776632748e-001   8.1795791889e-001
  2.5000000000e+009  -5.3453454987e-001   8.3998050088e-001
  2.6000000000e+009  -5.0045542995e-001   8.6065499335e-001
  2.7000000000e+009  -4.6558341185e-001   8.7994903921e-001
  2.8000000000e+009  -4.2997417621e-001   8.9783246738e-001
  2.9000000000e+009  -3.9368455130e-001   9.1427734029e-001
  3.0000000000e+009  -3.5677242263e-001   9.2925799767e-001
  3.1000000000e+009  -3.1929664113e-001   9.4275109657e-001
  3.2000000000e+009  -2.8131692990e-001   9.5473564760e-001
  3.3000000000e+009  -2.4289378991e-001   9.6519304742e-001
  3.4000000000e+009  -2.0408840453e-001   9.7410710735e-001
  3.5000000000e+009  -1.6496254318e-001   9.8146407821e-001
  3.6000000000e+009  -1.2557846416e-001   9.8725267128e-001
  3.7000000000e+009  -8.5998816840e-002   9.9146407536e-001
  3.8000000000e+009  -4.6286543349e-002   9.9409197004e-001
  3.9000000000e+009  -6.5047798653e-003   9.9513253500e-001
  4.0000000000e+009   3.3283242296e-002   9.9458445552e-001
  4.1000000000e+009   7.3014295689e-002   9.9244892397e-001
  4.2000000000e+009   1.1262525569e-001   9.8872963757e-001
  4.3000000000e+009   1.5205319921e-001   9.8343279218e-001
  4.4000000000e+009   1.9123550314e-001   9.7656707229e-001
  4.5000000000e+009   2.3010994218e-001   9.6814363712e-001
  4.6000000000e+009   2.6861478615e-001   9.5817610296e-001
  4.7000000000e+009   3.0668889646e-001   9.4668052173e-001
  4.8000000000e+009   3.4427182168e-001   9.3367535575e-001
  4.9000000000e+009   3.8130389201e-001   9.1918144882e-001
  5.0000000000e+009   4.1772631266e-001   9.0322199366e-001
  5.1000000000e+009   4.5348125571e-001   8.8582249569e-001
  5.2000000000e+009   4.8851195069e-001   8.6701073330e-001
  5.3000000000e+009   5.2276277345e-001   8.4681671452e-001
  5.4000000000e+009   5.5617933327e-001   8.2527263038e-001
  5.5000000000e+009   5.8870855816e-001   8.0241280477e-001
  5.6000000000e+009   6.2029877816e-001   7.7827364106e-001
  5.7000000000e+009   6.5089980644e-001   7.5289356550e-001
  5.8000000000e+009   6.8046301826e-001   7.2631296743e-001
  5.9000000000e+009   7.0894142749e-001   6.9857413648e-001
  6.0000000000e+009   7.3628976067e-001   6.6972119675e-001
  6.1000000000e+009   7.6246452850e-001   6.3980003816e-001
  6.2000000000e+009   7.8742409455e-001   6.0885824501e-001
  6.3000000000e+009   8.1112874123e-001   5.7694502184e-001
  6.4000000000e+009   8.3354073281e-001   5.4411111679e-001
  6.5000000000e+009   8.5462437545e-001   5.1040874241e-001
  6.6000000000e+009   8.7434607405e-001   4.7589149424e-001
  6.7000000000e+009   8.9267438595e-001   4.4061426709e-001
  6.8000000000e+009   9.0958007138e-001   4.0463316924e-001
  6.9000000000e+009   9.2503614039e-001   3.6800543468e-001
  7.0000000000e+009   9.3901789650e-001   3.3078933355e-001
