! This is a Touchstone .s1p format file
! It should be saved with .s1p extension.
! HEWLETT PACKARD,8720D,0,7.74  
! Date =  2 Feb 2024
! Time = 13:58:03
! S11 measured = FALSE
! S21 measured = FALSE
! S12 measured = FALSE
! S22 measured = TRUE
! Start frequency = 0.050000000 GHz
! Centre frequency  = 3.524999936 GHz
! Stop frequency  = 7.000000000 GHz
! IF bandwidth = 300 Hz
! Smoothing = OFF
! Smoothing aperture = 1.000000 %
! Averaging = OFF
! Averaging factor = 16
! Source power = On
! Source power = Auto mode
! Output power level = 5.000000 dBm
! Retrace power = Off
! Testset switching = Continuous
! Number of sweeps for test set switching (0=hold, 1=continuous,2-999 = number of sweeps) = 1
! Step sweep = On (check)
! List frequency sweep = Off (check)
! IFBW setting for a list-frequency table in swept list mode = Disabled (Check)
! Power setting for a list-frequency table in swept list mode = Disabled (Check)
! Measurement mode = Chop A and B
! Port extensions = OFF
! Port extension 1 = 0.000000 ps
! Port extension 2 = 74.240003 ps
! Points  = 1601
! Calibration kit = 3.5 mm E
! Calibration = S22 1-port
! Power = 5.000000 dBm
! Frequency magS22 angS22
! Magnitudes are in log form
! Angles are in degrees
# MHz S DB R 50
50.00000 0.01626 177.10156
54.34375 -0.00749 177.03125
58.68750 -0.01328 176.76562
63.03125 -0.00795 176.52344
67.37500 -0.00583 176.24219
71.71875 -0.01139 176.00781
76.06250 -0.01024 175.75781
80.40625 -0.02627 175.48438
84.75000 -0.01994 175.31250
89.09375 -0.01847 175.05469
93.43750 -0.00547 174.80469
97.78125 -0.00514 174.64844
102.12500 -0.02733 174.37500
106.46875 -0.01608 174.12500
110.81250 -0.00514 173.87500
115.15625 -0.01998 173.64062
119.50000 -0.00868 173.39062
123.84375 -0.00822 173.17188
128.18750 -0.01056 172.93750
132.53125 -0.00988 172.68750
136.87500 -0.02131 172.50781
141.21875 -0.02375 172.19531
145.56250 -0.01553 172.05469
149.90625 -0.02021 171.75000
154.25000 -0.01121 171.51562
158.59375 -0.01534 171.25000
162.93750 -0.01424 171.07031
167.28125 -0.01649 170.82812
171.62500 -0.01231 170.57031
175.96875 -0.02095 170.33594
180.31250 -0.01470 170.10156
184.65625 -0.02343 169.90625
189.00000 -0.01548 169.57031
193.34375 -0.01672 169.38281
197.68750 -0.01442 169.10156
202.03125 -0.01700 168.91406
206.37500 -0.01704 168.67188
210.71875 -0.01424 168.42969
215.06250 -0.02435 168.16406
219.40625 -0.02453 167.98438
223.75000 -0.01112 167.71875
228.09375 -0.02361 167.49219
232.43750 -0.02333 167.24219
236.78125 -0.01768 166.98438
241.12500 -0.01961 166.78125
245.46875 -0.02742 166.53906
249.81250 -0.02356 166.31250
254.15625 -0.02333 166.07031
258.50000 -0.02076 165.84375
262.84375 -0.02177 165.60156
267.18750 -0.03096 165.35938
271.53125 -0.02582 165.14844
275.87500 -0.01819 164.89062
280.21875 -0.02756 164.66406
284.56250 -0.02104 164.40625
288.90625 -0.01672 164.16406
293.25000 -0.02012 163.98438
297.59375 -0.02559 163.71875
301.93750 -0.02430 163.49219
306.28125 -0.02784 163.23438
310.62500 -0.02526 163.01562
314.96875 -0.02664 162.76562
319.31250 -0.02696 162.53125
323.65625 -0.02646 162.30469
328.00000 -0.02200 162.04688
332.34375 -0.02444 161.83594
336.68750 -0.02352 161.57812
341.03125 -0.02494 161.35156
345.37500 -0.02577 161.11719
349.71875 -0.03027 160.87500
354.06250 -0.02637 160.62500
358.40625 -0.02742 160.39844
362.75000 -0.02820 160.17969
367.09375 -0.02816 159.95312
371.43750 -0.02641 159.71875
375.78125 -0.02513 159.47656
380.12500 -0.02788 159.22656
384.46875 -0.02908 158.96875
388.81250 -0.02788 158.73438
393.15625 -0.03151 158.53125
397.50000 -0.03027 158.28125
401.84375 -0.02995 158.05469
406.18750 -0.02981 157.82812
410.53125 -0.03459 157.57031
414.87500 -0.03225 157.34375
419.21875 -0.02876 157.10156
423.56250 -0.02908 156.85938
427.90625 -0.03312 156.64844
432.25000 -0.03211 156.42188
436.59375 -0.03169 156.16406
440.93750 -0.03004 155.95312
445.28125 -0.03464 155.73438
449.62500 -0.02967 155.46094
453.96875 -0.03326 155.21875
458.31250 -0.03211 155.00000
462.65625 -0.03551 154.73438
467.00000 -0.03404 154.52344
471.34375 -0.03702 154.28125
475.68750 -0.03156 154.03906
480.03125 -0.03280 153.79688
484.37500 -0.03679 153.56250
488.71875 -0.03464 153.31250
493.06250 -0.03569 153.10156
497.40625 -0.03114 152.86719
501.75000 -0.03367 152.62500
506.09375 -0.03670 152.39844
510.43750 -0.03601 152.17188
514.78125 -0.03592 151.92188
519.12500 -0.03620 151.67969
523.46875 -0.03523 151.46094
527.81250 -0.03753 151.23438
532.15625 -0.03757 150.98438
536.50000 -0.04194 150.75000
540.84375 -0.03702 150.50781
545.18750 -0.03473 150.28125
549.53125 -0.03712 150.03125
553.87500 -0.03808 149.82812
558.21875 -0.03564 149.57031
562.56250 -0.03817 149.35938
566.90625 -0.03211 149.10938
571.25000 -0.03519 148.86719
575.59375 -0.03445 148.63281
579.93750 -0.04001 148.39844
584.28125 -0.03643 148.17188
588.62500 -0.03881 147.92188
592.96875 -0.03808 147.69531
597.31250 -0.03803 147.42969
601.65625 -0.04111 147.22656
606.00000 -0.04120 146.98438
610.34375 -0.04254 146.77344
614.68750 -0.04130 146.49219
619.03125 -0.04180 146.26562
623.37500 -0.04005 146.02344
627.71875 -0.04235 145.81250
632.06250 -0.04313 145.54688
636.40625 -0.04056 145.33594
640.75000 -0.04194 145.09375
645.09375 -0.04111 144.85938
649.43750 -0.04400 144.63281
653.78125 -0.03960 144.39062
658.12500 -0.04047 144.17188
662.46875 -0.04570 143.90625
666.81250 -0.04074 143.69531
671.15625 -0.04240 143.45312
675.50000 -0.04598 143.21094
679.84375 -0.04162 142.97656
684.18750 -0.04474 142.75781
688.53125 -0.04203 142.52344
692.87500 -0.04070 142.26562
697.21875 -0.04084 142.04688
701.56250 -0.04304 141.79688
705.90625 -0.04359 141.57031
710.25000 -0.04281 141.32812
714.59375 -0.04557 141.10156
718.93750 -0.04548 140.85156
723.28125 -0.04511 140.64844
727.62500 -0.04318 140.38281
731.96875 -0.04230 140.17188
736.31250 -0.03868 139.93750
740.65625 -0.04318 139.67188
745.00000 -0.05172 139.46875
749.34375 -0.04400 139.21875
753.68750 -0.04525 139.00000
758.03125 -0.04396 138.75781
762.37500 -0.04378 138.53906
766.71875 -0.04364 138.28125
771.06250 -0.04708 138.05469
775.40625 -0.04649 137.81250
779.75000 -0.04368 137.60938
784.09375 -0.04511 137.32812
788.43750 -0.04681 137.10156
792.78125 -0.04699 136.89062
797.12500 -0.04704 136.63281
801.46875 -0.04612 136.39844
805.81250 -0.04750 136.16406
810.15625 -0.04754 135.94531
814.50000 -0.04897 135.71875
818.84375 -0.05103 135.47656
823.18750 -0.04938 135.22656
827.53125 -0.05172 134.99219
831.87500 -0.05090 134.75781
836.21875 -0.05030 134.53125
840.56250 -0.05112 134.32031
844.90625 -0.05131 134.05469
849.25000 -0.05062 133.80469
853.59375 -0.04947 133.57812
857.93750 -0.05232 133.35938
862.28125 -0.04713 133.12500
866.62500 -0.05149 132.88281
870.96875 -0.05186 132.62500
875.31250 -0.05163 132.41406
879.65625 -0.05140 132.17969
884.00000 -0.05186 131.94531
888.34375 -0.05411 131.71875
892.68750 -0.05158 131.47656
897.03125 -0.05338 131.23438
901.37500 -0.05200 131.02344
905.71875 -0.05356 130.78906
910.06250 -0.05122 130.54688
914.40625 -0.04998 130.28906
918.75000 -0.05388 130.09375
923.09375 -0.05338 129.85156
927.43750 -0.05406 129.60938
931.78125 -0.05420 129.38281
936.12500 -0.05158 129.15625
940.46875 -0.05126 128.89844
944.81250 -0.05462 128.67188
949.15625 -0.05342 128.42969
953.50000 -0.05429 128.21094
957.84375 -0.05393 127.96875
962.18750 -0.05333 127.72266
966.53125 -0.05503 127.51172
970.87500 -0.05406 127.27344
975.21875 -0.05361 127.01562
979.56250 -0.05149 126.81250
983.90625 -0.05641 126.57031
988.25000 -0.05154 126.34766
992.59375 -0.05595 126.09375
996.93750 -0.05544 125.85156
1001.28125 -0.05788 125.63281
1005.62500 -0.05668 125.41797
1009.96875 -0.05374 125.17578
1014.31250 -0.05411 124.92578
1018.65625 -0.05627 124.69531
1023.00000 -0.05577 124.47266
1027.34375 -0.05664 124.21875
1031.68750 -0.05411 124.00000
1036.03125 -0.05893 123.77734
1040.37500 -0.05820 123.52344
1044.71875 -0.05650 123.27344
1049.06250 -0.05815 123.08203
1053.40625 -0.05677 122.82422
1057.75000 -0.05843 122.60547
1062.09375 -0.05383 122.36328
1066.43750 -0.05806 122.11719
1070.78125 -0.05296 121.90625
1075.12500 -0.05618 121.65625
1079.46875 -0.05710 121.40625
1083.81250 -0.05847 121.19922
1088.15625 -0.05962 120.94141
1092.50000 -0.05820 120.73047
1096.84375 -0.05834 120.49219
1101.18750 -0.05641 120.23828
1105.53125 -0.05613 120.01172
1109.87500 -0.06192 119.78906
1114.21875 -0.05668 119.55859
1118.56250 -0.05847 119.32031
1122.90625 -0.05700 119.08594
1127.25000 -0.05728 118.85547
1131.59375 -0.05994 118.59766
1135.93750 -0.06031 118.37891
1140.28125 -0.05746 118.16797
1144.62500 -0.05466 117.91016
1148.96875 -0.05544 117.66797
1153.31250 -0.05696 117.46484
1157.65625 -0.05912 117.22266
1162.00000 -0.05944 116.98828
1166.34375 -0.05916 116.75781
1170.68750 -0.05898 116.50000
1175.03125 -0.05815 116.27344
1179.37500 -0.04437 116.10156
1183.71875 -0.04933 115.82422
1188.06250 -0.06022 115.58594
1192.40625 -0.06068 115.33594
1196.75000 -0.07533 115.12109
1201.09375 -0.06027 114.88281
1205.43750 -0.06031 114.64062
1209.78125 -0.05751 114.42969
1214.12500 -0.05788 114.19531
1218.46875 -0.05641 113.94922
1222.81250 -0.06054 113.73047
1227.15625 -0.06334 113.48047
1231.50000 -0.06123 113.22656
1235.84375 -0.06174 112.99609
1240.18750 -0.06270 112.80078
1244.53125 -0.06247 112.54688
1248.87500 -0.06017 112.31641
1253.21875 -0.06132 112.06641
1257.56250 -0.06279 111.83203
1261.90625 -0.06385 111.61719
1266.25000 -0.06417 111.39062
1270.59375 -0.05880 111.14062
1274.93750 -0.06289 110.91406
1279.28125 -0.06458 110.66406
1283.62500 -0.06477 110.42188
1287.96875 -0.06109 110.21484
1292.31250 -0.06509 109.98438
1296.65625 -0.06606 109.73047
1301.00000 -0.06307 109.50391
1305.34375 -0.06330 109.28906
1309.68750 -0.06881 109.04297
1314.03125 -0.06390 108.82422
1318.37500 -0.06422 108.59766
1322.71875 -0.06376 108.35156
1327.06250 -0.06835 108.14453
1331.40625 -0.06339 107.89453
1335.75000 -0.06311 107.65625
1340.09375 -0.06491 107.41016
1344.43750 -0.06647 107.21094
1348.78125 -0.06780 106.96484
1353.12500 -0.06541 106.71094
1357.46875 -0.06766 106.48047
1361.81250 -0.06417 106.24219
1366.15625 -0.06550 106.02344
1370.50000 -0.06826 105.78125
1374.84375 -0.06716 105.55859
1379.18750 -0.06890 105.32812
1383.53125 -0.06683 105.08594
1387.87500 -0.06817 104.85938
1392.21875 -0.06647 104.63281
1396.56250 -0.06674 104.40234
1400.90625 -0.06683 104.15625
1405.25000 -0.06509 103.91406
1409.59375 -0.06660 103.71484
1413.93750 -0.06932 103.46875
1418.28125 -0.06509 103.24609
1422.62500 -0.06743 103.00000
1426.96875 -0.06656 102.74609
1431.31250 -0.07170 102.55859
1435.65625 -0.06651 102.31250
1440.00000 -0.06628 102.05859
1444.34375 -0.06472 101.82812
1448.68750 -0.06638 101.63672
1453.03125 -0.06633 101.37109
1457.37500 -0.07258 101.14844
1461.71875 -0.06991 100.92578
1466.06250 -0.06881 100.67969
1470.40625 -0.06904 100.46094
1474.75000 -0.06670 100.21094
1479.09375 -0.06844 99.96484
1483.43750 -0.07051 99.76172
1487.78125 -0.06826 99.51562
1492.12500 -0.07189 99.26172
1496.46875 -0.07037 99.03516
1500.81250 -0.07037 98.83203
1505.15625 -0.06908 98.58594
1509.50000 -0.07028 98.36719
1513.84375 -0.06757 98.14453
1518.18750 -0.06982 97.88672
1522.53125 -0.06665 97.64844
1526.87500 -0.06918 97.44141
1531.21875 -0.06936 97.21094
1535.56250 -0.06789 96.94531
1539.90625 -0.06941 96.74609
1544.25000 -0.06913 96.51953
1548.59375 -0.06633 96.27344
1552.93750 -0.07212 96.04688
1557.28125 -0.07000 95.80469
1561.62500 -0.07028 95.57812
1565.96875 -0.06748 95.32422
1570.31250 -0.07115 95.10156
1574.65625 -0.07005 94.89844
1579.00000 -0.07152 94.65625
1583.34375 -0.07349 94.40234
1587.68750 -0.07276 94.18359
1592.03125 -0.06895 93.94141
1596.37500 -0.07317 93.73438
1600.71875 -0.07170 93.50000
1605.06250 -0.07056 93.26953
1609.40625 -0.07023 93.01562
1613.75000 -0.07336 92.78906
1618.09375 -0.07106 92.54297
1622.43750 -0.06923 92.32812
1626.78125 -0.06923 92.09766
1631.12500 -0.07212 91.85547
1635.46875 -0.06867 91.62109
1639.81250 -0.07106 91.42578
1644.15625 -0.07198 91.15234
1648.50000 -0.07207 90.92188
1652.84375 -0.07253 90.70703
1657.18750 -0.07267 90.48047
1661.53125 -0.07019 90.23047
1665.87500 -0.07079 90.00000
1670.21875 -0.07290 89.78125
1674.56250 -0.07483 89.55469
1678.90625 -0.07019 89.31641
1683.25000 -0.07184 89.08203
1687.59375 -0.06955 88.83203
1691.93750 -0.07198 88.60938
1696.28125 -0.07322 88.37891
1700.62500 -0.07428 88.14062
1704.96875 -0.07520 87.91016
1709.31250 -0.07327 87.66797
1713.65625 -0.07239 87.45312
1718.00000 -0.07180 87.21875
1722.34375 -0.07285 87.00781
1726.68750 -0.07409 86.76562
1731.03125 -0.07607 86.50781
1735.37500 -0.07455 86.29297
1739.71875 -0.07699 86.05469
1744.06250 -0.07800 85.84766
1748.40625 -0.07460 85.59375
1752.75000 -0.07685 85.37891
1757.09375 -0.07800 85.17188
1761.43750 -0.07524 84.92188
1765.78125 -0.07524 84.68750
1770.12500 -0.07634 84.46484
1774.46875 -0.07506 84.19922
1778.81250 -0.07556 83.99219
1783.15625 -0.07708 83.75391
1787.50000 -0.07767 83.53516
1791.84375 -0.07745 83.30859
1796.18750 -0.07680 83.06250
1800.53125 -0.07676 82.83203
1804.87500 -0.07593 82.59375
1809.21875 -0.07625 82.35547
1813.56250 -0.07487 82.14453
1817.90625 -0.07616 81.89844
1822.25000 -0.07735 81.69531
1826.59375 -0.07846 81.46484
1830.93750 -0.07814 81.21484
1835.28125 -0.07685 80.99219
1839.62500 -0.07506 80.75000
1843.96875 -0.07891 80.51562
1848.31250 -0.07699 80.29297
1852.65625 -0.07800 80.06250
1857.00000 -0.07896 79.83594
1861.34375 -0.07869 79.58594
1865.68750 -0.07896 79.36328
1870.03125 -0.07800 79.14453
1874.37500 -0.07823 78.91797
1878.71875 -0.07882 78.69141
1883.06250 -0.08020 78.43359
1887.40625 -0.07474 78.22656
1891.75000 -0.07671 77.99609
1896.09375 -0.07800 77.76562
1900.43750 -0.07648 77.52344
1904.78125 -0.07630 77.30859
1909.12500 -0.07074 77.05078
1913.46875 -0.07345 76.80078
1917.81250 -0.07400 76.58594
1922.15625 -0.08080 76.36719
1926.50000 -0.08397 76.10938
1930.84375 -0.08112 75.88672
1935.18750 -0.07781 75.68750
1939.53125 -0.07887 75.46094
1943.87500 -0.07809 75.21484
1948.21875 -0.07846 74.99219
1952.56250 -0.07947 74.74609
1956.90625 -0.07928 74.51562
1961.25000 -0.08117 74.30859
1965.59375 -0.07731 74.06641
1969.93750 -0.07611 73.84766
1974.28125 -0.07579 73.61328
1978.62500 -0.07837 73.37109
1982.96875 -0.07735 73.14062
1987.31250 -0.08098 72.90625
1991.65625 -0.07703 72.66406
1996.00000 -0.08011 72.46094
2000.34375 -0.08025 72.21875
2004.68750 -0.08011 71.97266
2009.03125 -0.07722 71.74219
2013.37500 -0.07864 71.51953
2017.71875 -0.08025 71.30078
2022.06250 -0.07745 71.04688
2026.40625 -0.07763 70.84766
2030.75000 -0.08094 70.59766
2035.09375 -0.07814 70.37500
2039.43750 -0.07800 70.14453
2043.78125 -0.07965 69.92188
2048.12500 -0.07800 69.67969
2052.46875 -0.08025 69.43359
2056.81250 -0.07878 69.21484
2061.15625 -0.08025 68.99609
2065.50000 -0.08255 68.74609
2069.84375 -0.08204 68.53125
2074.18750 -0.08126 68.27734
2078.53125 -0.08020 68.06641
2082.87500 -0.08167 67.86328
2087.21875 -0.08231 67.60938
2091.56250 -0.08241 67.37891
2095.90625 -0.07928 67.13672
2100.25000 -0.08030 66.88281
2104.59375 -0.08135 66.68359
2108.93750 -0.08140 66.44531
2113.28125 -0.08360 66.22266
2117.62500 -0.08484 65.98047
2121.96875 -0.08525 65.76172
2126.31250 -0.08231 65.53125
2130.65625 -0.08406 65.28516
2135.00000 -0.08218 65.07422
2139.34375 -0.08558 64.82031
2143.68750 -0.08672 64.62109
2148.03125 -0.08176 64.35547
2152.37500 -0.08553 64.14844
2156.71875 -0.08163 63.90234
2161.06250 -0.08084 63.70117
2165.40625 -0.08571 63.47852
2169.75000 -0.08186 63.22461
2174.09375 -0.08645 63.01758
2178.43750 -0.08369 62.76562
2182.78125 -0.08681 62.52734
2187.12500 -0.08328 62.32812
2191.46875 -0.08709 62.10156
2195.81250 -0.08452 61.84180
2200.15625 -0.08190 61.62891
2204.50000 -0.08820 61.40234
2208.84375 -0.08700 61.17188
2213.18750 -0.08255 60.93945
2217.53125 -0.08539 60.69727
2221.87500 -0.08617 60.46680
2226.21875 -0.08728 60.25000
2230.56250 -0.08728 60.00000
2234.90625 -0.08360 59.76367
2239.25000 -0.08705 59.56836
2243.59375 -0.08548 59.30664
2247.93750 -0.08787 59.08203
2252.28125 -0.08792 58.84180
2256.62500 -0.08746 58.63281
2260.96875 -0.08535 58.41406
2265.31250 -0.08571 58.18750
2269.65625 -0.08475 57.94922
2274.00000 -0.08562 57.70117
2278.34375 -0.08705 57.49805
2282.68750 -0.08944 57.25000
2287.03125 -0.08599 57.03516
2291.37500 -0.08475 56.79492
2295.71875 -0.08897 56.57617
2300.06250 -0.08401 56.34766
2304.40625 -0.08751 56.11523
2308.75000 -0.08181 55.87695
2313.09375 -0.08475 55.65430
2317.43750 -0.08815 55.42383
2321.78125 -0.08751 55.18164
2326.12500 -0.08521 54.96680
2330.46875 -0.08199 54.72461
2334.81250 -0.08535 54.50586
2339.15625 -0.08617 54.28711
2343.50000 -0.08498 54.05469
2347.84375 -0.09021 53.80273
2352.18750 -0.08746 53.59375
2356.53125 -0.08957 53.36328
2360.87500 -0.08332 53.14062
2365.21875 -0.08948 52.89062
2369.56250 -0.08595 52.67188
2373.90625 -0.08966 52.44727
2378.25000 -0.08659 52.19727
2382.59375 -0.08737 51.97266
2386.93750 -0.08544 51.72266
2391.28125 -0.08608 51.51172
2395.62500 -0.08737 51.27930
2399.96875 -0.08659 51.04883
2404.31250 -0.08576 50.81055
2408.65625 -0.08847 50.58203
2413.00000 -0.08672 50.36133
2417.34375 -0.08590 50.14648
2421.68750 -0.08571 49.90430
2426.03125 -0.08718 49.66992
2430.37500 -0.08392 49.43555
2434.71875 -0.08714 49.18555
2439.06250 -0.08613 48.96289
2443.40625 -0.08530 48.75000
2447.75000 -0.08663 48.53125
2452.09375 -0.08498 48.29492
2456.43750 -0.08672 48.04297
2460.78125 -0.08838 47.82812
2465.12500 -0.08503 47.60938
2469.46875 -0.08548 47.37305
2473.81250 -0.08613 47.13281
2478.15625 -0.08732 46.90820
2482.50000 -0.08576 46.67773
2486.84375 -0.08595 46.45508
2491.18750 -0.08755 46.21875
2495.53125 -0.08590 45.99805
2499.87500 -0.08645 45.76758
2504.21875 -0.08760 45.54688
2508.56250 -0.08902 45.30469
2512.90625 -0.08948 45.04688
2517.25000 -0.09063 44.84766
2521.59375 -0.08590 44.61328
2525.93750 -0.09169 44.38867
2530.28125 -0.08631 44.15234
2534.62500 -0.09214 43.91797
2538.96875 -0.08755 43.67578
2543.31250 -0.08865 43.46289
2547.65625 -0.08879 43.23438
2552.00000 -0.09008 43.02930
2556.34375 -0.09095 42.77930
2560.68750 -0.09031 42.55469
2565.03125 -0.08801 42.32617
2569.37500 -0.09026 42.11328
2573.71875 -0.08842 41.88477
2578.06250 -0.09127 41.64062
2582.40625 -0.09242 41.39648
2586.75000 -0.09017 41.16797
2591.09375 -0.09224 40.93164
2595.43750 -0.08604 40.71484
2599.78125 -0.08787 40.50977
2604.12500 -0.08778 40.25391
2608.46875 -0.08907 40.03125
2612.81250 -0.09467 39.79883
2617.15625 -0.08604 39.56445
2621.50000 -0.08939 39.32422
2625.84375 -0.08801 39.08789
2630.18750 -0.09214 38.87109
2634.53125 -0.08971 38.65430
2638.87500 -0.08622 38.45117
2643.21875 -0.09054 38.19922
2647.56250 -0.08856 37.98633
2651.90625 -0.09012 37.74805
2656.25000 -0.09214 37.50000
2660.59375 -0.08921 37.27930
2664.93750 -0.08599 37.05273
2669.28125 -0.08645 36.82617
2673.62500 -0.08741 36.60742
2677.96875 -0.09113 36.34961
2682.31250 -0.08787 36.14453
2686.65625 -0.09081 35.91406
2691.00000 -0.08925 35.66406
2695.34375 -0.09031 35.44727
2699.68750 -0.09219 35.25195
2704.03125 -0.09008 35.01172
2708.37500 -0.08879 34.76172
2712.71875 -0.09196 34.53125
2717.06250 -0.08884 34.31055
2721.40625 -0.09031 34.08203
2725.75000 -0.08916 33.85938
2730.09375 -0.08980 33.62500
2734.43750 -0.08852 33.40820
2738.78125 -0.08751 33.17969
2743.12500 -0.09026 32.95117
2747.46875 -0.09049 32.73438
2751.81250 -0.09058 32.49023
2756.15625 -0.09214 32.26367
2760.50000 -0.08888 32.01367
2764.84375 -0.09338 31.79785
2769.18750 -0.09040 31.57422
2773.53125 -0.08962 31.31836
2777.87500 -0.08755 31.11523
2782.21875 -0.08842 30.87891
2786.56250 -0.08617 30.65039
2790.90625 -0.08820 30.41113
2795.25000 -0.08681 30.16016
2799.59375 -0.09035 29.93750
2803.93750 -0.09159 29.73828
2808.28125 -0.09150 29.48145
2812.62500 -0.08911 29.25098
2816.96875 -0.08962 29.04004
2821.31250 -0.08815 28.77246
2825.65625 -0.09187 28.58008
2830.00000 -0.08897 28.34180
2834.34375 -0.08994 28.12012
2838.68750 -0.08695 27.86816
