# Hz S RI R 50.000000
! Metas.Vna.Tools, 2.8.8664.20301
! Metas.Vna.Data, 2.8.8664.20285
! Created: UTC 2024.02.09 20:23:45
! FREQ                re:S2,2             im:S2,2          
  1.3000000000e+008  -7.9044342041e-002  -5.4134368896e-002
  1.3858750000e+008  -1.0112762451e-001  -1.1207580566e-002
  1.4717500000e+008  -9.9311828613e-002   3.9924621582e-002
  1.5576250000e+008  -7.2731018066e-002   8.4831237793e-002
  1.6435000000e+008  -2.6992797852e-002   1.1390686035e-001
  1.7293750000e+008   3.0410766602e-002   1.2013244629e-001
  1.8152500000e+008   8.8218688965e-002   9.7007751465e-002
  1.9011250000e+008   1.3152313232e-001   4.4044494629e-002
  1.9870000000e+008   1.4110565186e-001  -2.6611328125e-002
  2.0728750000e+008   1.1389160156e-001  -9.2597961426e-002
  2.1587500000e+008   5.9761047363e-002  -1.3810729980e-001
  2.2446250000e+008  -8.9874267578e-003  -1.5517425537e-001
  2.3305000000e+008  -8.1497192383e-002  -1.4113616943e-001
  2.4163750000e+008  -1.4497375488e-001  -9.2628479004e-002
  2.5022500000e+008  -1.7893981934e-001  -1.1764526367e-002
  2.5881250000e+008  -1.6817474365e-001   7.6858520508e-002
  2.6740000000e+008  -1.1445617676e-001   1.5007781982e-001
  2.7598750000e+008  -3.2119750977e-002   1.8963623047e-001
  2.8457500000e+008   6.1721801758e-002   1.8774414063e-001
  2.9316250000e+008   1.4675140381e-001   1.4087677002e-001
  3.0175000000e+008   2.0167541504e-001   5.5541992188e-002
  3.1033750000e+008   2.0765686035e-001  -4.8339843750e-002
  3.1892500000e+008   1.6365814209e-001  -1.4259338379e-001
  3.2751250000e+008   8.1436157227e-002  -2.0664978027e-001
  3.3610000000e+008  -2.3056030273e-002  -2.2872924805e-001
  3.4468750000e+008  -1.3182067871e-001  -1.9955444336e-001
  3.5327500000e+008  -2.1730041504e-001  -1.1685180664e-001
  3.6186250000e+008  -2.5091552734e-001   6.4086914063e-004
  3.7045000000e+008  -2.2157287598e-001   1.1854553223e-001
  3.7903750000e+008  -1.4416503906e-001   2.0687866211e-001
  3.8762500000e+008  -3.7063598633e-002   2.5361633301e-001
  3.9621250000e+008   8.5281372070e-002   2.5122070313e-001
  4.0480000000e+008   2.0309448242e-001   1.8809509277e-001
  4.1338750000e+008   2.7767944336e-001   6.4529418945e-002
  4.2197500000e+008   2.7458190918e-001  -8.2183837891e-002
  4.3056250000e+008   1.9967651367e-001  -2.0101928711e-001
  4.3915000000e+008   8.6944580078e-002  -2.6823425293e-001
  4.4773750000e+008  -4.0222167969e-002  -2.8442382813e-001
  4.5632500000e+008  -1.6900634766e-001  -2.4610900879e-001
  4.6491250000e+008  -2.7645874023e-001  -1.4541625977e-001
  4.7350000000e+008  -3.2144165039e-001   7.2784423828e-003
  4.8208750000e+008  -2.7731323242e-001   1.6223144531e-001
  4.9067500000e+008  -1.6604614258e-001   2.6718139648e-001
  4.9926250000e+008  -2.9754638672e-002   3.0914306641e-001
  5.0785000000e+008   1.0974121094e-001   2.9426574707e-001
  5.1643750000e+008   2.4052429199e-001   2.2097778320e-001
  5.2502500000e+008   3.3081054688e-001   8.0886840820e-002
  5.3361250000e+008   3.3355712891e-001  -9.6939086914e-002
  5.4220000000e+008   2.4221801758e-001  -2.4389648438e-001
  5.5078750000e+008   1.0177612305e-001  -3.2490539551e-001
  5.5937500000e+008  -5.3573608398e-002  -3.4027099609e-001
  5.6796250000e+008  -2.0620727539e-001  -2.8916931152e-001
  5.7655000000e+008  -3.2786560059e-001  -1.6711425781e-001
  5.8513750000e+008  -3.7707519531e-001   9.2468261719e-003
  5.9372500000e+008  -3.2731628418e-001   1.8815612793e-001
  6.0231250000e+008  -2.0085144043e-001   3.1562805176e-001
  6.1090000000e+008  -3.6743164063e-002   3.7088012695e-001
  6.1948750000e+008   1.3662719727e-001   3.5330200195e-001
  6.2807500000e+008   2.9435729980e-001   2.5691223145e-001
  6.3666250000e+008   3.9279174805e-001   8.3618164063e-002
  6.4525000000e+008   3.8619995117e-001  -1.2283325195e-001
  6.5383750000e+008   2.7572631836e-001  -2.9158020020e-001
  6.6242500000e+008   1.0729980469e-001  -3.8095092773e-001
  6.7101250000e+008  -7.4523925781e-002  -3.8851928711e-001
  6.7960000000e+008  -2.4429321289e-001  -3.2180786133e-001
  6.8818750000e+008  -3.7704467773e-001  -1.8041992188e-001
  6.9677500000e+008  -4.2886352539e-001   2.0446777344e-002
  7.0536250000e+008  -3.6825561523e-001   2.2494506836e-001
  7.1395000000e+008  -2.1575927734e-001   3.6737060547e-001
  7.2253750000e+008  -2.4139404297e-002   4.2010498047e-001
  7.3112500000e+008   1.6870117188e-001   3.8656616211e-001
  7.3971250000e+008   3.3271789551e-001   2.7247619629e-001
  7.4830000000e+008   4.3353271484e-001   8.5906982422e-002
  7.5688750000e+008   4.2941284180e-001  -1.3885498047e-001
  7.6547500000e+008   3.0740356445e-001  -3.3294677734e-001
  7.7406250000e+008   1.0818481445e-001  -4.3505859375e-001
  7.8265000000e+008  -1.0369873047e-001  -4.3081665039e-001
  7.9123750000e+008  -2.8491210938e-001  -3.3546447754e-001
  7.9982500000e+008  -4.0692138672e-001  -1.7581176758e-001
  8.0841250000e+008  -4.5089721680e-001   2.4658203125e-002
  8.1700000000e+008  -3.9926147461e-001   2.3373413086e-001
  8.2558750000e+008  -2.4749755859e-001   4.0023803711e-001
  8.3417500000e+008  -2.9968261719e-002   4.7164916992e-001
  8.4276250000e+008   1.9311523438e-001   4.2883300781e-001
  8.5135000000e+008   3.6883544922e-001   2.9107666016e-001
  8.5993750000e+008   4.6343994141e-001   8.8989257813e-002
  8.6852500000e+008   4.5669555664e-001  -1.3641357422e-001
  8.7711250000e+008   3.4457397461e-001  -3.4033203125e-001
  8.8570000000e+008   1.4532470703e-001  -4.6835327148e-001
  8.9428750000e+008  -9.3841552734e-002  -4.8629760742e-001
  9.0287500000e+008  -3.1271362305e-001  -3.8714599609e-001
  9.1146250000e+008  -4.5883178711e-001  -1.9601440430e-001
  9.2005000000e+008  -4.9633789063e-001   3.7567138672e-002
  9.2863750000e+008  -4.2480468750e-001   2.5921630859e-001
  9.3722500000e+008  -2.6394653320e-001   4.2498779297e-001
  9.4581250000e+008  -4.2999267578e-002   5.0411987305e-001
  9.5440000000e+008   1.9830322266e-001   4.7463989258e-001
  9.6298750000e+008   4.0472412109e-001   3.2873535156e-001
  9.7157500000e+008   5.1519775391e-001   9.5855712891e-002
  9.8016250000e+008   4.9679565430e-001  -1.5972900391e-001
  9.8875000000e+008   3.6340332031e-001  -3.7197875977e-001
  9.9733750000e+008   1.4987182617e-001  -4.9829101563e-001
  1.0059250000e+009  -9.9609375000e-002  -5.1513671875e-001
  1.0145125000e+009  -3.3258056641e-001  -4.1342163086e-001
  1.0231000000e+009  -4.9011230469e-001  -2.0803833008e-001
  1.0316875000e+009  -5.2694702148e-001   4.3457031250e-002
  1.0402750000e+009  -4.4628906250e-001   2.7777099609e-001
  1.0488625000e+009  -2.7481079102e-001   4.4897460938e-001
  1.0574500000e+009  -4.3212890625e-002   5.3234863281e-001
  1.0660375000e+009   2.1215820313e-001   5.0445556641e-001
  1.0746250000e+009   4.3460083008e-001   3.4747314453e-001
  1.0832125000e+009   5.4992675781e-001   9.2926025391e-002
  1.0918000000e+009   5.1913452148e-001  -1.7907714844e-001
  1.1003875000e+009   3.7118530273e-001  -3.9306640625e-001
  1.1089750000e+009   1.5197753906e-001  -5.1385498047e-001
  1.1175625000e+009  -9.7381591797e-002  -5.3088378906e-001
  1.1261500000e+009  -3.3691406250e-001  -4.3377685547e-001
  1.1347375000e+009  -5.0866699219e-001  -2.2650146484e-001
  1.1433250000e+009  -5.5456542969e-001   4.2144775391e-002
  1.1519125000e+009  -4.6557617188e-001   2.9003906250e-001
  1.1605000000e+009  -2.8298950195e-001   4.6353149414e-001
  1.1690875000e+009  -4.9987792969e-002   5.4306030273e-001
  1.1776750000e+009   2.0303344727e-001   5.1876831055e-001
  1.1862625000e+009   4.3426513672e-001   3.7475585938e-001
  1.1948500000e+009   5.7150268555e-001   1.1834716797e-001
  1.2034375000e+009   5.5081176758e-001  -1.7678833008e-001
  1.2120250000e+009   3.9178466797e-001  -4.0667724609e-001
  1.2206125000e+009   1.6085815430e-001  -5.3012084961e-001
  1.2292000000e+009  -9.1094970703e-002  -5.4534912109e-001
  1.2377875000e+009  -3.3227539063e-001  -4.5404052734e-001
  1.2463750000e+009  -5.1699829102e-001  -2.5433349609e-001
  1.2549625000e+009  -5.8346557617e-001   2.0935058594e-002
  1.2635500000e+009  -5.0448608398e-001   2.9223632813e-001
  1.2721375000e+009  -3.1143188477e-001   4.8699951172e-001
  1.2807250000e+009  -6.1187744141e-002   5.7693481445e-001
  1.2893125000e+009   2.0855712891e-001   5.5087280273e-001
  1.2979000000e+009   4.4949340820e-001   3.9898681641e-001
  1.3064875000e+009   5.9375000000e-001   1.3555908203e-001
  1.3150750000e+009   5.8026123047e-001  -1.6891479492e-001
  1.3236625000e+009   4.1995239258e-001  -4.1516113281e-001
  1.3322500000e+009   1.7880249023e-001  -5.4840087891e-001
  1.3408375000e+009  -8.4075927734e-002  -5.6539916992e-001
  1.3494250000e+009  -3.3062744141e-001  -4.7262573242e-001
  1.3580125000e+009  -5.2212524414e-001  -2.7517700195e-001
  1.3666000000e+009  -6.0321044922e-001   2.3193359375e-003
  1.3751875000e+009  -5.3692626953e-001   2.9196166992e-001
  1.3837750000e+009  -3.3551025391e-001   5.1138305664e-001
  1.3923625000e+009  -5.7495117188e-002   6.0681152344e-001
  1.4009500000e+009   2.2827148438e-001   5.6320190430e-001
  1.4095375000e+009   4.6102905273e-001   3.9245605469e-001
  1.4181250000e+009   5.8624267578e-001   1.3415527344e-001
  1.4267125000e+009   5.7781982422e-001  -1.4910888672e-001
  1.4353000000e+009   4.4360351563e-001  -3.9392089844e-001
  1.4438875000e+009   2.1511840820e-001  -5.5618286133e-001
  1.4524750000e+009  -6.6711425781e-002  -5.9689331055e-001
  1.4610625000e+009  -3.4228515625e-001  -5.0036621094e-001
  1.4696500000e+009  -5.4028320313e-001  -2.7853393555e-001
  1.4782375000e+009  -6.0372924805e-001   6.7138671875e-003
  1.4868250000e+009  -5.2893066406e-001   2.7841186523e-001
  1.4954125000e+009  -3.4979248047e-001   4.8437500000e-001
  1.5040000000e+009  -9.9639892578e-002   5.9814453125e-001
  1.5125875000e+009   1.8798828125e-001   5.9194946289e-001
  1.5211750000e+009   4.5257568359e-001   4.4244384766e-001
  1.5297625000e+009   6.1138916016e-001   1.7047119141e-001
  1.5383500000e+009   6.0748291016e-001  -1.3928222656e-001
  1.5469375000e+009   4.6176147461e-001  -3.9392089844e-001
  1.5555250000e+009   2.3367309570e-001  -5.4699707031e-001
  1.5641125000e+009  -3.2073974609e-002  -5.9481811523e-001
  1.5727000000e+009  -3.0245971680e-001  -5.2883911133e-001
  1.5812875000e+009  -5.2969360352e-001  -3.3932495117e-001
  1.5898750000e+009  -6.4422607422e-001  -4.6173095703e-002
  1.5984625000e+009  -5.9173583984e-001   2.7371215820e-001
  1.6070500000e+009  -3.8699340820e-001   5.1950073242e-001
  1.6156375000e+009  -1.0021972656e-001   6.3067626953e-001
  1.6242250000e+009   1.9528198242e-001   6.0321044922e-001
  1.6328125000e+009   4.4384765625e-001   4.4906616211e-001
  1.6414000000e+009   5.9997558594e-001   2.0114135742e-001
  1.6499875000e+009   6.2725830078e-001  -9.4696044922e-002
  1.6585750000e+009   5.1507568359e-001  -3.7454223633e-001
  1.6671625000e+009   2.8439331055e-001  -5.7165527344e-001
  1.6757500000e+009  -1.5380859375e-002  -6.4254760742e-001
  1.6843375000e+009  -3.1698608398e-001  -5.6457519531e-001
  1.6929250000e+009  -5.4891967773e-001  -3.4875488281e-001
  1.7015125000e+009  -6.4965820313e-001  -4.8339843750e-002
  1.7101000000e+009  -5.9417724609e-001   2.6101684570e-001
  1.7186875000e+009  -4.0649414063e-001   5.0384521484e-001
  1.7272750000e+009  -1.3232421875e-001   6.3394165039e-001
  1.7358625000e+009   1.7059326172e-001   6.2896728516e-001
  1.7444500000e+009   4.4342041016e-001   4.8504638672e-001
  1.7530375000e+009   6.2194824219e-001   2.2531127930e-001
  1.7616250000e+009   6.5429687500e-001  -9.1186523438e-002
  1.7702125000e+009   5.3073120117e-001  -3.8238525391e-001
  1.7788000000e+009   2.9003906250e-001  -5.7733154297e-001
  1.7873875000e+009  -5.4626464844e-003  -6.4047241211e-001
  1.7959750000e+009  -2.9516601563e-001  -5.6692504883e-001
  1.8045625000e+009  -5.2465820313e-001  -3.7353515625e-001
  1.8131500000e+009  -6.4797973633e-001  -9.1796875000e-002
  1.8217375000e+009  -6.2789916992e-001   2.2595214844e-001
  1.8303250000e+009  -4.5114135742e-001   5.0561523438e-001
  1.8389125000e+009  -1.5295410156e-001   6.6204833984e-001
  1.8475000000e+009   1.7764282227e-001   6.4434814453e-001
  1.8560875000e+009   4.4561767578e-001   4.7705078125e-001
  1.8646750000e+009   5.9527587891e-001   2.2131347656e-001
  1.8732625000e+009   6.2500000000e-001  -5.8044433594e-002
  1.8818500000e+009   5.4235839844e-001  -3.2656860352e-001
  1.8904375000e+009   3.4826660156e-001  -5.5014038086e-001
  1.8990250000e+009   4.8889160156e-002  -6.7245483398e-001
  1.9076125000e+009  -2.9519653320e-001  -6.2097167969e-001
  1.9162000000e+009  -5.5978393555e-001  -3.8940429688e-001
  1.9247875000e+009  -6.5756225586e-001  -7.2845458984e-002
  1.9333750000e+009  -6.0427856445e-001   2.2888183594e-001
  1.9419625000e+009  -4.4036865234e-001   4.6481323242e-001
  1.9505500000e+009  -1.9653320313e-001   6.1941528320e-001
  1.9591375000e+009   1.0476684570e-001   6.5948486328e-001
  1.9677250000e+009   4.1329956055e-001   5.4727172852e-001
  1.9763125000e+009   6.2774658203e-001   2.8308105469e-001
  1.9849000000e+009   6.7712402344e-001  -4.6600341797e-002
  1.9934875000e+009   5.6597900391e-001  -3.4246826172e-001
  2.0020750000e+009   3.4939575195e-001  -5.5068969727e-001
  2.0106625000e+009   6.8603515625e-002  -6.5344238281e-001
  2.0192500000e+009  -2.4237060547e-001  -6.2380981445e-001
  2.0278375000e+009  -5.2200317383e-001  -4.4427490234e-001
  2.0364250000e+009  -6.7892456055e-001  -1.3650512695e-001
  2.0450125000e+009  -6.5774536133e-001   2.0541381836e-001
  2.0536000000e+009  -4.8013305664e-001   4.8455810547e-001
  2.0621875000e+009  -2.0550537109e-001   6.4645385742e-001
  2.0707750000e+009   1.1111450195e-001   6.7056274414e-001
  2.0793625000e+009   4.0570068359e-001   5.4644775391e-001
  2.0879500000e+009   6.0958862305e-001   2.9901123047e-001
  2.0965375000e+009   6.7211914063e-001  -9.5214843750e-003
  2.1051250000e+009   5.9185791016e-001  -3.0654907227e-001
  2.1137125000e+009   3.9642333984e-001  -5.3836059570e-001
  2.1223000000e+009   1.0873413086e-001  -6.7214965820e-001
  2.1308875000e+009  -2.2811889648e-001  -6.6247558594e-001
  2.1394750000e+009  -5.3500366211e-001  -4.7183227539e-001
  2.1480625000e+009  -6.9378662109e-001  -1.4047241211e-001
  2.1566500000e+009  -6.5231323242e-001   2.0608520508e-001
  2.1652375000e+009  -4.7027587891e-001   4.6347045898e-001
  2.1738250000e+009  -2.1908569336e-001   6.1041259766e-001
  2.1824125000e+009   6.0058593750e-002   6.5002441406e-001
  2.1910000000e+009   3.4912109375e-001   5.7791137695e-001
  2.1995875000e+009   5.9878540039e-001   3.6578369141e-001
  2.2081750000e+009   7.1481323242e-001   3.2928466797e-002
  2.2167625000e+009   6.3714599609e-001  -3.1591796875e-001
  2.2253500000e+009   4.0072631836e-001  -5.6625366211e-001
  2.2339375000e+009   9.4299316406e-002  -6.7089843750e-001
  2.2425250000e+009  -2.1597290039e-001  -6.3366699219e-001
  2.2511125000e+009  -4.8458862305e-001  -4.6917724609e-001
  2.2597000000e+009  -6.5585327148e-001  -1.9198608398e-001
  2.2682875000e+009  -6.7639160156e-001   1.4328002930e-001
  2.2768750000e+009  -5.2944946289e-001   4.4851684570e-001
  2.2854625000e+009  -2.5769042969e-001   6.4318847656e-001
  2.2940500000e+009   6.5032958984e-002   6.8637084961e-001
  2.3026375000e+009   3.6688232422e-001   5.8267211914e-001
  2.3112250000e+009   5.8773803711e-001   3.5595703125e-001
  2.3198125000e+009   6.8460083008e-001   5.5969238281e-002
  2.3284000000e+009   6.3955688477e-001  -2.5717163086e-001
  2.3369875000e+009   4.5834350586e-001  -5.2194213867e-001
  2.3455750000e+009   1.6915893555e-001  -6.8225097656e-001
  2.3541625000e+009  -1.7654418945e-001  -6.8899536133e-001
  2.3627500000e+009  -4.9057006836e-001  -5.1794433594e-001
  2.3713375000e+009  -6.7364501953e-001  -2.0938110352e-001
  2.3799250000e+009  -6.7596435547e-001   1.3275146484e-001
  2.3885125000e+009  -5.2966308594e-001   4.1653442383e-001
  2.3971000000e+009  -2.9104614258e-001   6.0183715820e-001
  2.4056875000e+009  -1.3427734375e-003   6.7776489258e-001
  2.4142750000e+009   3.0767822266e-001   6.2881469727e-001
  2.4228625000e+009   5.8215332031e-001   4.3066406250e-001
  2.4314500000e+009   7.3046875000e-001   1.0134887695e-001
  2.4400375000e+009   6.8399047852e-001  -2.5973510742e-001
  2.4486250000e+009   4.6893310547e-001  -5.3787231445e-001
  2.4572125000e+009   1.6891479492e-001  -6.7355346680e-001
  2.4658000000e+009  -1.5057373047e-001  -6.6885375977e-001
  2.4743875000e+009  -4.3734741211e-001  -5.2728271484e-001
  2.4829750000e+009  -6.3906860352e-001  -2.6791381836e-001
  2.4915625000e+009  -6.9738769531e-001   6.7382812500e-002
  2.5001500000e+009  -5.8581542969e-001   3.9257812500e-001
  2.5087375000e+009  -3.3367919922e-001   6.2194824219e-001
  2.5173250000e+009  -9.6130371094e-003   7.0895385742e-001
  2.5259125000e+009   3.1860351563e-001   6.3943481445e-001
  2.5345000000e+009   5.7925415039e-001   4.2504882813e-001
  2.5430875000e+009   7.0953369141e-001   1.1315917969e-001
  2.5516750000e+009   6.7697143555e-001  -2.1969604492e-001
  2.5602625000e+009   5.0033569336e-001  -4.9594116211e-001
  2.5688500000e+009   2.2320556641e-001  -6.6384887695e-001
  2.5774375000e+009  -1.0223388672e-001  -6.9512939453e-001
  2.5860250000e+009  -4.1778564453e-001  -5.7287597656e-001
  2.5946125000e+009  -6.4682006836e-001  -3.0526733398e-001
  2.6032000000e+009  -7.1084594727e-001   4.7210693359e-002
  2.6117875000e+009  -5.9240722656e-001   3.7579345703e-001
  2.6203750000e+009  -3.4564208984e-001   5.9771728516e-001
  2.6289625000e+009  -4.2816162109e-002   6.8579101563e-001
  2.6375500000e+009   2.6702880859e-001   6.4117431641e-001
  2.6461375000e+009   5.3784179688e-001   4.6582031250e-001
  2.6547250000e+009   7.0947265625e-001   1.7108154297e-001
  2.6633125000e+009   7.1456909180e-001  -1.8670654297e-001
  2.6719000000e+009   5.3582763672e-001  -5.0088500977e-001
  2.6804875000e+009   2.3196411133e-001  -6.7645263672e-001
  2.6890750000e+009  -9.9853515625e-002  -6.8692016602e-001
  2.6976625000e+009  -3.8906860352e-001  -5.5645751953e-001
  2.7062500000e+009  -5.9463500977e-001  -3.2147216797e-001
  2.7148375000e+009  -6.8533325195e-001  -1.6967773438e-002
  2.7234250000e+009  -6.2786865234e-001   3.1155395508e-001
  2.7320125000e+009  -4.1177368164e-001   5.8621215820e-001
  2.7406000000e+009  -7.8857421875e-002   7.2277832031e-001
  2.7491875000e+009   2.7612304688e-001   6.7172241211e-001
  2.7577750000e+009   5.5111694336e-001   4.6249389648e-001
  2.7663625000e+009   6.8972778320e-001   1.6378784180e-001
  2.7749500000e+009   6.8792724609e-001  -1.5176391602e-001
  2.7835375000e+009   5.5364990234e-001  -4.3716430664e-001
  2.7921250000e+009   3.0435180664e-001  -6.4489746094e-001
  2.8007125000e+009  -2.7191162109e-002  -7.1926879883e-001
  2.8093000000e+009  -3.6184692383e-001  -6.2081909180e-001
  2.8178875000e+009  -6.0330200195e-001  -3.6923217773e-001
  2.8264750000e+009  -6.9351196289e-001  -4.5440673828e-002
  2.8350625000e+009  -6.3262939453e-001   2.7285766602e-001
  2.8436500000e+009  -4.4464111328e-001   5.3521728516e-001
  2.8522375000e+009  -1.5161132813e-001   6.9671630859e-001
  2.8608250000e+009   2.0156860352e-001   7.0507812500e-001
  2.8694125000e+009   5.2191162109e-001   5.2896118164e-001
  2.8780000000e+009   7.0474243164e-001   2.1560668945e-001
  2.8865875000e+009   7.1145629883e-001  -1.2954711914e-001
  2.8951750000e+009   5.6985473633e-001  -4.2431640625e-001
  2.9037625000e+009   3.2223510742e-001  -6.2762451172e-001
  2.9123500000e+009   5.9204101563e-003  -7.0675659180e-001
  2.9209375000e+009  -3.2009887695e-001  -6.3064575195e-001
  2.9295250000e+009  -5.7794189453e-001  -4.0588378906e-001
  2.9381125000e+009  -6.9647216797e-001  -8.5449218750e-002
  2.9467000000e+009  -6.5673828125e-001   2.4673461914e-001
  2.9552875000e+009  -4.7497558594e-001   5.3109741211e-001
