# Hz S RI R 50.000000
! Metas.Vna.Tools, 2.8.8664.20301
! Metas.Vna.Data, 2.8.8664.20285
! Created: UTC 2024.02.13 19:13:52
! FREQ                re:S1,1             im:S1,1             re:S2,1             im:S2,1             re:S1,2             im:S1,2             re:S2,2             im:S2,2          
  1.3000000000e+008  -1.2960381161e-003   4.2792491726e-004   9.9921371133e-001  -3.5357954866e-002   9.9921371133e-001  -3.5357954866e-002   1.8592529163e-003   2.2633024825e-003
  1.3858750000e+008  -1.7471432596e-003   1.8697805051e-004   9.9887809312e-001  -3.7160410836e-002   9.9887809312e-001  -3.7160410836e-002   2.8287646063e-003   2.4640680958e-003
  1.4717500000e+008  -1.7341923813e-003   6.7720455058e-004   9.9906192598e-001  -3.9547499467e-002   9.9906192598e-001  -3.9547499467e-002   1.8345662494e-003   1.6995227617e-003
  1.5576250000e+008  -1.8078761791e-003  -1.1170942400e-005   9.9863051436e-001  -4.1594281177e-002   9.9863051436e-001  -4.1594281177e-002   2.8101739801e-003   3.7346708211e-003
  1.6435000000e+008  -1.4717287553e-003   8.8761899684e-004   9.9856548744e-001  -4.4030916684e-002   9.9856548744e-001  -4.4030916684e-002   2.3751433576e-003   1.3840415386e-003
  1.7293750000e+008  -1.9762092165e-003   1.4100247153e-004   9.9844563485e-001  -4.6791443571e-002   9.9844563485e-001  -4.6791443571e-002   2.4563709867e-003   2.4007927147e-003
  1.8152500000e+008  -1.3691098685e-003   9.4153343060e-004   9.9887472919e-001  -4.8332161651e-002   9.9887472919e-001  -4.8332161651e-002   1.9677819888e-003   1.9481088843e-003
  1.9011250000e+008  -2.2372528143e-003   5.6073480388e-004   9.9804314287e-001  -5.1267897032e-002   9.9804314287e-001  -5.1267897032e-002   3.2040206851e-003   2.7658064539e-003
  1.9870000000e+008  -1.2438843761e-003   5.3081866858e-004   9.9798084365e-001  -5.3102718769e-002   9.9798084365e-001  -5.3102718769e-002   2.2763339395e-003   2.6018913125e-003
  2.0728750000e+008  -2.1556217710e-003   2.9396638677e-004   9.9796216706e-001  -5.5755441468e-002   9.9796216706e-001  -5.5755441468e-002   2.7467929575e-003   3.4226313617e-003
  2.1587500000e+008  -1.8499452325e-003   7.8634237304e-004   9.9786953338e-001  -5.7839891095e-002   9.9786953338e-001  -5.7839891095e-002   3.3198751755e-003   3.0278351402e-003
  2.2446250000e+008  -2.4279089698e-003   9.3627330706e-004   9.9745788260e-001  -6.0533699173e-002   9.9745788260e-001  -6.0533699173e-002   3.5633162254e-003   3.8571290344e-003
  2.3305000000e+008  -2.1405564878e-003   1.1019706817e-003   9.9768519055e-001  -6.2701889873e-002   9.9768519055e-001  -6.2701889873e-002   3.3846727131e-003   3.3265882396e-003
  2.4163750000e+008  -1.8895010341e-003   6.7382157022e-004   9.9725296063e-001  -6.4771030030e-002   9.9725296063e-001  -6.4771030030e-002   2.7084459620e-003   3.2736000886e-003
  2.5022500000e+008  -2.0918967830e-003   9.7439179352e-004   9.9712077719e-001  -6.7004942227e-002   9.9712077719e-001  -6.7004942227e-002   2.9986532100e-003   2.9782711813e-003
  2.5881250000e+008  -2.4781371847e-003   7.0505745458e-004   9.9741448519e-001  -6.9244876789e-002   9.9741448519e-001  -6.9244876789e-002   3.4910402349e-003   4.2679926695e-003
  2.6740000000e+008  -2.6978538797e-003   1.1435945147e-003   9.9697843752e-001  -7.1933287725e-002   9.9697843752e-001  -7.1933287725e-002   4.7980109051e-003   3.7442736897e-003
  2.7598750000e+008  -1.8793396321e-003   1.0785708833e-003   9.9663812643e-001  -7.4190925283e-002   9.9663812643e-001  -7.4190925283e-002   2.8366374067e-003   3.4202478057e-003
  2.8457500000e+008  -2.1968504498e-003   1.1690363066e-003   9.9668182429e-001  -7.6061329478e-002   9.9668182429e-001  -7.6061329478e-002   3.0266260677e-003   3.7473523880e-003
  2.9316250000e+008  -2.2178485868e-003   1.2086082509e-003   9.9642243337e-001  -7.8405725475e-002   9.9642243337e-001  -7.8405725475e-002   3.3764015096e-003   3.3365703413e-003
  3.0175000000e+008  -1.8272090283e-003   1.3757999870e-003   9.9610005581e-001  -8.1025972549e-002   9.9610005581e-001  -8.1025972549e-002   2.7955999290e-003   3.8656650180e-003
  3.1033750000e+008  -2.0055864052e-003   1.5427877965e-003   9.9595601559e-001  -8.2951986222e-002   9.9595601559e-001  -8.2951986222e-002   2.8743339746e-003   3.7770976507e-003
  3.1892500000e+008  -2.1139857435e-003   1.4695025199e-003   9.9558736984e-001  -8.5382253829e-002   9.9558736984e-001  -8.5382253829e-002   2.9533522541e-003   4.3726619031e-003
  3.2751250000e+008  -2.2748507000e-003   1.4420806905e-003   9.9544131665e-001  -8.8130592600e-002   9.9544131665e-001  -8.8130592600e-002   3.6484715416e-003   4.8461367275e-003
  3.3610000000e+008  -2.0945590099e-003   1.6323987041e-003   9.9491538467e-001  -9.0331841449e-002   9.9491538467e-001  -9.0331841449e-002   2.8722463949e-003   3.6218780496e-003
  3.4468750000e+008  -2.3385203779e-003   1.6550859600e-003   9.9506436789e-001  -9.2258798382e-002   9.9506436789e-001  -9.2258798382e-002   3.2905738725e-003   4.0700393476e-003
  3.5327500000e+008  -2.1482654519e-003   2.1137567871e-003   9.9480375023e-001  -9.4483540316e-002   9.9480375023e-001  -9.4483540316e-002   3.5151227416e-003   4.2631294798e-003
  3.6186250000e+008  -2.4806312173e-003   1.6369128926e-003   9.9482003479e-001  -9.6623470895e-002   9.9482003479e-001  -9.6623470895e-002   3.9958773003e-003   4.4916324304e-003
  3.7045000000e+008  -2.0866787602e-003   1.9872698071e-003   9.9429989874e-001  -9.9201685172e-002   9.9429989874e-001  -9.9201685172e-002   3.8457547977e-003   3.9518028281e-003
  3.7903750000e+008  -2.1500933597e-003   1.7985044931e-003   9.9413869327e-001  -1.0134008252e-001   9.9413869327e-001  -1.0134008252e-001   2.8650857189e-003   5.0410197360e-003
  3.8762500000e+008  -2.2478406934e-003   2.0842473307e-003   9.9393822716e-001  -1.0384560828e-001   9.9393822716e-001  -1.0384560828e-001   3.7084878120e-003   4.3491476494e-003
  3.9621250000e+008  -2.1886675510e-003   1.9202131861e-003   9.9361373784e-001  -1.0626315093e-001   9.9361373784e-001  -1.0626315093e-001   3.5089954908e-003   4.5907204591e-003
  4.0480000000e+008  -2.3046357637e-003   2.1779169683e-003   9.9339507345e-001  -1.0830608541e-001   9.9339507345e-001  -1.0830608541e-001   3.3315931775e-003   4.8817454914e-003
  4.1338750000e+008  -2.2112253043e-003   2.0429617830e-003   9.9319667197e-001  -1.1058315261e-001   9.9319667197e-001  -1.1058315261e-001   4.0947817752e-003   5.2709618254e-003
  4.2197500000e+008  -2.4955297101e-003   2.1387990309e-003   9.9284612332e-001  -1.1305962094e-001   9.9284612332e-001  -1.1305962094e-001   3.6281235509e-003   5.5341651428e-003
  4.3056250000e+008  -2.5787865318e-003   2.2556050160e-003   9.9251974773e-001  -1.1499517717e-001   9.9251974773e-001  -1.1499517717e-001   4.1899434785e-003   5.1626489995e-003
  4.3915000000e+008  -2.2762100092e-003   2.3888621269e-003   9.9241182667e-001  -1.1729658144e-001   9.9241182667e-001  -1.1729658144e-001   3.9714184908e-003   4.7673518527e-003
  4.4773750000e+008  -2.2677725874e-003   2.4203538459e-003   9.9206798773e-001  -1.1984522033e-001   9.9206798773e-001  -1.1984522033e-001   3.7660144957e-003   4.8774027834e-003
  4.5632500000e+008  -2.0664198201e-003   2.5010729024e-003   9.9169863106e-001  -1.2194103829e-001   9.9169863106e-001  -1.2194103829e-001   3.7554822797e-003   5.1959984970e-003
  4.6491250000e+008  -2.0796529522e-003   2.2783306374e-003   9.9140575595e-001  -1.2465340901e-001   9.9140575595e-001  -1.2465340901e-001   3.3891603270e-003   5.5669315597e-003
  4.7350000000e+008  -2.3497359762e-003   2.6741539009e-003   9.9103931612e-001  -1.2659573289e-001   9.9103931612e-001  -1.2659573289e-001   4.0426932605e-003   5.0476448346e-003
  4.8208750000e+008  -2.2815700389e-003   2.7148844421e-003   9.9099364433e-001  -1.2876393776e-001   9.9099364433e-001  -1.2876393776e-001   3.7926010775e-003   5.2998911427e-003
  4.9067500000e+008  -2.4847101015e-003   2.9883970724e-003   9.9055349177e-001  -1.3124814964e-001   9.9055349177e-001  -1.3124814964e-001   4.6174732021e-003   5.1673602403e-003
  4.9926250000e+008  -2.0837632097e-003   2.9228405276e-003   9.9038662207e-001  -1.3378175993e-001   9.9038662207e-001  -1.3378175993e-001   3.6832418374e-003   5.0827414159e-003
  5.0785000000e+008  -2.4419096708e-003   2.7031081185e-003   9.9013800610e-001  -1.3567595589e-001   9.9013800610e-001  -1.3567595589e-001   4.6693102379e-003   5.9517120392e-003
  5.1643750000e+008  -2.1305480037e-003   2.9103133388e-003   9.8969073017e-001  -1.3808369658e-001   9.8969073017e-001  -1.3808369658e-001   4.1986004098e-003   5.5198096727e-003
  5.2502500000e+008  -2.1450677201e-003   3.1325794283e-003   9.8962399624e-001  -1.4022314575e-001   9.8962399624e-001  -1.4022314575e-001   3.6370881264e-003   5.5294456717e-003
  5.3361250000e+008  -2.1697879564e-003   3.2905646368e-003   9.8909298509e-001  -1.4228703364e-001   9.8909298509e-001  -1.4228703364e-001   3.9796451687e-003   5.4711755378e-003
  5.4220000000e+008  -2.5190607501e-003   3.2814331674e-003   9.8868419296e-001  -1.4490583772e-001   9.8868419296e-001  -1.4490583772e-001   4.2166874950e-003   6.0009031890e-003
  5.5078750000e+008  -1.9050523210e-003   3.1889439825e-003   9.8838054542e-001  -1.4689049525e-001   9.8838054542e-001  -1.4689049525e-001   3.6247029906e-003   6.1093338610e-003
  5.5937500000e+008  -1.9403057286e-003   3.5170783656e-003   9.8813918541e-001  -1.4928804509e-001   9.8813918541e-001  -1.4928804509e-001   3.9517036504e-003   5.4911019849e-003
  5.6796250000e+008  -2.0779593383e-003   3.3907929162e-003   9.8773041973e-001  -1.5143987359e-001   9.8773041973e-001  -1.5143987359e-001   4.3511007332e-003   5.8396421157e-003
  5.7655000000e+008  -2.1063807626e-003   3.5974634721e-003   9.8722958039e-001  -1.5368501272e-001   9.8722958039e-001  -1.5368501272e-001   4.4462120499e-003   5.7217671079e-003
  5.8513750000e+008  -2.1623048976e-003   3.5363004937e-003   9.8708051152e-001  -1.5615013171e-001   9.8708051152e-001  -1.5615013171e-001   4.3845435270e-003   5.8774501833e-003
  5.9372500000e+008  -2.1651078847e-003   3.7732975509e-003   9.8647174219e-001  -1.5844621945e-001   9.8647174219e-001  -1.5844621945e-001   4.2462397145e-003   5.6874403618e-003
  6.0231250000e+008  -2.0810512465e-003   3.6516341927e-003   9.8622188284e-001  -1.6049972802e-001   9.8622188284e-001  -1.6049972802e-001   4.4338480919e-003   6.7469863464e-003
  6.1090000000e+008  -2.0416464615e-003   3.5913799103e-003   9.8573769212e-001  -1.6300326497e-001   9.8573769212e-001  -1.6300326497e-001   4.3965121389e-003   6.1893426304e-003
  6.1948750000e+008  -2.2396431130e-003   4.0188728266e-003   9.8528088401e-001  -1.6532027847e-001   9.8528088401e-001  -1.6532027847e-001   4.6952699284e-003   6.3374468419e-003
  6.2807500000e+008  -2.1956955971e-003   3.7674111559e-003   9.8487393440e-001  -1.6740175639e-001   9.8487393440e-001  -1.6740175639e-001   4.2687464889e-003   6.7520717605e-003
  6.3666250000e+008  -2.2545234717e-003   3.8619126273e-003   9.8462118341e-001  -1.6974533698e-001   9.8462118341e-001  -1.6974533698e-001   4.1047667107e-003   7.0385280927e-003
  6.4525000000e+008  -2.0183997565e-003   4.1199916637e-003   9.8462644274e-001  -1.7203020901e-001   9.8462644274e-001  -1.7203020901e-001   4.7402357560e-003   6.6658038509e-003
  6.5383750000e+008  -2.1814165680e-003   4.0296378753e-003   9.8376608119e-001  -1.7447753843e-001   9.8376608119e-001  -1.7447753843e-001   4.5461659385e-003   7.0550512513e-003
  6.6242500000e+008  -1.9764262158e-003   4.2806561980e-003   9.8355932895e-001  -1.7664454594e-001   9.8355932895e-001  -1.7664454594e-001   5.1178987600e-003   6.7027373775e-003
  6.7101250000e+008  -2.0626524692e-003   4.0726148665e-003   9.8293404287e-001  -1.7889559570e-001   9.8293404287e-001  -1.7889559570e-001   4.2681337983e-003   6.7127571414e-003
  6.7960000000e+008  -1.9757920647e-003   4.2608323622e-003   9.8257695121e-001  -1.8105023320e-001   9.8257695121e-001  -1.8105023320e-001   4.2961532707e-003   7.3306865650e-003
  6.8818750000e+008  -1.7903637630e-003   4.3386733022e-003   9.8228518168e-001  -1.8347727426e-001   9.8228518168e-001  -1.8347727426e-001   3.8382921688e-003   6.9481201086e-003
  6.9677500000e+008  -2.0870462892e-003   4.3918175958e-003   9.8167956281e-001  -1.8587346001e-001   9.8167956281e-001  -1.8587346001e-001   4.8064642991e-003   7.2064610495e-003
  7.0536250000e+008  -1.6581632863e-003   4.4527182857e-003   9.8136101400e-001  -1.8805150812e-001   9.8136101400e-001  -1.8805150812e-001   3.9781509196e-003   6.0937361246e-003
  7.1395000000e+008  -2.0464241053e-003   4.5952585309e-003   9.8071618587e-001  -1.9010663434e-001   9.8071618587e-001  -1.9010663434e-001   4.5003161430e-003   6.3408972831e-003
  7.2253750000e+008  -1.7727425668e-003   4.7769754105e-003   9.8038171595e-001  -1.9234400080e-001   9.8038171595e-001  -1.9234400080e-001   4.2578219795e-003   7.0641053103e-003
  7.3112500000e+008  -2.0050187358e-003   4.7748155768e-003   9.7967061988e-001  -1.9461204706e-001   9.7967061988e-001  -1.9461204706e-001   4.7749581393e-003   7.8833600080e-003
  7.3971250000e+008  -1.7519203159e-003   4.7248983040e-003   9.7950420942e-001  -1.9704051820e-001   9.7950420942e-001  -1.9704051820e-001   2.3593546713e-003   6.5689703164e-003
  7.4830000000e+008  -1.8236960804e-003   4.7147882141e-003   9.7937847223e-001  -1.9884724742e-001   9.7937847223e-001  -1.9884724742e-001   4.4067981589e-003   7.5351327533e-003
  7.5688750000e+008  -1.7255887246e-003   4.8298803079e-003   9.7853134228e-001  -2.0157187727e-001   9.7853134228e-001  -2.0157187727e-001   4.6535372546e-003   7.5875156173e-003
  7.6547500000e+008  -1.7561212713e-003   5.0777437384e-003   9.7828292084e-001  -2.0406561576e-001   9.7828292084e-001  -2.0406561576e-001   3.5101829931e-003   7.5287998147e-003
  7.7406250000e+008  -1.5888545892e-003   5.0200486079e-003   9.7729906295e-001  -2.0591237558e-001   9.7729906295e-001  -2.0591237558e-001   6.0556872923e-003   8.0016097481e-003
  7.8265000000e+008  -1.6025190424e-003   5.0255091533e-003   9.7733067906e-001  -2.0780924834e-001   9.7733067906e-001  -2.0780924834e-001   3.5524131839e-003   7.5097501427e-003
  7.9123750000e+008  -1.7755404087e-003   5.1241666112e-003   9.7653466683e-001  -2.1027841675e-001   9.7653466683e-001  -2.1027841675e-001   5.0271456539e-003   8.5879104649e-003
  7.9982500000e+008  -1.5880324738e-003   5.1982744166e-003   9.7628524093e-001  -2.1235889373e-001   9.7628524093e-001  -2.1235889373e-001   5.4850677508e-003   7.4926986486e-003
  8.0841250000e+008  -1.6894007582e-003   5.1849751951e-003   9.7576027920e-001  -2.1491878955e-001   9.7576027920e-001  -2.1491878955e-001   4.5659609308e-003   8.6461128722e-003
  8.1700000000e+008  -1.3538660284e-003   5.4414492988e-003   9.7516077704e-001  -2.1681157301e-001   9.7516077704e-001  -2.1681157301e-001   5.2150047582e-003   7.7095799545e-003
  8.2558750000e+008  -1.6695382417e-003   5.4304709096e-003   9.7447165040e-001  -2.1908016647e-001   9.7447165040e-001  -2.1908016647e-001   4.4601375589e-003   8.5466371954e-003
  8.3417500000e+008  -1.5372394614e-003   5.5928672840e-003   9.7432353146e-001  -2.2158910873e-001   9.7432353146e-001  -2.2158910873e-001   5.1449499152e-003   7.1976205606e-003
  8.4276250000e+008  -1.4829328545e-003   5.6148630049e-003   9.7331874835e-001  -2.2416624373e-001   9.7331874835e-001  -2.2416624373e-001   5.4595898441e-003   7.7305961882e-003
  8.5135000000e+008  -1.5156093702e-003   5.6496925925e-003   9.7332823034e-001  -2.2640318822e-001   9.7332823034e-001  -2.2640318822e-001   5.0789002751e-003   7.7135920509e-003
  8.5993750000e+008  -1.5755041872e-003   5.6732413861e-003   9.7238884809e-001  -2.2804680928e-001   9.7238884809e-001  -2.2804680928e-001   4.6782219470e-003   7.5724695651e-003
  8.6852500000e+008  -1.5512431401e-003   5.7227862118e-003   9.7229570818e-001  -2.3025834908e-001   9.7229570818e-001  -2.3025834908e-001   5.4085874784e-003   7.9735745879e-003
  8.7711250000e+008  -1.3930790313e-003   5.8701875345e-003   9.7167860260e-001  -2.3316505998e-001   9.7167860260e-001  -2.3316505998e-001   4.5265832083e-003   7.8622426073e-003
  8.8570000000e+008  -1.2947570667e-003   5.8260987529e-003   9.7094869909e-001  -2.3468411508e-001   9.7094869909e-001  -2.3468411508e-001   5.0506053024e-003   7.7546540264e-003
  8.9428750000e+008  -1.3075288826e-003   5.8976093071e-003   9.7065981434e-001  -2.3735748542e-001   9.7065981434e-001  -2.3735748542e-001   4.6796212454e-003   7.7354089875e-003
  9.0287500000e+008  -1.1887883905e-003   6.0274860568e-003   9.7005320534e-001  -2.3955641745e-001   9.7005320534e-001  -2.3955641745e-001   4.5930041202e-003   7.7947392121e-003
  9.1146250000e+008  -1.2841066651e-003   6.0454295301e-003   9.6941759110e-001  -2.4159191273e-001   9.6941759110e-001  -2.4159191273e-001   4.9607063297e-003   8.7091710215e-003
  9.2005000000e+008  -1.2808461837e-003   6.2101395182e-003   9.6896142119e-001  -2.4367752199e-001   9.6896142119e-001  -2.4367752199e-001   5.1226041402e-003   8.8690045119e-003
  9.2863750000e+008  -1.1556831651e-003   6.2142016675e-003   9.6849257624e-001  -2.4605975176e-001   9.6849257624e-001  -2.4605975176e-001   5.4467893155e-003   8.5350334707e-003
  9.3722500000e+008  -1.2135613028e-003   6.2813633197e-003   9.6752198659e-001  -2.4820526699e-001   9.6752198659e-001  -2.4820526699e-001   4.8303195889e-003   8.7739036795e-003
  9.4581250000e+008  -1.0466324047e-003   6.2631417341e-003   9.6701290359e-001  -2.5078209934e-001   9.6701290359e-001  -2.5078209934e-001   4.7305641838e-003   9.3471841065e-003
  9.5440000000e+008  -9.3647108309e-004   6.3138193391e-003   9.6625104659e-001  -2.5251823800e-001   9.6625104659e-001  -2.5251823800e-001   4.8859731213e-003   8.6423160086e-003
  9.6298750000e+008  -1.1739856706e-003   6.2722930927e-003   9.6611847972e-001  -2.5496792144e-001   9.6611847972e-001  -2.5496792144e-001   5.8086417696e-003   8.4612186571e-003
  9.7157500000e+008  -1.0344318747e-003   6.4583395589e-003   9.6541419022e-001  -2.5712687315e-001   9.6541419022e-001  -2.5712687315e-001   5.1600089188e-003   8.8825096298e-003
  9.8016250000e+008  -9.3888779337e-004   6.6858444272e-003   9.6488687118e-001  -2.5938896286e-001   9.6488687118e-001  -2.5938896286e-001   5.4669077837e-003   8.4119047727e-003
  9.8875000000e+008  -8.9747850411e-004   6.4532874178e-003   9.6408187564e-001  -2.6154715109e-001   9.6408187564e-001  -2.6154715109e-001   5.3818741374e-003   9.1712918816e-003
  9.9733750000e+008  -1.0527420618e-003   6.6301688508e-003   9.6362138243e-001  -2.6396585666e-001   9.6362138243e-001  -2.6396585666e-001   5.6470829259e-003   9.4594624520e-003
  1.0059250000e+009  -9.5213349996e-004   6.7749140749e-003   9.6299461527e-001  -2.6612747878e-001   9.6299461527e-001  -2.6612747878e-001   5.5210941725e-003   8.8478452355e-003
  1.0145125000e+009  -9.7963957376e-004   6.8675523065e-003   9.6235417737e-001  -2.6824952083e-001   9.6235417737e-001  -2.6824952083e-001   4.7446540684e-003   9.0259891376e-003
  1.0231000000e+009  -8.7073310675e-004   6.7820035083e-003   9.6150740264e-001  -2.7029404385e-001   9.6150740264e-001  -2.7029404385e-001   4.8426258574e-003   9.3971693291e-003
  1.0316875000e+009  -7.5692880055e-004   6.9796201110e-003   9.6105443406e-001  -2.7269033783e-001   9.6105443406e-001  -2.7269033783e-001   4.7619763592e-003   9.0547877792e-003
  1.0402750000e+009  -7.8070924219e-004   7.0140087218e-003   9.6026265314e-001  -2.7476632840e-001   9.6026265314e-001  -2.7476632840e-001   5.4688225517e-003   9.0391576456e-003
  1.0488625000e+009  -8.7201534583e-004   6.9350521333e-003   9.5980702373e-001  -2.7670700563e-001   9.5980702373e-001  -2.7670700563e-001   5.4806005926e-003   8.9450184344e-003
  1.0574500000e+009  -6.4293895091e-004   7.1038892309e-003   9.5915377905e-001  -2.7971976949e-001   9.5915377905e-001  -2.7971976949e-001   5.1584568184e-003   9.7576829611e-003
