# Hz S RI R 50.000000
! Metas.Vna.Tools, 2.8.8664.20301
! Metas.Vna.Data, 2.8.8664.20285
! Created: UTC 2024.02.09 20:23:34
! FREQ                re:S2,2             im:S2,2          
  1.3000000000e+008   7.7442169189e-002   5.2829742432e-002
  1.3858750000e+008   9.8922729492e-002   1.1703491211e-002
  1.4717500000e+008   9.9601745605e-002  -3.8444519043e-002
  1.5576250000e+008   7.4275970459e-002  -8.6486816406e-002
  1.6435000000e+008   2.5382995605e-002  -1.1749267578e-001
  1.7293750000e+008  -3.4744262695e-002  -1.2042999268e-001
  1.8152500000e+008  -8.8737487793e-002  -9.3894958496e-002
  1.9011250000e+008  -1.2657165527e-001  -4.5257568359e-002
  1.9870000000e+008  -1.3973236084e-001   1.6822814941e-002
  2.0728750000e+008  -1.2332916260e-001   8.3404541016e-002
  2.1587500000e+008  -7.2998046875e-002   1.3972473145e-001
  2.2446250000e+008   3.9749145508e-003   1.6407775879e-001
  2.3305000000e+008   8.4869384766e-002   1.4480590820e-001
  2.4163750000e+008   1.4559173584e-001   8.8455200195e-002
  2.5022500000e+008   1.7314147949e-001   9.2086791992e-003
  2.5881250000e+008   1.6313171387e-001  -7.3486328125e-002
  2.6740000000e+008   1.1518096924e-001  -1.4627838135e-001
  2.7598750000e+008   3.4301757813e-002  -1.9065856934e-001
  2.8457500000e+008  -6.1111450195e-002  -1.9062805176e-001
  2.9316250000e+008  -1.4626312256e-001  -1.4411926270e-001
  3.0175000000e+008  -2.0088195801e-001  -6.2866210938e-002
  3.1033750000e+008  -2.1380615234e-001   3.6605834961e-002
  3.1892500000e+008  -1.7770385742e-001   1.3603210449e-001
  3.2751250000e+008  -9.4818115234e-002   2.0933532715e-001
  3.3610000000e+008   1.6586303711e-002   2.3240661621e-001
  3.4468750000e+008   1.2416076660e-001   1.9816589355e-001
  3.5327500000e+008   2.0375061035e-001   1.2033081055e-001
  3.6186250000e+008   2.4275207520e-001   1.3916015625e-002
  3.7045000000e+008   2.2982788086e-001  -1.0624694824e-001
  3.7903750000e+008   1.5605163574e-001  -2.1183776855e-001
  3.8762500000e+008   3.3554077148e-002  -2.6605224609e-001
  3.9621250000e+008  -9.7351074219e-002  -2.4948120117e-001
  4.0480000000e+008  -1.9909667969e-001  -1.7723083496e-001
  4.1338750000e+008  -2.5929260254e-001  -7.2677612305e-002
  4.2197500000e+008  -2.7323913574e-001   4.9789428711e-002
  4.3056250000e+008  -2.3056030273e-001   1.7630004883e-001
  4.3915000000e+008  -1.2258911133e-001   2.7651977539e-001
  4.4773750000e+008   3.0868530273e-002   3.0601501465e-001
  4.5632500000e+008   1.7446899414e-001   2.4926757813e-001
  4.6491250000e+008   2.6614379883e-001   1.3635253906e-001
  4.7350000000e+008   2.9855346680e-001   1.9683837891e-003
  4.8208750000e+008   2.7427673340e-001  -1.3542175293e-001
  4.9067500000e+008   1.8812561035e-001  -2.5827026367e-001
  4.9926250000e+008   4.0252685547e-002  -3.2933044434e-001
  5.0785000000e+008  -1.2799072266e-001  -3.0909729004e-001
  5.1643750000e+008  -2.5401306152e-001  -2.0936584473e-001
  5.2502500000e+008  -3.1491088867e-001  -7.5332641602e-002
  5.3361250000e+008  -3.2206726074e-001   6.7703247070e-002
  5.4220000000e+008  -2.6950073242e-001   2.1069335938e-001
  5.5078750000e+008  -1.4538574219e-001   3.2617187500e-001
  5.5937500000e+008   3.2653808594e-002   3.6355590820e-001
  5.6796250000e+008   2.0515441895e-001   3.0010986328e-001
  5.7655000000e+008   3.1843566895e-001   1.6644287109e-001
  5.8513750000e+008   3.5934448242e-001   2.6397705078e-003
  5.9372500000e+008   3.2771301270e-001  -1.6500854492e-001
  6.0231250000e+008   2.1839904785e-001  -3.0999755859e-001
  6.1090000000e+008   4.2175292969e-002  -3.8638305664e-001
  6.1948750000e+008  -1.5077209473e-001  -3.6137390137e-001
  6.2807500000e+008  -2.9936218262e-001  -2.4664306641e-001
  6.3666250000e+008  -3.7481689453e-001  -8.6120605469e-002
  6.4525000000e+008  -3.7811279297e-001   8.7554931641e-002
  6.5383750000e+008  -3.0834960938e-001   2.5378417969e-001
  6.6242500000e+008  -1.5966796875e-001   3.8021850586e-001
  6.7101250000e+008   4.5501708984e-002   4.1818237305e-001
  6.7960000000e+008   2.4296569824e-001   3.4172058105e-001
  6.8818750000e+008   3.7005615234e-001   1.8234252930e-001
  6.9677500000e+008   4.0835571289e-001  -7.5073242188e-003
  7.0536250000e+008   3.6433410645e-001  -1.9248962402e-001
  7.1395000000e+008   2.4198913574e-001  -3.4756469727e-001
  7.2253750000e+008   4.9591064453e-002  -4.3338012695e-001
  7.3112500000e+008  -1.6989135742e-001  -4.1018676758e-001
  7.3971250000e+008  -3.4323120117e-001  -2.7770996094e-001
  7.4830000000e+008  -4.2706298828e-001  -8.6791992188e-002
  7.5688750000e+008  -4.1778564453e-001   1.1267089844e-001
  7.6547500000e+008  -3.2716369629e-001   2.8697204590e-001
  7.7406250000e+008  -1.6577148438e-001   4.1040039063e-001
  7.8265000000e+008   4.3640136719e-002   4.4998168945e-001
  7.9123750000e+008   2.5738525391e-001   3.8162231445e-001
  7.9982500000e+008   4.1064453125e-001   2.1026611328e-001
  8.0841250000e+008   4.5764160156e-001  -1.1657714844e-002
  8.1700000000e+008   3.9501953125e-001  -2.2140502930e-001
  8.2558750000e+008   2.5094604492e-001  -3.7643432617e-001
  8.3417500000e+008   5.3405761719e-002  -4.5465087891e-001
  8.4276250000e+008  -1.6400146484e-001  -4.3768310547e-001
  8.5135000000e+008  -3.5671997070e-001  -3.1671142578e-001
  8.5993750000e+008  -4.6972656250e-001  -1.1465454102e-001
  8.6852500000e+008  -4.7122192383e-001   1.1834716797e-001
  8.7711250000e+008  -3.6293029785e-001   3.2429504395e-001
  8.8570000000e+008  -1.7324829102e-001   4.5672607422e-001
  8.9428750000e+008   5.5816650391e-002   4.8608398438e-001
  9.0287500000e+008   2.7395629883e-001   4.0802001953e-001
  9.1146250000e+008   4.3551635742e-001   2.3757934570e-001
  9.2005000000e+008   5.0280761719e-001   6.1645507813e-003
  9.2863750000e+008   4.5178222656e-001  -2.3620605469e-001
  9.3722500000e+008   2.8521728516e-001  -4.2639160156e-001
  9.4581250000e+008   4.8278808594e-002  -5.0952148438e-001
  9.5440000000e+008  -1.9454956055e-001  -4.7088623047e-001
  9.6298750000e+008  -3.8650512695e-001  -3.2785034180e-001
  9.7157500000e+008  -4.9606323242e-001  -1.1828613281e-001
  9.8016250000e+008  -5.0161743164e-001   1.2176513672e-001
  9.8875000000e+008  -3.9419555664e-001   3.4442138672e-001
  9.9733750000e+008  -1.8817138672e-001   4.9191284180e-001
  1.0059250000e+009   6.3842773438e-002   5.2441406250e-001
  1.0145125000e+009   2.9815673828e-001   4.3487548828e-001
  1.0231000000e+009   4.6667480469e-001   2.5067138672e-001
  1.0316875000e+009   5.3524780273e-001   6.5002441406e-003
  1.0402750000e+009   4.8229980469e-001  -2.5204467773e-001
  1.0488625000e+009   3.0355834961e-001  -4.5504760742e-001
  1.0574500000e+009   4.7058105469e-002  -5.4071044922e-001
  1.0660375000e+009  -2.0700073242e-001  -4.9270629883e-001
  1.0746250000e+009  -4.0194702148e-001  -3.4201049805e-001
  1.0832125000e+009  -5.1327514648e-001  -1.2826538086e-001
  1.0918000000e+009  -5.2609252930e-001   1.1685180664e-001
  1.1003875000e+009  -4.2227172852e-001   3.5583496094e-001
  1.1089750000e+009  -2.0599365234e-001   5.2108764648e-001
  1.1175625000e+009   6.7962646484e-002   5.5380249023e-001
  1.1261500000e+009   3.1439208984e-001   4.5208740234e-001
  1.1347375000e+009   4.8141479492e-001   2.5659179688e-001
  1.1433250000e+009   5.4818725586e-001   1.1901855469e-002
  1.1519125000e+009   5.0000000000e-001  -2.4594116211e-001
  1.1605000000e+009   3.2794189453e-001  -4.6148681641e-001
  1.1690875000e+009   6.3873291016e-002  -5.6338500977e-001
  1.1776750000e+009  -2.0761108398e-001  -5.1611328125e-001
  1.1862625000e+009  -4.1183471680e-001  -3.5739135742e-001
  1.1948500000e+009  -5.2301025391e-001  -1.3879394531e-001
  1.2034375000e+009  -5.3698730469e-001   1.0708618164e-001
  1.2120250000e+009  -4.4567871094e-001   3.4658813477e-001
  1.2206125000e+009  -2.3944091797e-001   5.3204345703e-001
  1.2292000000e+009   4.7088623047e-002   5.8847045898e-001
  1.2377875000e+009   3.2116699219e-001   4.9075317383e-001
  1.2463750000e+009   5.0411987305e-001   2.8057861328e-001
  1.2549625000e+009   5.7351684570e-001   2.1179199219e-002
  1.2635500000e+009   5.2331542969e-001  -2.4481201172e-001
  1.2721375000e+009   3.5192871094e-001  -4.6890258789e-001
  1.2807250000e+009   8.4594726563e-002  -5.8291625977e-001
  1.2893125000e+009  -2.0306396484e-001  -5.4791259766e-001
  1.2979000000e+009  -4.2672729492e-001  -3.8510131836e-001
  1.3064875000e+009  -5.4879760742e-001  -1.5213012695e-001
  1.3150750000e+009  -5.6530761719e-001   1.0687255859e-001
  1.3236625000e+009  -4.6932983398e-001   3.5757446289e-001
  1.3322500000e+009  -2.5650024414e-001   5.5224609375e-001
  1.3408375000e+009   4.1259765625e-002   6.1734008789e-001
  1.3494250000e+009   3.3197021484e-001   5.1901245117e-001
  1.3580125000e+009   5.2627563477e-001   2.9577636719e-001
  1.3666000000e+009   5.9252929688e-001   2.1331787109e-002
  1.3751875000e+009   5.3356933594e-001  -2.4633789063e-001
  1.3837750000e+009   3.6306762695e-001  -4.6218872070e-001
  1.3923625000e+009   1.1077880859e-001  -5.8029174805e-001
  1.4009500000e+009  -1.7285156250e-001  -5.6802368164e-001
  1.4095375000e+009  -4.1976928711e-001  -4.2599487305e-001
  1.4181250000e+009  -5.7254028320e-001  -1.8365478516e-001
  1.4267125000e+009  -5.9854125977e-001   1.0543823242e-001
  1.4353000000e+009  -4.8251342773e-001   3.7551879883e-001
  1.4438875000e+009  -2.5051879883e-001   5.5847167969e-001
  1.4524750000e+009   3.6254882813e-002   6.0314941406e-001
  1.4610625000e+009   3.0294799805e-001   5.1736450195e-001
  1.4696500000e+009   5.0277709961e-001   3.2656860352e-001
  1.4782375000e+009   6.0049438477e-001   6.5155029297e-002
  1.4868250000e+009   5.6939697266e-001  -2.2390747070e-001
  1.4954125000e+009   3.9633178711e-001  -4.7009277344e-001
  1.5040000000e+009   1.2298583984e-001  -5.9686279297e-001
  1.5125875000e+009  -1.6647338867e-001  -5.7528686523e-001
  1.5211750000e+009  -4.0274047852e-001  -4.3157958984e-001
  1.5297625000e+009  -5.5380249023e-001  -2.0965576172e-001
  1.5383500000e+009  -6.0223388672e-001   6.0150146484e-002
  1.5469375000e+009  -5.2465820313e-001   3.4066772461e-001
  1.5555250000e+009  -3.0923461914e-001   5.6582641602e-001
  1.5641125000e+009   3.9367675781e-003   6.5032958984e-001
  1.5727000000e+009   3.0899047852e-001   5.6109619141e-001
  1.5812875000e+009   5.2203369141e-001   3.4561157227e-001
  1.5898750000e+009   6.0910034180e-001   7.3272705078e-002
  1.5984625000e+009   5.7620239258e-001  -2.0239257813e-001
  1.6070500000e+009   4.2794799805e-001  -4.4302368164e-001
  1.6156375000e+009   1.7871093750e-001  -6.0003662109e-001
  1.6242250000e+009  -1.2734985352e-001  -6.2435913086e-001
  1.6328125000e+009  -4.1329956055e-001  -4.9234008789e-001
  1.6414000000e+009  -5.9954833984e-001  -2.3748779297e-001
  1.6499875000e+009  -6.4074707031e-001   7.3181152344e-002
  1.6585750000e+009  -5.3353881836e-001   3.6456298828e-001
  1.6671625000e+009  -3.0392456055e-001   5.7086181641e-001
  1.6757500000e+009  -6.1950683594e-003   6.4547729492e-001
  1.6843375000e+009   2.8805541992e-001   5.7501220703e-001
  1.6929250000e+009   5.1599121094e-001   3.8159179688e-001
  1.7015125000e+009   6.3314819336e-001   1.0705566406e-001
  1.7101000000e+009   6.1553955078e-001  -1.9573974609e-001
  1.7186875000e+009   4.5693969727e-001  -4.6185302734e-001
  1.7272750000e+009   1.8515014648e-001  -6.2411499023e-001
  1.7358625000e+009  -1.2988281250e-001  -6.3476562500e-001
  1.7444500000e+009  -4.0963745117e-001  -4.9649047852e-001
  1.7530375000e+009  -5.8996582031e-001  -2.4884033203e-001
  1.7616250000e+009  -6.4212036133e-001   4.8583984375e-002
  1.7702125000e+009  -5.5426025391e-001   3.4094238281e-001
  1.7788000000e+009  -3.3663940430e-001   5.6536865234e-001
  1.7873875000e+009  -3.2348632813e-002   6.6680908203e-001
  1.7959750000e+009   2.8707885742e-001   6.0568237305e-001
  1.8045625000e+009   5.3445434570e-001   3.9517211914e-001
  1.8131500000e+009   6.4761352539e-001   9.9517822266e-002
  1.8217375000e+009   6.0848999023e-001  -2.0330810547e-001
  1.8303250000e+009   4.4583129883e-001  -4.4934082031e-001
  1.8389125000e+009   2.0019531250e-001  -5.9924316406e-001
  1.8475000000e+009  -8.9172363281e-002  -6.3165283203e-001
  1.8560875000e+009  -3.7854003906e-001  -5.3509521484e-001
  1.8646750000e+009  -6.0305786133e-001  -2.9949951172e-001
  1.8732625000e+009  -6.8298339844e-001   3.4240722656e-002
  1.8818500000e+009  -5.7412719727e-001   3.6074829102e-001
  1.8904375000e+009  -3.2534790039e-001   5.7412719727e-001
  1.8990250000e+009  -3.3172607422e-002   6.3989257813e-001
  1.9076125000e+009   2.4203491211e-001   5.8126831055e-001
  1.9162000000e+009   4.7076416016e-001   4.2578125000e-001
  1.9247875000e+009   6.2533569336e-001   1.8093872070e-001
  1.9333750000e+009   6.5997314453e-001  -1.3491821289e-001
  1.9419625000e+009   5.2017211914e-001  -4.4491577148e-001
  1.9505500000e+009   2.3431396484e-001  -6.3601684570e-001
  1.9591375000e+009  -9.3017578125e-002  -6.5258789063e-001
  1.9677250000e+009  -3.7365722656e-001  -5.2880859375e-001
  1.9763125000e+009  -5.6903076172e-001  -3.0627441406e-001
  1.9849000000e+009  -6.5771484375e-001  -1.7791748047e-002
  1.9934875000e+009  -6.0671997070e-001   2.9818725586e-001
  2.0020750000e+009  -3.9862060547e-001   5.6414794922e-001
  2.0106625000e+009  -7.7667236328e-002   6.8670654297e-001
  2.0192500000e+009   2.4777221680e-001   6.2982177734e-001
  2.0278375000e+009   4.9548339844e-001   4.4363403320e-001
  2.0364250000e+009   6.3641357422e-001   1.7755126953e-001
  2.0450125000e+009   6.5304565430e-001  -1.2380981445e-001
  2.0536000000e+009   5.3155517578e-001  -4.1360473633e-001
  2.0621875000e+009   2.7957153320e-001  -6.1895751953e-001
  2.0707750000e+009  -4.4830322266e-002  -6.7730712891e-001
  2.0793625000e+009  -3.5668945313e-001  -5.7656860352e-001
  2.0879500000e+009  -5.8721923828e-001  -3.4490966797e-001
  2.0965375000e+009  -6.8795776367e-001  -2.8015136719e-002
  2.1051250000e+009  -6.2432861328e-001   3.0874633789e-001
  2.1137125000e+009  -3.9672851563e-001   5.6909179688e-001
  2.1223000000e+009  -7.5683593750e-002   6.7437744141e-001
  2.1308875000e+009   2.3141479492e-001   6.1984252930e-001
  2.1394750000e+009   4.6859741211e-001   4.5248413086e-001
  2.1480625000e+009   6.1956787109e-001   2.1124267578e-001
  2.1566500000e+009   6.6888427734e-001  -8.2061767578e-002
  2.1652375000e+009   5.7791137695e-001  -3.9648437500e-001
  2.1738250000e+009   3.1677246094e-001  -6.4477539063e-001
  2.1824125000e+009  -4.7973632813e-002  -7.1163940430e-001
  2.1910000000e+009  -3.7585449219e-001  -5.7864379883e-001
  2.1995875000e+009  -5.8062744141e-001  -3.2769775391e-001
  2.2081750000e+009  -6.5402221680e-001  -3.6132812500e-002
  2.2167625000e+009  -6.0638427734e-001   2.5595092773e-001
  2.2253500000e+009  -4.3786621094e-001   5.1245117188e-001
  2.2339375000e+009  -1.5490722656e-001   6.7425537109e-001
  2.2425250000e+009   1.8353271484e-001   6.7642211914e-001
  2.2511125000e+009   4.7756958008e-001   5.0900268555e-001
  2.2597000000e+009   6.5008544922e-001   2.3089599609e-001
  2.2682875000e+009   6.7761230469e-001  -8.4808349609e-002
  2.2768750000e+009   5.6500244141e-001  -3.7783813477e-001
  2.2854625000e+009   3.3288574219e-001  -5.9555053711e-001
  2.2940500000e+009   1.9195556641e-002  -6.8603515625e-001
  2.3026375000e+009  -3.0795288086e-001  -6.1859130859e-001
  2.3112250000e+009  -5.6610107422e-001  -3.9965820313e-001
  2.3198125000e+009  -6.8927001953e-001  -8.1451416016e-002
  2.3284000000e+009  -6.4453125000e-001   2.5683593750e-001
  2.3369875000e+009  -4.4406127930e-001   5.2847290039e-001
  2.3455750000e+009  -1.4828491211e-001   6.6848754883e-001
  2.3541625000e+009   1.6610717773e-001   6.5612792969e-001
  2.3627500000e+009   4.3591308594e-001   5.1599121094e-001
  2.3713375000e+009   6.2472534180e-001   2.7767944336e-001
  2.3799250000e+009   7.0104980469e-001  -2.9479980469e-002
  2.3885125000e+009   6.2402343750e-001  -3.6209106445e-001
  2.3971000000e+009   3.7554931641e-001  -6.2750244141e-001
  2.4056875000e+009   1.7852783203e-002  -7.2198486328e-001
  2.4142750000e+009  -3.2110595703e-001  -6.2149047852e-001
  2.4228625000e+009  -5.5371093750e-001  -3.9053344727e-001
  2.4314500000e+009  -6.5899658203e-001  -1.0162353516e-001
  2.4400375000e+009  -6.3931274414e-001   2.0327758789e-001
  2.4486250000e+009  -4.9035644531e-001   4.8275756836e-001
  2.4572125000e+009  -2.1524047852e-001   6.7480468750e-001
  2.4658000000e+009   1.3378906250e-001   7.0840454102e-001
  2.4743875000e+009   4.5089721680e-001   5.6246948242e-001
  2.4829750000e+009   6.5328979492e-001   2.8781127930e-001
  2.4915625000e+009   7.0758056641e-001  -3.7200927734e-002
  2.5001500000e+009   6.1300659180e-001  -3.4912109375e-001
  2.5087375000e+009   3.8650512695e-001  -5.8883666992e-001
  2.5173250000e+009   7.0648193359e-002  -6.9888305664e-001
  2.5259125000e+009  -2.6153564453e-001  -6.4682006836e-001
  2.5345000000e+009  -5.3042602539e-001  -4.4876098633e-001
  2.5430875000e+009  -6.7822265625e-001  -1.4962768555e-001
  2.5516750000e+009  -6.7562866211e-001   1.8759155273e-001
  2.5602625000e+009  -5.1168823242e-001   4.9096679688e-001
  2.5688500000e+009  -2.1731567383e-001   6.7956542969e-001
  2.5774375000e+009   1.2823486328e-001   6.9891357422e-001
  2.5860250000e+009   4.3017578125e-001   5.5819702148e-001
  2.5946125000e+009   6.2710571289e-001   3.0636596680e-001
  2.6032000000e+009   7.0007324219e-001   4.2724609375e-004
  2.6117875000e+009   6.3696289063e-001  -3.1378173828e-001
  2.6203750000e+009   4.2810058594e-001  -5.8114624023e-001
  2.6289625000e+009   1.0052490234e-001  -7.1923828125e-001
  2.6375500000e+009  -2.5561523438e-001  -6.7102050781e-001
  2.6461375000e+009  -5.3100585938e-001  -4.5562744141e-001
  2.6547250000e+009  -6.6442871094e-001  -1.5426635742e-001
  2.6633125000e+009  -6.5490722656e-001   1.6033935547e-001
  2.6719000000e+009  -5.1727294922e-001   4.3936157227e-001
  2.6804875000e+009  -2.6907348633e-001   6.3983154297e-001
  2.6890750000e+009   5.8532714844e-002   7.1151733398e-001
  2.6976625000e+009   3.9822387695e-001   6.1251831055e-001
  2.7062500000e+009   6.4373779297e-001   3.5205078125e-001
  2.7148375000e+009   7.2650146484e-001   8.9111328125e-003
  2.7234250000e+009   6.3540649414e-001  -3.1631469727e-001
  2.7320125000e+009   4.1928100586e-001  -5.5172729492e-001
  2.7406000000e+009   1.3293457031e-001  -6.7199707031e-001
  2.7491875000e+009  -1.7773437500e-001  -6.6021728516e-001
  2.7577750000e+009  -4.6597290039e-001  -5.1437377930e-001
  2.7663625000e+009  -6.6317749023e-001  -2.3654174805e-001
  2.7749500000e+009  -7.0202636719e-001   1.1557006836e-001
  2.7835375000e+009  -5.5593872070e-001   4.4134521484e-001
  2.7921250000e+009  -2.7532958984e-001   6.4837646484e-001
  2.8007125000e+009   5.5145263672e-002   6.9662475586e-001
  2.8093000000e+009   3.6416625977e-001   5.9970092773e-001
  2.8178875000e+009   6.0549926758e-001   3.7802124023e-001
  2.8264750000e+009   7.2531127930e-001   6.0516357422e-002
  2.8350625000e+009   6.7532348633e-001  -2.8854370117e-001
  2.8436500000e+009   4.5608520508e-001  -5.6668090820e-001
  2.8522375000e+009   1.3928222656e-001  -6.9741821289e-001
  2.8608250000e+009  -1.8365478516e-001  -6.6839599609e-001
  2.8694125000e+009  -4.5489501953e-001  -5.1208496094e-001
  2.8780000000e+009  -6.4083862305e-001  -2.5619506836e-001
  2.8865875000e+009  -7.0013427734e-001   7.0037841797e-002
  2.8951750000e+009  -5.9426879883e-001   4.0295410156e-001
  2.9037625000e+009  -3.2836914063e-001   6.4630126953e-001
  2.9123500000e+009   1.8249511719e-002   7.2470092773e-001
  2.9209375000e+009   3.4976196289e-001   6.3238525391e-001
  2.9295250000e+009   6.0107421875e-001   4.0692138672e-001
  2.9381125000e+009   7.2573852539e-001   8.9599609375e-002
  2.9467000000e+009   6.8719482422e-001  -2.5308227539e-001
  2.9552875000e+009   4.8468017578e-001  -5.3543090820e-001
