# Hz S RI R 50.000000
! Metas.Vna.Tools, 2.8.8664.20301
! Metas.Vna.Data, 2.8.8664.20285
! Created: UTC 2024.02.09 20:23:25
! FREQ                re:S2,2             im:S2,2          
  1.3000000000e+008   1.7791986465e-004   4.7367811203e-004
  1.3858750000e+008   5.2094459534e-004   3.3766031265e-005
  1.4717500000e+008   6.6930055618e-004  -5.5545568466e-004
  1.5576250000e+008   4.7445297241e-004  -1.2660026550e-003
  1.6435000000e+008  -5.1140785217e-005  -1.8582344055e-003
  1.7293750000e+008  -7.9858303070e-004  -2.1051168442e-003
  1.8152500000e+008  -1.6207695007e-003  -2.0532608032e-003
  1.9011250000e+008  -2.4160146713e-003  -1.5722513199e-003
  1.9870000000e+008  -2.8197765350e-003  -7.8594684601e-004
  2.0728750000e+008  -2.9692649841e-003   1.2540817261e-004
  2.1587500000e+008  -2.5677680969e-003   9.9587440491e-004
  2.2446250000e+008  -1.8255710602e-003   1.5386343002e-003
  2.3305000000e+008  -7.9977512360e-004   1.7426013947e-003
  2.4163750000e+008   9.4771385193e-005   1.4025568962e-003
  2.5022500000e+008   8.0472230911e-004   4.5061111450e-004
  2.5881250000e+008   1.0446906090e-003  -6.7454576492e-004
  2.6740000000e+008   7.4613094330e-004  -1.8606185913e-003
  2.7598750000e+008  -1.7011165619e-004  -2.8377771378e-003
  2.8457500000e+008  -1.4457702637e-003  -3.3638477325e-003
  2.9316250000e+008  -2.8579235077e-003  -3.2663345337e-003
  3.0175000000e+008  -4.1723251343e-003  -2.4805068970e-003
  3.1033750000e+008  -4.9543380737e-003  -1.2433528900e-003
  3.1892500000e+008  -5.1360130310e-003   2.1743774414e-004
  3.2751250000e+008  -4.6839714050e-003   1.6992092133e-003
  3.3610000000e+008  -3.5438537598e-003   2.7296543121e-003
  3.4468750000e+008  -1.9774436951e-003   3.1270980835e-003
  3.5327500000e+008  -4.1902065277e-004   2.6826858521e-003
  3.6186250000e+008   7.7736377716e-004   1.6027688980e-003
  3.7045000000e+008   1.3555884361e-003   1.0854005814e-004
  3.7903750000e+008   1.2669563293e-003  -1.6565322876e-003
  3.8762500000e+008   3.0875205994e-004  -3.1833648682e-003
  3.9621250000e+008  -1.3341903687e-003  -4.1060447693e-003
  4.0480000000e+008  -3.1893253326e-003  -4.2941570282e-003
  4.1338750000e+008  -4.9524307251e-003  -3.6032199860e-003
  4.2197500000e+008  -6.1788558960e-003  -2.2459030151e-003
  4.3056250000e+008  -6.6514015198e-003  -4.5776367188e-004
  4.3915000000e+008  -6.2847137451e-003   1.2941360474e-003
  4.4773750000e+008  -5.1815509796e-003   2.7108192444e-003
  4.5632500000e+008  -3.4725666046e-003   3.4084320068e-003
  4.6491250000e+008  -1.7020702362e-003   3.1495094299e-003
  4.7350000000e+008  -2.2602081299e-004   2.1408796310e-003
  4.8208750000e+008   5.6275725365e-004   5.3650140762e-004
  4.9067500000e+008   4.1764974594e-004  -1.3486146927e-003
  4.9926250000e+008  -4.8589706421e-004  -3.0384063721e-003
  5.0785000000e+008  -2.1486282349e-003  -3.9758682251e-003
  5.1643750000e+008  -4.0259361267e-003  -4.2066574097e-003
  5.2502500000e+008  -5.8755874634e-003  -3.4422874451e-003
  5.3361250000e+008  -7.2216987610e-003  -1.9745826721e-003
  5.4220000000e+008  -7.7242851257e-003   5.8650970459e-005
  5.5078750000e+008  -7.2493553162e-003   2.0523071289e-003
  5.5937500000e+008  -5.8674812317e-003   3.6015510559e-003
  5.6796250000e+008  -3.8602352142e-003   4.4202804565e-003
  5.7655000000e+008  -1.7530918121e-003   4.1320323944e-003
  5.8513750000e+008   2.8252601624e-005   2.7750730515e-003
  5.9372500000e+008   1.0498166084e-003   7.4017047882e-004
  6.0231250000e+008   8.6987018585e-004  -1.5748739243e-003
  6.1090000000e+008  -2.9230117798e-004  -3.5724639893e-003
  6.1948750000e+008  -2.3169517517e-003  -4.7967433929e-003
  6.2807500000e+008  -4.8213005066e-003  -5.0430297852e-003
  6.3666250000e+008  -7.1349143982e-003  -4.0359497070e-003
  6.4525000000e+008  -8.7842941284e-003  -2.1057128906e-003
  6.5383750000e+008  -9.3908309937e-003   4.1580200195e-004
  6.6242500000e+008  -8.7943077087e-003   3.0384063721e-003
  6.7101250000e+008  -6.9923400879e-003   5.0983428955e-003
  6.7960000000e+008  -4.4393539429e-003   6.2065124512e-003
  6.8818750000e+008  -1.6188621521e-003   5.9757232666e-003
  6.9677500000e+008   8.1944465637e-004   4.4264793396e-003
  7.0536250000e+008   2.3192167282e-003   2.0322799683e-003
  7.1395000000e+008   2.5366544724e-003  -9.6035003662e-004
  7.2253750000e+008   1.4300346375e-003  -3.7550926208e-003
  7.3112500000e+008  -9.1409683228e-004  -5.7988166809e-003
  7.3971250000e+008  -3.9310455322e-003  -6.5431594849e-003
  7.4830000000e+008  -6.9842338562e-003  -5.7606697083e-003
  7.5688750000e+008  -9.5582008362e-003  -3.8151741028e-003
  7.6547500000e+008  -1.0797500610e-002  -9.1505050659e-004
  7.7406250000e+008  -1.0770320892e-002   2.3593902588e-003
  7.8265000000e+008  -9.3150138855e-003   5.1980018616e-003
  7.9123750000e+008  -6.8607330322e-003   7.1620941162e-003
  7.9982500000e+008  -3.7441253662e-003   7.8215599060e-003
  8.0841250000e+008  -6.8998336792e-004   7.0853233337e-003
  8.1700000000e+008   1.5749931335e-003   5.1281452179e-003
  8.2558750000e+008   2.8009414673e-003   2.3595094681e-003
  8.3417500000e+008   2.6079416275e-003  -5.6290626526e-004
  8.4276250000e+008   1.1429786682e-003  -2.9952526093e-003
  8.5135000000e+008  -1.3720989227e-003  -4.5311450958e-003
  8.5993750000e+008  -4.1630268097e-003  -4.7268867493e-003
  8.6852500000e+008  -6.6671371460e-003  -3.4842491150e-003
  8.7711250000e+008  -8.4481239319e-003  -1.1863708496e-003
  8.8570000000e+008  -8.8863372803e-003   1.6851425171e-003
  8.9428750000e+008  -7.9755783081e-003   4.3878555298e-003
  9.0287500000e+008  -5.8803558350e-003   6.4382553101e-003
  9.1146250000e+008  -3.0903816223e-003   7.2851181030e-003
  9.2005000000e+008  -2.5987625122e-004   6.7443847656e-003
  9.2863750000e+008   2.0577907562e-003   5.0098896027e-003
  9.3722500000e+008   3.2637119293e-003   2.4700164795e-003
  9.4581250000e+008   3.0474662781e-003  -3.5333633423e-004
  9.5440000000e+008   1.5959739685e-003  -2.7325153351e-003
  9.6298750000e+008  -8.2683563232e-004  -4.1964054108e-003
  9.7157500000e+008  -3.5843849182e-003  -4.2049884796e-003
  9.8016250000e+008  -6.0820579529e-003  -2.9230117798e-003
  9.8875000000e+008  -7.7519416809e-003  -4.8875808716e-004
  9.9733750000e+008  -8.1119537354e-003   2.3474693298e-003
  1.0059250000e+009  -7.0943832397e-003   5.2070617676e-003
  1.0145125000e+009  -4.7392845154e-003   7.3103904724e-003
  1.0231000000e+009  -1.7013549805e-003   8.1529617310e-003
  1.0316875000e+009   1.4772415161e-003   7.4930191040e-003
  1.0402750000e+009   3.9196014404e-003   5.5022239685e-003
  1.0488625000e+009   5.3093433380e-003   2.5603771210e-003
  1.0574500000e+009   5.1760673523e-003  -7.7056884766e-004
  1.0660375000e+009   3.5746097565e-003  -3.5800933838e-003
  1.0746250000e+009   8.7141990662e-004  -5.3033828735e-003
  1.0832125000e+009  -2.4330615997e-003  -5.6962966919e-003
  1.0918000000e+009  -5.5274963379e-003  -4.4977664948e-003
  1.1003875000e+009  -7.7533721924e-003  -2.0508766174e-003
  1.1089750000e+009  -8.7137222290e-003   1.1954307556e-003
  1.1175625000e+009  -8.0027580261e-003   4.5108795166e-003
  1.1261500000e+009  -5.9084892273e-003   7.1358680725e-003
  1.1347375000e+009  -2.8305053711e-003   8.5883140564e-003
  1.1433250000e+009   4.4155120850e-004   8.5792541504e-003
  1.1519125000e+009   3.3636093140e-003   6.9417953491e-003
  1.1605000000e+009   5.2523612976e-003   4.2450428009e-003
  1.1690875000e+009   5.6753158569e-003   9.5582008362e-004
  1.1776750000e+009   4.6226978302e-003  -2.1150112152e-003
  1.1862625000e+009   2.1238327026e-003  -4.3904781342e-003
  1.1948500000e+009  -1.1613368988e-003  -5.3012371063e-003
  1.2034375000e+009  -4.4720172882e-003  -4.6267509460e-003
  1.2120250000e+009  -7.1640014648e-003  -2.5134086609e-003
  1.2206125000e+009  -8.7957382202e-003   6.8283081055e-004
  1.2292000000e+009  -8.7122917175e-003   4.1871070862e-003
  1.2377875000e+009  -7.2278976440e-003   7.4276924133e-003
  1.2463750000e+009  -4.4426918030e-003   9.4957351685e-003
  1.2549625000e+009  -9.5224380493e-004   1.0156631470e-002
  1.2635500000e+009   2.2044181824e-003   9.2535018921e-003
  1.2721375000e+009   4.6753883362e-003   7.0619583130e-003
  1.2807250000e+009   5.6872367859e-003   4.0864944458e-003
  1.2893125000e+009   5.2182674408e-003   1.0178089142e-003
  1.2979000000e+009   3.3185482025e-003  -1.4519691467e-003
  1.3064875000e+009   5.0389766693e-004  -2.5627613068e-003
  1.3150750000e+009  -2.6252269745e-003  -2.2630691528e-003
  1.3236625000e+009  -5.1913261414e-003  -4.5776367188e-004
  1.3322500000e+009  -6.7467689514e-003   2.3698806763e-003
  1.3408375000e+009  -6.6494941711e-003   5.7110786438e-003
  1.3494250000e+009  -5.1040649414e-003   8.7456703186e-003
  1.3580125000e+009  -2.2006034851e-003   1.0818481445e-002
  1.3666000000e+009   1.3484954834e-003   1.1399745941e-002
  1.3751875000e+009   4.7760009766e-003   1.0272502899e-002
  1.3837750000e+009   7.4138641357e-003   7.7023506165e-003
  1.3923625000e+009   8.5544586182e-003   4.2695999146e-003
  1.4009500000e+009   8.1553459167e-003   5.2452087402e-004
  1.4095375000e+009   6.0429573059e-003  -2.5506019592e-003
  1.4181250000e+009   2.7382373810e-003  -4.3342113495e-003
  1.4267125000e+009  -1.0905265808e-003  -4.5092105865e-003
  1.4353000000e+009  -4.5111179352e-003  -2.9253959656e-003
  1.4438875000e+009  -6.9203376770e-003   1.0108947754e-004
  1.4524750000e+009  -7.8148841858e-003   3.8328170776e-003
  1.4610625000e+009  -6.8821907043e-003   7.6494216919e-003
  1.4696500000e+009  -4.4379234314e-003   1.0649681091e-002
  1.4782375000e+009  -9.3746185303e-004   1.2286186218e-002
  1.4868250000e+009   2.9401779175e-003   1.2120246887e-002
  1.4954125000e+009   6.2303543091e-003   1.0407447815e-002
  1.5040000000e+009   8.4652900696e-003   7.3499679565e-003
  1.5125875000e+009   9.0308189392e-003   3.6706924438e-003
  1.5211750000e+009   7.9112052917e-003   8.6307525635e-005
  1.5297625000e+009   5.2711963654e-003  -2.5858879089e-003
  1.5383500000e+009   1.7023086548e-003  -3.7162303925e-003
  1.5469375000e+009  -2.0596981049e-003  -3.0930042267e-003
  1.5555250000e+009  -5.1617622375e-003  -9.0575218201e-004
  1.5641125000e+009  -6.9117546082e-003   2.5758743286e-003
  1.5727000000e+009  -6.9932937622e-003   6.4587593079e-003
  1.5812875000e+009  -5.3339004517e-003   1.0108470917e-002
  1.5898750000e+009  -2.3221969604e-003   1.2612342834e-002
  1.5984625000e+009   1.5678405762e-003   1.3545036316e-002
  1.6070500000e+009   5.4121017456e-003   1.2619018555e-002
  1.6156375000e+009   8.4705352783e-003   1.0245800018e-002
  1.6242250000e+009   1.0079860687e-002   6.7834854126e-003
  1.6328125000e+009   1.0021686554e-002   3.0794143677e-003
  1.6414000000e+009   8.3665847778e-003  -2.3841857910e-004
  1.6499875000e+009   5.3746700287e-003  -2.2890567780e-003
  1.6585750000e+009   1.9270181656e-003  -2.7277469635e-003
  1.6671625000e+009  -1.3318061829e-003  -1.5372037888e-003
  1.6757500000e+009  -3.6275386810e-003   1.0273456573e-003
  1.6843375000e+009  -4.4758319855e-003   4.3432712555e-003
  1.6929250000e+009  -3.6683082581e-003   7.7676773071e-003
  1.7015125000e+009  -1.3232231140e-003   1.0277748108e-002
  1.7101000000e+009   1.9187927246e-003   1.1590957642e-002
  1.7186875000e+009   5.4230690002e-003   1.1273860931e-002
  1.7272750000e+009   8.3823204041e-003   9.3855857849e-003
  1.7358625000e+009   1.0262012482e-002   6.3853263855e-003
  1.7444500000e+009   1.0686397552e-002   2.8839111328e-003
  1.7530375000e+009   9.4118118286e-003  -3.9672851563e-004
  1.7616250000e+009   6.9341659546e-003  -2.8076171875e-003
  1.7702125000e+009   3.6761760712e-003  -3.8015842438e-003
  1.7788000000e+009   4.3821334839e-004  -3.2863616943e-003
  1.7873875000e+009  -2.1640062332e-003  -1.3374090195e-003
  1.7959750000e+009  -3.5710334778e-003   1.4653205872e-003
  1.8045625000e+009  -3.4680366516e-003   4.4596195221e-003
  1.8131500000e+009  -2.1376609802e-003   6.9861412048e-003
  1.8217375000e+009   2.6226043701e-004   8.5134506226e-003
  1.8303250000e+009   3.0136108398e-003   8.6717605591e-003
  1.8389125000e+009   5.4793357849e-003   7.5097084045e-003
  1.8475000000e+009   6.9503784180e-003   5.3334236145e-003
  1.8560875000e+009   7.1945190430e-003   2.6392936707e-003
  1.8646750000e+009   6.0515403748e-003   2.1982192993e-004
  1.8732625000e+009   3.8511753082e-003  -1.4181137085e-003
  1.8818500000e+009   1.0865926743e-003  -1.7983913422e-003
  1.8904375000e+009  -1.7248392105e-003  -7.5662136078e-004
  1.8990250000e+009  -3.8383007050e-003   1.4855861664e-003
  1.9076125000e+009  -4.7485828400e-003   4.5750141144e-003
  1.9162000000e+009  -4.2023658752e-003   7.8382492065e-003
  1.9247875000e+009  -2.1510124207e-003   1.0626316071e-002
  1.9333750000e+009   9.9468231201e-004   1.2305259705e-002
  1.9419625000e+009   4.5042037964e-003   1.2427330017e-002
  1.9505500000e+009   7.8148841858e-003   1.1003017426e-002
  1.9591375000e+009   1.0233879089e-002   8.3789825439e-003
  1.9677250000e+009   1.1097908020e-002   4.9667358398e-003
  1.9763125000e+009   1.0430812836e-002   1.5244483948e-003
  1.9849000000e+009   8.2812309265e-003  -1.2731552124e-003
  1.9934875000e+009   5.1250457764e-003  -2.6130676270e-003
  2.0020750000e+009   1.5990734100e-003  -2.4760961533e-003
  2.0106625000e+009  -1.2879371643e-003  -6.7853927612e-004
  2.0192500000e+009  -3.2386779785e-003   2.3548603058e-003
  2.0278375000e+009  -3.4661293030e-003   5.9051513672e-003
  2.0364250000e+009  -2.0952224731e-003   9.2816352844e-003
  2.0450125000e+009   6.9332122803e-004   1.1743545532e-002
  2.0536000000e+009   4.3134689331e-003   1.2672424316e-002
  2.0621875000e+009   8.0432891846e-003   1.2094497681e-002
  2.0707750000e+009   1.1076927185e-002   9.8452568054e-003
  2.0793625000e+009   1.2886047363e-002   6.4802169800e-003
  2.0879500000e+009   1.3035774231e-002   2.7904510498e-003
  2.0965375000e+009   1.1538982391e-002  -4.8494338989e-004
  2.1051250000e+009   8.8334083557e-003  -2.7847290039e-003
  2.1137125000e+009   5.4526329041e-003  -3.5874843597e-003
  2.1223000000e+009   2.1251440048e-003  -2.7319192886e-003
  2.1308875000e+009  -3.6588311195e-004  -4.7740340233e-004
  2.1394750000e+009  -1.4915466309e-003   2.5539398193e-003
  2.1480625000e+009  -1.0643005371e-003   5.7830810547e-003
  2.1566500000e+009   7.7867507935e-004   8.3503723145e-003
  2.1652375000e+009   3.6263465881e-003   9.8333358765e-003
  2.1738250000e+009   6.6394805908e-003   9.7608566284e-003
  2.1824125000e+009   9.2568397522e-003   8.2268714905e-003
  2.1910000000e+009   1.0915756226e-002   5.6700706482e-003
  2.1995875000e+009   1.1109352112e-002   2.6836395264e-003
  2.2081750000e+009   9.8304748535e-003  -7.7724456787e-005
  2.2167625000e+009   7.1926116943e-003  -1.8515586853e-003
  2.2253500000e+009   4.0516853333e-003  -2.1386146545e-003
  2.2339375000e+009   9.7161531448e-004  -9.3615055084e-004
  2.2425250000e+009  -1.2915134430e-003   1.8543004990e-003
  2.2511125000e+009  -2.0744800568e-003   5.4669380188e-003
  2.2597000000e+009  -1.1725425720e-003   9.2668533325e-003
  2.2682875000e+009   1.4476776123e-003   1.2463569641e-002
  2.2768750000e+009   5.3367614746e-003   1.4249801636e-002
  2.2854625000e+009   9.7007751465e-003   1.4341354370e-002
  2.2940500000e+009   1.3809204102e-002   1.2374877930e-002
  2.3026375000e+009   1.6772270203e-002   9.0274810791e-003
  2.3112250000e+009   1.8020629883e-002   4.7597885132e-003
  2.3198125000e+009   1.7299652100e-002   2.4509429932e-004
  2.3284000000e+009   1.4783859253e-002  -3.3235549927e-003
  2.3369875000e+009   1.0970115662e-002  -5.5794715881e-003
  2.3455750000e+009   6.6690444946e-003  -5.8193206787e-003
  2.3541625000e+009   2.7575492859e-003  -4.1723251343e-003
  2.3627500000e+009  -3.9041042328e-005  -9.8979473114e-004
  2.3713375000e+009  -1.0645389557e-003   3.1194686890e-003
  2.3799250000e+009  -1.2302398682e-004   7.2474479675e-003
  2.3885125000e+009   2.5434494019e-003   1.0501384735e-002
  2.3971000000e+009   6.3505172729e-003   1.2347221375e-002
  2.4056875000e+009   1.0525703430e-002   1.2218475342e-002
  2.4142750000e+009   1.4202117920e-002   1.0340690613e-002
  2.4228625000e+009   1.6598701477e-002   7.0304870605e-003
  2.4314500000e+009   1.7269134521e-002   3.1242370605e-003
  2.4400375000e+009   1.6142845154e-002  -5.9604644775e-004
  2.4486250000e+009   1.3424873352e-002  -3.3769607544e-003
  2.4572125000e+009   9.8176002502e-003  -4.4050216675e-003
  2.4658000000e+009   6.2513351440e-003  -3.6582946777e-003
  2.4743875000e+009   3.2906532288e-003  -1.2419223785e-003
  2.4829750000e+009   1.9177198410e-003   2.2617578506e-003
  2.4915625000e+009   2.3508071899e-003   6.1087608337e-003
  2.5001500000e+009   4.5995712280e-003   9.3998908997e-003
  2.5087375000e+009   8.1548690796e-003   1.1500835419e-002
  2.5173250000e+009   1.2404441833e-002   1.1749267578e-002
  2.5259125000e+009   1.6415596008e-002   1.0039329529e-002
  2.5345000000e+009   1.9344329834e-002   6.8340301514e-003
  2.5430875000e+009   2.0642280579e-002   2.5625228882e-003
  2.5516750000e+009   2.0031929016e-002  -1.7375946045e-003
  2.5602625000e+009   1.7569541931e-002  -5.3358078003e-003
  2.5688500000e+009   1.3935089111e-002  -7.5244903564e-003
  2.5774375000e+009   9.7208023071e-003  -7.8563690186e-003
  2.5860250000e+009   5.9757232666e-003  -6.2284469604e-003
  2.5946125000e+009   3.4456253052e-003  -3.2186508179e-003
  2.6032000000e+009   2.5922060013e-003   5.9342384338e-004
  2.6117875000e+009   3.6017894745e-003   4.3358802795e-003
  2.6203750000e+009   6.1941146851e-003   7.1349143982e-003
  2.6289625000e+009   9.6945762634e-003   8.4910392761e-003
  2.6375500000e+009   1.3484001160e-002   8.0232620239e-003
  2.6461375000e+009   1.6615867615e-002   5.9537887573e-003
  2.6547250000e+009   1.8465995789e-002   2.6283264160e-003
  2.6633125000e+009   1.8544197083e-002  -1.1167526245e-003
  2.6719000000e+009   1.6881942749e-002  -4.3201446533e-003
  2.6804875000e+009   1.3895988464e-002  -6.4544677734e-003
  2.6890750000e+009   1.0419368744e-002  -6.8101882935e-003
  2.6976625000e+009   7.1496963501e-003  -5.3882598877e-003
  2.7062500000e+009   5.0017833710e-003  -2.4828910828e-003
  2.7148375000e+009   4.3928623199e-003   1.1923313141e-003
  2.7234250000e+009   5.8107376099e-003   4.8990249634e-003
  2.7320125000e+009   8.9330673218e-003   7.7328681946e-003
  2.7406000000e+009   1.3315200806e-002   8.8949203491e-003
  2.7491875000e+009   1.7936706543e-002   7.9793930054e-003
  2.7577750000e+009   2.2035598755e-002   5.1021575928e-003
  2.7663625000e+009   2.4660110474e-002   5.4168701172e-004
  2.7749500000e+009   2.5144577026e-002  -4.8065185547e-003
  2.7835375000e+009   2.3359298706e-002  -9.9811553955e-003
  2.7921250000e+009   1.9598007202e-002  -1.4123916626e-002
  2.8007125000e+009   1.4557838440e-002  -1.6262054443e-002
  2.8093000000e+009   9.1133117676e-003  -1.6180992126e-002
  2.8178875000e+009   4.1694641113e-003  -1.3935089111e-002
  2.8264750000e+009   8.3065032959e-004  -9.8915100098e-003
  2.8350625000e+009  -4.7612190247e-004  -4.8599243164e-003
  2.8436500000e+009   4.3085217476e-004   3.0934810638e-005
  2.8522375000e+009   3.3335685730e-003   3.9424896240e-003
  2.8608250000e+009   7.5039863586e-003   6.1273574829e-003
  2.8694125000e+009   1.1997222900e-002   6.2332153320e-003
  2.8780000000e+009   1.5899658203e-002   4.3849945068e-003
  2.8865875000e+009   1.8390655518e-002   1.1272430420e-003
  2.8951750000e+009   1.9048690796e-002  -2.7103424072e-003
  2.9037625000e+009   1.7882347107e-002  -6.2255859375e-003
  2.9123500000e+009   1.5170097351e-002  -8.5401535034e-003
  2.9209375000e+009   1.1759757996e-002  -9.0847015381e-003
  2.9295250000e+009   8.5668563843e-003  -7.8582763672e-003
  2.9381125000e+009   6.4010620117e-003  -4.9638748169e-003
  2.9467000000e+009   5.9852600098e-003  -1.2526512146e-003
  2.9552875000e+009   7.5736045837e-003   2.5167465210e-003
