# Hz S RI R 50.000000
! Metas.Vna.Tools, 2.8.8664.20301
! Metas.Vna.Data, 2.8.8664.20285
! Created: UTC 2024.02.13 19:51:34
! FREQ                re:S1,1             im:S1,1             re:S2,1             im:S2,1             re:S1,2             im:S1,2             re:S2,2             im:S2,2          
  1.3000000000e+008   2.7042376887e-003   1.9822345336e-003   9.9720200719e-001  -6.5117436930e-002   9.9720200719e-001  -6.5117436930e-002  -6.6219712017e-004   4.8725431040e-004
  1.3858750000e+008   3.1539217566e-003   1.9118635592e-003   9.9683539212e-001  -6.9405218815e-002   9.9683539212e-001  -6.9405218815e-002  -1.2568188432e-003   1.9478443610e-004
  1.4717500000e+008   3.6689188372e-003   1.5945526193e-003   9.9613417794e-001  -7.3504208905e-002   9.9613417794e-001  -7.3504208905e-002  -7.9388857406e-004   2.9142955439e-004
  1.5576250000e+008   3.6859762893e-003   2.4194580980e-003   9.9608827994e-001  -7.7396595909e-002   9.9608827994e-001  -7.7396595909e-002  -6.3656073801e-004  -8.4971047314e-004
  1.6435000000e+008   3.8777607238e-003   2.2768402319e-003   9.9525032910e-001  -8.1924593053e-002   9.9525032910e-001  -8.1924593053e-002  -1.3056129374e-003   4.5471670367e-004
  1.7293750000e+008   3.9021120633e-003   2.3900178233e-003   9.9461960480e-001  -8.6607923122e-002   9.9461960480e-001  -8.6607923122e-002  -1.7827460473e-003  -2.9523973009e-004
  1.8152500000e+008   3.6812469779e-003   2.1213193210e-003   9.9413554888e-001  -9.0510606463e-002   9.9413554888e-001  -9.0510606463e-002  -8.8238411977e-004  -4.1953202920e-004
  1.9011250000e+008   3.8925605073e-003   1.7563063068e-003   9.9378525474e-001  -9.4082887474e-002   9.9378525474e-001  -9.4082887474e-002  -1.5856983557e-003   3.7142929552e-004
  1.9870000000e+008   3.9241790344e-003   2.1222587550e-003   9.9378418300e-001  -9.8391852410e-002   9.9378418300e-001  -9.8391852410e-002  -1.2131702254e-003   6.2144533743e-004
  2.0728750000e+008   4.2064957673e-003   2.0667679998e-003   9.9321241265e-001  -1.0238837450e-001   9.9321241265e-001  -1.0238837450e-001  -1.0543823451e-003   4.1792092639e-004
  2.1587500000e+008   4.4713006682e-003   2.1857763587e-003   9.9286041146e-001  -1.0667956611e-001   9.9286041146e-001  -1.0667956611e-001  -1.7476976006e-003   8.1432848159e-004
  2.2446250000e+008   4.1485898007e-003   2.1870923820e-003   9.9218436434e-001  -1.1051924410e-001   9.9218436434e-001  -1.1051924410e-001  -1.1621374416e-003   5.4102196425e-004
  2.3305000000e+008   4.0710774690e-003   1.9807113331e-003   9.9157285009e-001  -1.1504579003e-001   9.9157285009e-001  -1.1504579003e-001  -9.4260242625e-004   3.6280209990e-004
  2.4163750000e+008   4.6938712605e-003   2.7327388170e-003   9.9133422177e-001  -1.1900285635e-001   9.9133422177e-001  -1.1900285635e-001   4.0247200564e-005  -1.4134358445e-004
  2.5022500000e+008   4.8047367442e-003   2.1937293904e-003   9.9060913519e-001  -1.2362782735e-001   9.9060913519e-001  -1.2362782735e-001  -8.3759467830e-004   4.6822449357e-004
  2.5881250000e+008   4.6555199408e-003   2.7648835504e-003   9.8988951987e-001  -1.2787432005e-001   9.8988951987e-001  -1.2787432005e-001  -1.9870010218e-004  -1.1445843971e-004
  2.6740000000e+008   4.5691796630e-003   2.4074229726e-003   9.8977940690e-001  -1.3182907727e-001   9.8977940690e-001  -1.3182907727e-001  -1.2465257574e-003   1.1695763950e-004
  2.7598750000e+008   4.9263469484e-003   2.9275087096e-003   9.8944161154e-001  -1.3561602145e-001   9.8944161154e-001  -1.3561602145e-001   5.9082440518e-004  -6.2890736849e-004
  2.8457500000e+008   4.9112347163e-003   2.7742859408e-003   9.8839515779e-001  -1.4008631049e-001   9.8839515779e-001  -1.4008631049e-001  -4.3885483203e-004  -9.2836164119e-004
  2.9316250000e+008   4.7629645569e-003   2.1250079272e-003   9.8780748502e-001  -1.4393970573e-001   9.8780748502e-001  -1.4393970573e-001  -4.5812450502e-004   9.8132472062e-004
  3.0175000000e+008   5.1552318443e-003   2.2653693878e-003   9.8723521334e-001  -1.4828201497e-001   9.8723521334e-001  -1.4828201497e-001  -1.1092587276e-003   9.4845313043e-005
  3.1033750000e+008   5.4292522133e-003   2.2859959796e-003   9.8632667064e-001  -1.5242891606e-001   9.8632667064e-001  -1.5242891606e-001  -1.1991317787e-003  -6.6396114261e-005
  3.1892500000e+008   5.2546785289e-003   2.3681486970e-003   9.8614567600e-001  -1.5640628705e-001   9.8614567600e-001  -1.5640628705e-001  -4.7776790857e-004  -7.2952318331e-005
  3.2751250000e+008   5.3804292082e-003   1.9040263754e-003   9.8530010721e-001  -1.6059497893e-001   9.8530010721e-001  -1.6059497893e-001  -8.2897891543e-004   5.6446264947e-005
  3.3610000000e+008   5.5915526565e-003   1.7668911634e-003   9.8457340489e-001  -1.6458967684e-001   9.8457340489e-001  -1.6458967684e-001  -7.4840051279e-004   7.0551707618e-004
  3.4468750000e+008   5.0636066311e-003   2.1949264273e-003   9.8382404817e-001  -1.6868042567e-001   9.8382404817e-001  -1.6868042567e-001  -4.7717078788e-004   5.0338749819e-004
  3.5327500000e+008   5.2998390049e-003   2.1554836940e-003   9.8307487294e-001  -1.7303451711e-001   9.8307487294e-001  -1.7303451711e-001   9.5791948341e-005  -3.1179266407e-004
  3.6186250000e+008   5.4446513575e-003   1.8243507884e-003   9.8240899146e-001  -1.7727713208e-001   9.8240899146e-001  -1.7727713208e-001  -9.7065905755e-004   4.2603863608e-004
  3.7045000000e+008   5.3700181808e-003   1.9774299750e-003   9.8151458435e-001  -1.8137006879e-001   9.8151458435e-001  -1.8137006879e-001  -5.3105883531e-004   6.6861535507e-005
  3.7903750000e+008   5.2247113912e-003   2.2353845664e-003   9.8084969327e-001  -1.8523506792e-001   9.8084969327e-001  -1.8523506792e-001   1.6052069208e-004  -4.6414762327e-004
  3.8762500000e+008   5.6141885866e-003   2.0528273051e-003   9.7991628020e-001  -1.8940114335e-001   9.7991628020e-001  -1.8940114335e-001  -4.5624565518e-004  -3.6188548668e-005
  3.9621250000e+008   5.6506537265e-003   1.8161050821e-003   9.7930803760e-001  -1.9345111452e-001   9.7930803760e-001  -1.9345111452e-001  -8.9010603198e-004   1.6084007790e-004
  4.0480000000e+008   5.6801955841e-003   1.9801140202e-003   9.7848207049e-001  -1.9778066040e-001   9.7848207049e-001  -1.9778066040e-001  -5.6814977324e-004  -5.2423990455e-004
  4.1338750000e+008   6.0546538390e-003   1.8984727870e-003   9.7743341603e-001  -2.0157880299e-001   9.7743341603e-001  -2.0157880299e-001  -1.5216756147e-003   2.2686922071e-004
  4.2197500000e+008   5.8298850522e-003   1.7448918750e-003   9.7657856166e-001  -2.0569107550e-001   9.7657856166e-001  -2.0569107550e-001  -9.5367765778e-004  -9.1606192097e-005
  4.3056250000e+008   5.4488322301e-003   1.8357333861e-003   9.7568271524e-001  -2.0990426187e-001   9.7568271524e-001  -2.0990426187e-001  -9.3420079046e-004   3.2441086976e-004
  4.3915000000e+008   5.8280778298e-003   1.9279507818e-003   9.7480409467e-001  -2.1395413581e-001   9.7480409467e-001  -2.1395413581e-001  -1.2166707957e-003   7.7506306695e-004
  4.4773750000e+008   5.8308651940e-003   1.9272584719e-003   9.7396835060e-001  -2.1815716952e-001   9.7396835060e-001  -2.1815716952e-001  -6.3777548926e-004   4.4520997978e-004
  4.5632500000e+008   6.0704242400e-003   1.9357084785e-003   9.7317137495e-001  -2.2221179208e-001   9.7317137495e-001  -2.2221179208e-001  -8.5743972472e-004   6.0357325946e-005
  4.6491250000e+008   5.8706672479e-003   1.7422722130e-003   9.7196162531e-001  -2.2624730805e-001   9.7196162531e-001  -2.2624730805e-001  -6.0827359200e-004  -2.9252062401e-004
  4.7350000000e+008   6.3454574437e-003   1.5720808906e-003   9.7124381812e-001  -2.3036858199e-001   9.7124381812e-001  -2.3036858199e-001  -8.3745285034e-004   8.1601591426e-004
  4.8208750000e+008   6.1446653593e-003   1.7872542279e-003   9.7006357725e-001  -2.3444051240e-001   9.7006357725e-001  -2.3444051240e-001  -1.4021033996e-004   2.1650814019e-004
  4.9067500000e+008   6.0157501949e-003   1.8879022760e-003   9.6906693654e-001  -2.3849785147e-001   9.6906693654e-001  -2.3849785147e-001  -1.3112814644e-004   3.3341433348e-004
  4.9926250000e+008   6.1461264580e-003   1.3358769924e-003   9.6787642863e-001  -2.4193653275e-001   9.6787642863e-001  -2.4193653275e-001  -1.0002411565e-003   9.0724303364e-004
  5.0785000000e+008   6.1802213778e-003   1.6615068958e-003   9.6707107381e-001  -2.4647944535e-001   9.6707107381e-001  -2.4647944535e-001  -5.2062444698e-004   2.4689053933e-004
  5.1643750000e+008   6.1090424509e-003   1.6475120253e-003   9.6600469406e-001  -2.5039465867e-001   9.6600469406e-001  -2.5039465867e-001  -5.8079925762e-004   2.3624199672e-004
  5.2502500000e+008   6.0364705959e-003   1.7010280991e-003   9.6485673337e-001  -2.5456316797e-001   9.6485673337e-001  -2.5456316797e-001  -7.7395602047e-006   1.6916547807e-004
  5.3361250000e+008   6.5508071952e-003   1.4880800364e-003   9.6386999423e-001  -2.5872168258e-001   9.6386999423e-001  -2.5872168258e-001  -6.5368051582e-004  -6.7687190655e-005
  5.4220000000e+008   6.3409425990e-003   1.7188016214e-003   9.6308607801e-001  -2.6259071274e-001   9.6308607801e-001  -2.6259071274e-001  -5.5090803358e-004  -4.3650199373e-004
  5.5078750000e+008   6.3330896498e-003   1.5927310842e-003   9.6162506499e-001  -2.6704682051e-001   9.6162506499e-001  -2.6704682051e-001  -7.2250650683e-004  -7.5869514535e-005
  5.5937500000e+008   6.5632810452e-003   1.3738749728e-003   9.6038414166e-001  -2.7079408317e-001   9.6038414166e-001  -2.7079408317e-001  -6.2405821402e-004   5.4778577778e-004
  5.6796250000e+008   6.4653778726e-003   1.5604107183e-003   9.5924334827e-001  -2.7510463654e-001   9.5924334827e-001  -2.7510463654e-001  -7.6094112759e-004   3.7508222226e-004
  5.7655000000e+008   6.5460899919e-003   1.3470579855e-003   9.5831066670e-001  -2.7906680560e-001   9.5831066670e-001  -2.7906680560e-001  -2.7232000230e-004   7.9628051344e-004
  5.8513750000e+008   6.3937325165e-003   1.4793085878e-003   9.5699275048e-001  -2.8269922447e-001   9.5699275048e-001  -2.8269922447e-001  -3.7494252856e-004   1.1980584981e-004
  5.9372500000e+008   6.4641953381e-003   1.4896851223e-003   9.5586206053e-001  -2.8667189448e-001   9.5586206053e-001  -2.8667189448e-001   8.0142963262e-005   3.6007140355e-004
  6.0231250000e+008   6.3881283924e-003   1.4456679423e-003   9.5454273377e-001  -2.9091869184e-001   9.5454273377e-001  -2.9091869184e-001  -3.7423407228e-004  -8.7799487397e-005
  6.1090000000e+008   6.5551650779e-003   1.2016109971e-003   9.5326599049e-001  -2.9498202095e-001   9.5326599049e-001  -2.9498202095e-001  -4.0288556548e-004   4.4281850072e-004
  6.1948750000e+008   6.6040381630e-003   1.1730223468e-003   9.5214277767e-001  -2.9886161050e-001   9.5214277767e-001  -2.9886161050e-001  -7.8433826474e-004   3.3043847316e-004
  6.2807500000e+008   6.8917936830e-003   1.4462595741e-003   9.5082164625e-001  -3.0291033385e-001   9.5082164625e-001  -3.0291033385e-001  -3.7846597346e-004  -1.3466933237e-004
  6.3666250000e+008   6.5119115547e-003   1.1936802869e-003   9.4933914770e-001  -3.0674740542e-001   9.4933914770e-001  -3.0674740542e-001  -4.6516874903e-004   1.6946322001e-004
  6.4525000000e+008   6.6259218533e-003   1.2459996644e-003   9.4812129163e-001  -3.1076048416e-001   9.4812129163e-001  -3.1076048416e-001  -5.1983734169e-004  -8.8855680860e-005
  6.5383750000e+008   6.6435374970e-003   9.7846743961e-004   9.4712983397e-001  -3.1430442921e-001   9.4712983397e-001  -3.1430442921e-001  -7.4033427110e-004   1.3818460972e-005
  6.6242500000e+008   6.7103199102e-003   1.1292239506e-003   9.4538861757e-001  -3.1858204216e-001   9.4538861757e-001  -3.1858204216e-001  -8.2425959217e-004   3.6531678122e-005
  6.7101250000e+008   6.8517716022e-003   1.1538296284e-003   9.4439346281e-001  -3.2260980081e-001   9.4439346281e-001  -3.2260980081e-001  -2.4825155674e-004   4.2667801937e-004
  6.7960000000e+008   6.7739141338e-003   1.1736275017e-003   9.4289187678e-001  -3.2650766522e-001   9.4289187678e-001  -3.2650766522e-001  -1.4951267173e-004   2.8109613043e-004
  6.8818750000e+008   6.9513748228e-003   1.0720648057e-003   9.4146234359e-001  -3.3066779885e-001   9.4146234359e-001  -3.3066779885e-001   1.6675769592e-004   2.4072510122e-004
  6.9677500000e+008   6.8895477239e-003   1.0917215620e-003   9.4009902903e-001  -3.3433496720e-001   9.4009902903e-001  -3.3433496720e-001  -1.7446941610e-004  -3.5654193836e-004
  7.0536250000e+008   6.5868605494e-003   1.0213746369e-003   9.3871872197e-001  -3.3846463059e-001   9.3871872197e-001  -3.3846463059e-001   1.3237141066e-004   4.1846902347e-004
  7.1395000000e+008   6.8705562507e-003   1.0562808909e-003   9.3722109703e-001  -3.4242728905e-001   9.3722109703e-001  -3.4242728905e-001  -4.9432998546e-005   3.7033340834e-004
  7.2253750000e+008   6.8592251952e-003   8.0240528096e-004   9.3580599499e-001  -3.4628470785e-001   9.3580599499e-001  -3.4628470785e-001  -3.9440604477e-004   7.5709202643e-005
  7.3112500000e+008   6.9883233980e-003   9.8590096356e-004   9.3393224729e-001  -3.5033910056e-001   9.3393224729e-001  -3.5033910056e-001  -7.7828337640e-004  -3.7248151997e-004
  7.3971250000e+008   7.0232990504e-003   8.6947684665e-004   9.3271914723e-001  -3.5413235319e-001   9.3271914723e-001  -3.5413235319e-001   1.2917856471e-003   2.4867168783e-003
  7.4830000000e+008   6.9269481117e-003   8.0820726122e-004   9.3118257469e-001  -3.5804559040e-001   9.3118257469e-001  -3.5804559040e-001  -1.0112250754e-004  -2.4619816616e-004
  7.5688750000e+008   7.0160364107e-003   8.0109407999e-004   9.2964212642e-001  -3.6171744303e-001   9.2964212642e-001  -3.6171744303e-001  -7.0573116525e-004   8.1864264728e-005
  7.6547500000e+008   6.9665229482e-003   8.0669148851e-004   9.2819353962e-001  -3.6574810072e-001   9.2819353962e-001  -3.6574810072e-001   1.6306197592e-003   9.3503495785e-004
  7.7406250000e+008   7.0779300154e-003   7.9607397111e-004   9.2660338575e-001  -3.6967061186e-001   9.2660338575e-001  -3.6967061186e-001   5.7157057375e-004   1.2776879054e-004
  7.8265000000e+008   7.0357624416e-003   8.4155581039e-004   9.2497749406e-001  -3.7342619515e-001   9.2497749406e-001  -3.7342619515e-001   5.8897201364e-004   4.2824468493e-004
  7.9123750000e+008   7.0415404960e-003   6.0698850348e-004   9.2333944970e-001  -3.7723921730e-001   9.2333944970e-001  -3.7723921730e-001   2.2512723922e-004   2.6072754927e-004
  7.9982500000e+008   7.0424115246e-003   8.1950878612e-004   9.2171940851e-001  -3.8152226998e-001   9.2171940851e-001  -3.8152226998e-001  -7.9639202185e-005   3.2948537132e-004
  8.0841250000e+008   7.2488652718e-003   6.7158392131e-004   9.2013854133e-001  -3.8496404612e-001   9.2013854133e-001  -3.8496404612e-001   2.1827175350e-004  -4.4060429357e-004
  8.1700000000e+008   6.9053866161e-003   6.6916962709e-004   9.1853322591e-001  -3.8882960643e-001   9.1853322591e-001  -3.8882960643e-001  -3.2791528724e-006  -1.9361428376e-004
  8.2558750000e+008   7.2207661734e-003   5.2955465214e-004   9.1707404523e-001  -3.9309226812e-001   9.1707404523e-001  -3.9309226812e-001  -3.2488689032e-004   1.7804169743e-004
  8.3417500000e+008   7.1792998321e-003   5.8468644991e-004   9.1545167101e-001  -3.9633121989e-001   9.1545167101e-001  -3.9633121989e-001   1.8513237765e-004  -2.7664651883e-004
  8.4276250000e+008   7.0790503399e-003   4.2597362220e-004   9.1406909746e-001  -4.0012924682e-001   9.1406909746e-001  -4.0012924682e-001   4.4115636007e-004   3.8142000629e-004
  8.5135000000e+008   6.9782258586e-003   3.0406978147e-004   9.1197949545e-001  -4.0398764337e-001   9.1197949545e-001  -4.0398764337e-001  -5.7652877070e-005   1.4691491407e-003
  8.5993750000e+008   7.1437946805e-003   3.7406893526e-004   9.1061733519e-001  -4.0855199256e-001   9.1061733519e-001  -4.0855199256e-001   1.9069396959e-004   3.5611240802e-004
  8.6852500000e+008   7.1064687557e-003   5.3362247198e-004   9.0846334629e-001  -4.1211802026e-001   9.0846334629e-001  -4.1211802026e-001   4.8970687093e-004   1.0081610302e-003
  8.7711250000e+008   7.3308788831e-003   3.0508070645e-004   9.0705922341e-001  -4.1570523083e-001   9.0705922341e-001  -4.1570523083e-001   1.9039875534e-004  -2.7623359733e-005
  8.8570000000e+008   7.2661455843e-003   3.6942838122e-004   9.0535316984e-001  -4.1983149121e-001   9.0535316984e-001  -4.1983149121e-001   7.1722236033e-004   3.6759765116e-004
  8.9428750000e+008   7.2088736402e-003   4.4580564269e-004   9.0332143839e-001  -4.2357619703e-001   9.0332143839e-001  -4.2357619703e-001   5.9407694110e-004  -6.5094891192e-004
  9.0287500000e+008   7.1980878926e-003   3.5841632982e-004   9.0146172261e-001  -4.2753955863e-001   9.0146172261e-001  -4.2753955863e-001   2.4741609943e-004  -7.0626306171e-005
  9.1146250000e+008   7.3407087667e-003   3.1320052313e-004   8.9942589959e-001  -4.3095648568e-001   8.9942589959e-001  -4.3095648568e-001  -4.0333832067e-004   4.6222979664e-005
  9.2005000000e+008   7.2420942836e-003   3.2365114271e-004   8.9776617645e-001  -4.3483596865e-001   8.9776617645e-001  -4.3483596865e-001   5.7628952527e-004  -3.6911717438e-004
  9.2863750000e+008   7.2391165500e-003   1.2724495658e-004   8.9568140263e-001  -4.3868416328e-001   8.9568140263e-001  -4.3868416328e-001   8.9528598279e-005  -7.5029063340e-005
  9.3722500000e+008   7.2285644569e-003   2.6506882612e-004   8.9422864009e-001  -4.4219244319e-001   8.9422864009e-001  -4.4219244319e-001  -3.5084473862e-004   3.7683365972e-004
  9.4581250000e+008   7.2744572688e-003   2.0483549321e-004   8.9239371673e-001  -4.4580549987e-001   8.9239371673e-001  -4.4580549987e-001  -4.5134574481e-004   1.9093497381e-004
  9.5440000000e+008   7.3170792816e-003   9.8011878808e-005   8.9037202663e-001  -4.4955807697e-001   8.9037202663e-001  -4.4955807697e-001   5.6285948963e-005  -1.5168033903e-004
  9.6298750000e+008   7.2532573012e-003   1.7068460941e-004   8.8862832816e-001  -4.5381118571e-001   8.8862832816e-001  -4.5381118571e-001   1.0566693141e-003   7.0171821361e-004
  9.7157500000e+008   7.2489772796e-003   2.7867277665e-005   8.8661115793e-001  -4.5726201797e-001   8.8661115793e-001  -4.5726201797e-001   5.3516678899e-004  -7.1353750979e-005
  9.8016250000e+008   7.2545639322e-003   2.4163107171e-005   8.8444030872e-001  -4.6095488601e-001   8.8444030872e-001  -4.6095488601e-001   3.0199028418e-004  -4.4740770369e-005
  9.8875000000e+008   7.3123107677e-003  -7.7980051165e-005   8.8257505830e-001  -4.6443774208e-001   8.8257505830e-001  -4.6443774208e-001   6.7691520666e-005   4.9137312422e-004
  9.9733750000e+008   7.4506411232e-003  -8.8918325675e-005   8.8079770829e-001  -4.6795364507e-001   8.8079770829e-001  -4.6795364507e-001   6.9565156446e-004   4.8500552522e-004
  1.0059250000e+009   7.2133873519e-003  -2.9442708412e-004   8.7886445140e-001  -4.7206434490e-001   8.7886445140e-001  -4.7206434490e-001  -3.6081989456e-004   9.9302782997e-004
  1.0145125000e+009   7.3417155167e-003  -1.0149799817e-004   8.7700847015e-001  -4.7541872827e-001   8.7700847015e-001  -4.7541872827e-001   5.1133045936e-004   2.4539058816e-004
  1.0231000000e+009   7.3778006767e-003  -1.5627086030e-004   8.7473308093e-001  -4.7928250965e-001   8.7473308093e-001  -4.7928250965e-001   5.4196822347e-004   4.9808700951e-004
  1.0316875000e+009   7.4635778895e-003  -3.1107145945e-004   8.7246558381e-001  -4.8276280547e-001   8.7246558381e-001  -4.8276280547e-001   5.1950555239e-004   5.3787349650e-004
  1.0402750000e+009   7.3607892050e-003  -3.2935474084e-004   8.7075786308e-001  -4.8682601859e-001   8.7075786308e-001  -4.8682601859e-001  -1.4257044794e-004   1.9543817611e-004
  1.0488625000e+009   7.3428684031e-003  -2.1545540912e-004   8.6852222665e-001  -4.9011693975e-001   8.6852222665e-001  -4.9011693975e-001   4.9239944841e-004  -2.7197256018e-005
  1.0574500000e+009   7.3718326226e-003  -3.0525290021e-004   8.6646389717e-001  -4.9369100714e-001   8.6646389717e-001  -4.9369100714e-001  -1.3968341950e-004  -1.7197528678e-004
