# Hz S RI R 50.000000
! Metas.Vna.Tools, 2.8.8664.20301
! Metas.Vna.Data, 2.8.8664.20285
! Created: UTC 2024.02.09 20:24:16
! FREQ                re:S1,1             im:S1,1          
  1.3000000000e+008  -2.3399353027e-002  -7.8674316406e-002
  1.3858750000e+008  -2.6641845703e-002  -8.3259582520e-002
  1.4717500000e+008  -3.0467987061e-002  -8.7776184082e-002
  1.5576250000e+008  -3.4259796143e-002  -9.1888427734e-002
  1.6435000000e+008  -3.8246154785e-002  -9.5657348633e-002
  1.7293750000e+008  -4.2152404785e-002  -9.8869323730e-002
  1.8152500000e+008  -4.5310974121e-002  -1.0174560547e-001
  1.9011250000e+008  -4.8980712891e-002  -1.0489654541e-001
  1.9870000000e+008  -5.2070617676e-002  -1.0799407959e-001
  2.0728750000e+008  -5.4687500000e-002  -1.1146545410e-001
  2.1587500000e+008  -5.7868957520e-002  -1.1532592773e-001
  2.2446250000e+008  -6.1103820801e-002  -1.1949157715e-001
  2.3305000000e+008  -6.4819335938e-002  -1.2390136719e-001
  2.4163750000e+008  -6.9427490234e-002  -1.2845611572e-001
  2.5022500000e+008  -7.5019836426e-002  -1.3238525391e-001
  2.5881250000e+008  -8.0551147461e-002  -1.3586425781e-001
  2.6740000000e+008  -8.6296081543e-002  -1.3890075684e-001
  2.7598750000e+008  -9.2208862305e-002  -1.4128875732e-001
  2.8457500000e+008  -9.7869873047e-002  -1.4328002930e-001
  2.9316250000e+008  -1.0289001465e-001  -1.4498138428e-001
  3.0175000000e+008  -1.0765838623e-001  -1.4672088623e-001
  3.1033750000e+008  -1.1219787598e-001  -1.4895629883e-001
  3.1892500000e+008  -1.1704254150e-001  -1.5151214600e-001
  3.2751250000e+008  -1.2240600586e-001  -1.5451812744e-001
  3.3610000000e+008  -1.2858581543e-001  -1.5758514404e-001
  3.4468750000e+008  -1.3554382324e-001  -1.6023254395e-001
  3.5327500000e+008  -1.4312744141e-001  -1.6209411621e-001
  3.6186250000e+008  -1.5155029297e-001  -1.6280364990e-001
  3.7045000000e+008  -1.5961456299e-001  -1.6159057617e-001
  3.7903750000e+008  -1.6660308838e-001  -1.5984344482e-001
  3.8762500000e+008  -1.7250061035e-001  -1.5716552734e-001
  3.9621250000e+008  -1.7691040039e-001  -1.5482330322e-001
  4.0480000000e+008  -1.8024444580e-001  -1.5348052979e-001
  4.1338750000e+008  -1.8342590332e-001  -1.5316009521e-001
  4.2197500000e+008  -1.8650817871e-001  -1.5411376953e-001
  4.3056250000e+008  -1.9039916992e-001  -1.5600585938e-001
  4.3915000000e+008  -1.9540405273e-001  -1.5870666504e-001
  4.4773750000e+008  -2.0205688477e-001  -1.6139221191e-001
  4.5632500000e+008  -2.1047973633e-001  -1.6345214844e-001
  4.6491250000e+008  -2.2032165527e-001  -1.6404724121e-001
  4.7350000000e+008  -2.3083496094e-001  -1.6232299805e-001
  4.8208750000e+008  -2.4082946777e-001  -1.5806579590e-001
  4.9067500000e+008  -2.4917602539e-001  -1.5171813965e-001
  4.9926250000e+008  -2.5505065918e-001  -1.4404296875e-001
  5.0785000000e+008  -2.5717163086e-001  -1.3659667969e-001
  5.1643750000e+008  -2.5697326660e-001  -1.3128662109e-001
  5.2502500000e+008  -2.5524902344e-001  -1.2953186035e-001
  5.3361250000e+008  -2.5534057617e-001  -1.3096618652e-001
  5.4220000000e+008  -2.5762939453e-001  -1.3453674316e-001
  5.5078750000e+008  -2.6281738281e-001  -1.3821411133e-001
  5.5937500000e+008  -2.7052307129e-001  -1.4128112793e-001
  5.6796250000e+008  -2.8024291992e-001  -1.4241027832e-001
  5.7655000000e+008  -2.9048156738e-001  -1.4147949219e-001
  5.8513750000e+008  -3.0119323730e-001  -1.3809204102e-001
  5.9372500000e+008  -3.1080627441e-001  -1.3215637207e-001
  6.0231250000e+008  -3.1826782227e-001  -1.2469482422e-001
  6.1090000000e+008  -3.2337951660e-001  -1.1680603027e-001
  6.1948750000e+008  -3.2676696777e-001  -1.0971069336e-001
  6.2807500000e+008  -3.2862854004e-001  -1.0415649414e-001
  6.3666250000e+008  -3.3020019531e-001  -1.0058593750e-001
  6.4525000000e+008  -3.3259582520e-001  -9.8434448242e-002
  6.5383750000e+008  -3.3628845215e-001  -9.7290039063e-002
  6.6242500000e+008  -3.4153747559e-001  -9.6313476563e-002
  6.7101250000e+008  -3.4858703613e-001  -9.4635009766e-002
  6.7960000000e+008  -3.5652160645e-001  -9.1583251953e-002
  6.8818750000e+008  -3.6538696289e-001  -8.6074829102e-002
  6.9677500000e+008  -3.7322998047e-001  -7.8552246094e-002
  7.0536250000e+008  -3.7921142578e-001  -6.9366455078e-002
  7.1395000000e+008  -3.8290405273e-001  -5.9570312500e-002
  7.2253750000e+008  -3.8430786133e-001  -5.0384521484e-002
  7.3112500000e+008  -3.8345336914e-001  -4.1259765625e-002
  7.3971250000e+008  -3.8253784180e-001  -3.5552978516e-002
  7.4830000000e+008  -3.8143920898e-001  -3.1250000000e-002
  7.5688750000e+008  -3.8125610352e-001  -2.8900146484e-002
  7.6547500000e+008  -3.8208007813e-001  -2.6763916016e-002
  7.7406250000e+008  -3.8436889648e-001  -2.5360107422e-002
  7.8265000000e+008  -3.8766479492e-001  -2.3956298828e-002
  7.9123750000e+008  -3.9166259766e-001  -2.1850585938e-002
  7.9982500000e+008  -3.9642333984e-001  -1.9714355469e-002
  8.0841250000e+008  -4.0219116211e-001  -1.6754150391e-002
  8.1700000000e+008  -4.0814208984e-001  -1.3763427734e-002
  8.2558750000e+008  -4.1528320313e-001  -9.2773437500e-003
  8.3417500000e+008  -4.2263793945e-001  -3.7231445313e-003
  8.4276250000e+008  -4.3054199219e-001   4.1809082031e-003
  8.5135000000e+008  -4.3655395508e-001   1.3336181641e-002
  8.5993750000e+008  -4.4128417969e-001   2.3406982422e-002
  8.6852500000e+008  -4.4415283203e-001   3.3721923828e-002
  8.7711250000e+008  -4.4650268555e-001   4.4921875000e-002
  8.8570000000e+008  -4.4760131836e-001   5.5480957031e-002
  8.9428750000e+008  -4.4656372070e-001   6.4636230469e-002
  9.0287500000e+008  -4.4497680664e-001   7.3577880859e-002
  9.1146250000e+008  -4.4287109375e-001   8.1878662109e-002
  9.2005000000e+008  -4.4049072266e-001   8.8409423828e-002
  9.2863750000e+008  -4.3707275391e-001   9.3780517578e-002
  9.3722500000e+008  -4.3502807617e-001   9.7839355469e-002
  9.4581250000e+008  -4.3377685547e-001   1.0101318359e-001
  9.5440000000e+008  -4.3365478516e-001   1.0296630859e-001
  9.6298750000e+008  -4.3493652344e-001   1.0540771484e-001
  9.7157500000e+008  -4.3789672852e-001   1.0833740234e-001
  9.8016250000e+008  -4.4131469727e-001   1.1224365234e-001
  9.8875000000e+008  -4.4567871094e-001   1.1779785156e-001
  9.9733750000e+008  -4.4967651367e-001   1.2515258789e-001
  1.0059250000e+009  -4.5257568359e-001   1.3369750977e-001
  1.0145125000e+009  -4.5416259766e-001   1.4318847656e-001
  1.0231000000e+009  -4.5465087891e-001   1.5264892578e-001
  1.0316875000e+009  -4.5275878906e-001   1.6101074219e-001
  1.0402750000e+009  -4.5135498047e-001   1.6873168945e-001
  1.0488625000e+009  -4.4985961914e-001   1.7498779297e-001
  1.0574500000e+009  -4.4866943359e-001   1.8063354492e-001
  1.0660375000e+009  -4.4882202148e-001   1.8627929688e-001
  1.0746250000e+009  -4.4982910156e-001   1.9189453125e-001
  1.0832125000e+009  -4.5156860352e-001   1.9949340820e-001
  1.0918000000e+009  -4.5233154297e-001   2.0840454102e-001
  1.1003875000e+009  -4.5327758789e-001   2.1923828125e-001
  1.1089750000e+009  -4.5101928711e-001   2.3046875000e-001
  1.1175625000e+009  -4.4674682617e-001   2.4157714844e-001
  1.1261500000e+009  -4.3933105469e-001   2.5097656250e-001
  1.1347375000e+009  -4.3130493164e-001   2.5949096680e-001
  1.1433250000e+009  -4.2245483398e-001   2.6367187500e-001
  1.1519125000e+009  -4.1442871094e-001   2.6571655273e-001
  1.1605000000e+009  -4.0814208984e-001   2.6556396484e-001
  1.1690875000e+009  -4.0417480469e-001   2.6370239258e-001
  1.1776750000e+009  -4.0289306641e-001   2.6132202148e-001
  1.1862625000e+009  -4.0466308594e-001   2.5973510742e-001
  1.1948500000e+009  -4.0838623047e-001   2.5988769531e-001
  1.2034375000e+009  -4.1210937500e-001   2.6275634766e-001
  1.2120250000e+009  -4.1870117188e-001   2.6806640625e-001
  1.2206125000e+009  -4.2498779297e-001   2.7633666992e-001
  1.2292000000e+009  -4.2929077148e-001   2.8750610352e-001
  1.2377875000e+009  -4.3167114258e-001   3.0120849609e-001
  1.2463750000e+009  -4.2950439453e-001   3.1521606445e-001
  1.2549625000e+009  -4.2404174805e-001   3.2730102539e-001
  1.2635500000e+009  -4.1766357422e-001   3.3755493164e-001
  1.2721375000e+009  -4.1052246094e-001   3.4481811523e-001
  1.2807250000e+009  -4.0359497070e-001   3.4988403320e-001
  1.2893125000e+009  -3.9874267578e-001   3.5360717773e-001
  1.2979000000e+009  -3.9559936523e-001   3.5723876953e-001
  1.3064875000e+009  -3.9428710938e-001   3.6196899414e-001
  1.3150750000e+009  -3.9300537109e-001   3.6773681641e-001
  1.3236625000e+009  -3.9157104492e-001   3.7594604492e-001
  1.3322500000e+009  -3.8925170898e-001   3.8455200195e-001
  1.3408375000e+009  -3.8452148438e-001   3.9407348633e-001
  1.3494250000e+009  -3.7857055664e-001   4.0295410156e-001
  1.3580125000e+009  -3.7106323242e-001   4.1003417969e-001
  1.3666000000e+009  -3.6328125000e-001   4.1595458984e-001
  1.3751875000e+009  -3.5592651367e-001   4.2001342773e-001
  1.3837750000e+009  -3.4985351563e-001   4.2300415039e-001
  1.3923625000e+009  -3.4536743164e-001   4.2529296875e-001
  1.4009500000e+009  -3.4234619141e-001   4.2807006836e-001
  1.4095375000e+009  -3.4069824219e-001   4.3261718750e-001
  1.4181250000e+009  -3.3813476563e-001   4.3881225586e-001
  1.4267125000e+009  -3.3517456055e-001   4.4628906250e-001
  1.4353000000e+009  -3.3035278320e-001   4.5455932617e-001
  1.4438875000e+009  -3.2424926758e-001   4.6322631836e-001
  1.4524750000e+009  -3.1515502930e-001   4.6932983398e-001
  1.4610625000e+009  -3.0609130859e-001   4.7406005859e-001
  1.4696500000e+009  -2.9653930664e-001   4.7735595703e-001
  1.4782375000e+009  -2.8927612305e-001   4.7683715820e-001
  1.4868250000e+009  -2.8402709961e-001   4.7659301758e-001
  1.4954125000e+009  -2.8088378906e-001   4.7628784180e-001
  1.5040000000e+009  -2.8005981445e-001   4.7769165039e-001
  1.5125875000e+009  -2.8057861328e-001   4.8074340820e-001
  1.5211750000e+009  -2.8036499023e-001   4.8660278320e-001
  1.5297625000e+009  -2.8002929688e-001   4.9441528320e-001
  1.5383500000e+009  -2.7737426758e-001   5.0344848633e-001
  1.5469375000e+009  -2.7212524414e-001   5.1422119141e-001
  1.5555250000e+009  -2.6562500000e-001   5.2310180664e-001
  1.5641125000e+009  -2.5485229492e-001   5.3228759766e-001
  1.5727000000e+009  -2.4417114258e-001   5.3839111328e-001
  1.5812875000e+009  -2.3312377930e-001   5.4348754883e-001
  1.5898750000e+009  -2.2274780273e-001   5.4553222656e-001
  1.5984625000e+009  -2.1456909180e-001   5.4571533203e-001
  1.6070500000e+009  -2.0718383789e-001   5.4550170898e-001
  1.6156375000e+009  -2.0175170898e-001   5.4541015625e-001
  1.6242250000e+009  -1.9769287109e-001   5.4785156250e-001
  1.6328125000e+009  -1.9427490234e-001   5.4998779297e-001
  1.6414000000e+009  -1.9030761719e-001   5.5410766602e-001
  1.6499875000e+009  -1.8597412109e-001   5.5938720703e-001
  1.6585750000e+009  -1.8054199219e-001   5.6536865234e-001
  1.6671625000e+009  -1.7349243164e-001   5.7080078125e-001
  1.6757500000e+009  -1.6552734375e-001   5.7635498047e-001
  1.6843375000e+009  -1.5625000000e-001   5.8129882813e-001
  1.6929250000e+009  -1.4721679688e-001   5.8398437500e-001
  1.7015125000e+009  -1.3830566406e-001   5.8581542969e-001
  1.7101000000e+009  -1.2969970703e-001   5.8703613281e-001
  1.7186875000e+009  -1.2240600586e-001   5.8786010742e-001
  1.7272750000e+009  -1.1599731445e-001   5.8868408203e-001
  1.7358625000e+009  -1.0989379883e-001   5.9020996094e-001
  1.7444500000e+009  -1.0485839844e-001   5.9094238281e-001
  1.7530375000e+009  -9.9182128906e-002   5.9338378906e-001
  1.7616250000e+009  -9.3505859375e-002   5.9671020508e-001
  1.7702125000e+009  -8.7646484375e-002   6.0015869141e-001
  1.7788000000e+009  -8.0902099609e-002   6.0336303711e-001
  1.7873875000e+009  -7.4096679688e-002   6.0693359375e-001
  1.7959750000e+009  -6.7016601563e-002   6.1050415039e-001
  1.8045625000e+009  -5.9143066406e-002   6.1441040039e-001
  1.8131500000e+009  -5.0415039063e-002   6.1801147461e-001
  1.8217375000e+009  -4.1442871094e-002   6.2222290039e-001
  1.8303250000e+009  -3.1463623047e-002   6.2561035156e-001
  1.8389125000e+009  -1.9409179688e-002   6.2881469727e-001
  1.8475000000e+009  -7.7514648438e-003   6.2960815430e-001
  1.8560875000e+009   5.7373046875e-003   6.2982177734e-001
  1.8646750000e+009   1.8737792969e-002   6.2591552734e-001
  1.8732625000e+009   3.0029296875e-002   6.2072753906e-001
  1.8818500000e+009   3.9215087891e-002   6.1337280273e-001
  1.8904375000e+009   4.5410156250e-002   6.0595703125e-001
  1.8990250000e+009   4.8919677734e-002   5.9909057617e-001
  1.9076125000e+009   4.8980712891e-002   5.9307861328e-001
  1.9162000000e+009   4.8492431641e-002   5.8999633789e-001
  1.9247875000e+009   4.6569824219e-002   5.8874511719e-001
  1.9333750000e+009   4.5410156250e-002   5.9292602539e-001
  1.9419625000e+009   4.4281005859e-002   5.9722900391e-001
  1.9505500000e+009   4.5623779297e-002   6.0464477539e-001
  1.9591375000e+009   5.0689697266e-002   6.1291503906e-001
  1.9677250000e+009   5.8929443359e-002   6.2326049805e-001
  1.9763125000e+009   7.1014404297e-002   6.3174438477e-001
  1.9849000000e+009   8.5571289063e-002   6.3613891602e-001
  1.9934875000e+009   1.0113525391e-001   6.3696289063e-001
  2.0020750000e+009   1.1645507813e-001   6.3464355469e-001
  2.0106625000e+009   1.2942504883e-001   6.2942504883e-001
  2.0192500000e+009   1.3891601563e-001   6.2182617188e-001
  2.0278375000e+009   1.4535522461e-001   6.1563110352e-001
  2.0364250000e+009   1.5039062500e-001   6.1029052734e-001
  2.0450125000e+009   1.5405273438e-001   6.0665893555e-001
  2.0536000000e+009   1.5652465820e-001   6.0488891602e-001
  2.0621875000e+009   1.6043090820e-001   6.0580444336e-001
  2.0707750000e+009   1.6580200195e-001   6.0693359375e-001
  2.0793625000e+009   1.7361450195e-001   6.0900878906e-001
  2.0879500000e+009   1.8334960938e-001   6.0952758789e-001
  2.0965375000e+009   1.9351196289e-001   6.0781860352e-001
  2.1051250000e+009   2.0462036133e-001   6.0336303711e-001
  2.1137125000e+009   2.1353149414e-001   5.9713745117e-001
  2.1223000000e+009   2.2351074219e-001   5.8709716797e-001
  2.1308875000e+009   2.2732543945e-001   5.7873535156e-001
  2.1394750000e+009   2.2836303711e-001   5.7119750977e-001
  2.1480625000e+009   2.2744750977e-001   5.6622314453e-001
  2.1566500000e+009   2.2512817383e-001   5.6387329102e-001
  2.1652375000e+009   2.2351074219e-001   5.6512451172e-001
  2.1738250000e+009   2.2280883789e-001   5.6854248047e-001
  2.1824125000e+009   2.2311401367e-001   5.7351684570e-001
  2.1910000000e+009   2.2744750977e-001   5.8056640625e-001
  2.1995875000e+009   2.3684692383e-001   5.8889770508e-001
  2.2081750000e+009   2.4743652344e-001   5.9417724609e-001
  2.2167625000e+009   2.6071166992e-001   5.9732055664e-001
  2.2253500000e+009   2.7563476563e-001   5.9698486328e-001
  2.2339375000e+009   2.8906250000e-001   5.9317016602e-001
  2.2425250000e+009   3.0221557617e-001   5.8651733398e-001
  2.2511125000e+009   3.1231689453e-001   5.7867431641e-001
  2.2597000000e+009   3.2025146484e-001   5.6988525391e-001
  2.2682875000e+009   3.2467651367e-001   5.6210327148e-001
  2.2768750000e+009   3.2864379883e-001   5.5477905273e-001
  2.2854625000e+009   3.3172607422e-001   5.4959106445e-001
  2.2940500000e+009   3.3383178711e-001   5.4553222656e-001
  2.3026375000e+009   3.3801269531e-001   5.4345703125e-001
  2.3112250000e+009   3.4155273438e-001   5.4000854492e-001
  2.3198125000e+009   3.4490966797e-001   5.3735351563e-001
  2.3284000000e+009   3.4963989258e-001   5.3475952148e-001
  2.3369875000e+009   3.5461425781e-001   5.3216552734e-001
  2.3455750000e+009   3.5711669922e-001   5.2893066406e-001
  2.3541625000e+009   3.5971069336e-001   5.2630615234e-001
  2.3627500000e+009   3.6230468750e-001   5.2523803711e-001
  2.3713375000e+009   3.6434936523e-001   5.2468872070e-001
  2.3799250000e+009   3.6782836914e-001   5.2645874023e-001
  2.3885125000e+009   3.7185668945e-001   5.2960205078e-001
  2.3971000000e+009   3.7857055664e-001   5.3320312500e-001
  2.4056875000e+009   3.8763427734e-001   5.3717041016e-001
  2.4142750000e+009   3.9974975586e-001   5.3982543945e-001
  2.4228625000e+009   4.1470336914e-001   5.4031372070e-001
  2.4314500000e+009   4.3081665039e-001   5.3735351563e-001
  2.4400375000e+009   4.4583129883e-001   5.2987670898e-001
  2.4486250000e+009   4.6011352539e-001   5.1892089844e-001
  2.4572125000e+009   4.7073364258e-001   5.0579833984e-001
  2.4658000000e+009   4.7732543945e-001   4.9212646484e-001
  2.4743875000e+009   4.8046875000e-001   4.7842407227e-001
  2.4829750000e+009   4.8080444336e-001   4.6777343750e-001
  2.4915625000e+009   4.7958374023e-001   4.5993041992e-001
  2.5001500000e+009   4.7827148438e-001   4.5437622070e-001
  2.5087375000e+009   4.7854614258e-001   4.5159912109e-001
  2.5173250000e+009   4.8013305664e-001   4.5016479492e-001
  2.5259125000e+009   4.8358154297e-001   4.4964599609e-001
  2.5345000000e+009   4.8974609375e-001   4.4857788086e-001
  2.5430875000e+009   4.9728393555e-001   4.4641113281e-001
  2.5516750000e+009   5.0518798828e-001   4.4210815430e-001
  2.5602625000e+009   5.1266479492e-001   4.3643188477e-001
  2.5688500000e+009   5.1998901367e-001   4.2889404297e-001
  2.5774375000e+009   5.2493286133e-001   4.2120361328e-001
  2.5860250000e+009   5.2853393555e-001   4.1378784180e-001
  2.5946125000e+009   5.3161621094e-001   4.0744018555e-001
  2.6032000000e+009   5.3378295898e-001   4.0228271484e-001
  2.6117875000e+009   5.3604125977e-001   3.9874267578e-001
  2.6203750000e+009   5.3982543945e-001   3.9584350586e-001
  2.6289625000e+009   5.4479980469e-001   3.9398193359e-001
  2.6375500000e+009   5.5203247070e-001   3.9132690430e-001
  2.6461375000e+009   5.5978393555e-001   3.8809204102e-001
  2.6547250000e+009   5.6878662109e-001   3.8305664063e-001
  2.6633125000e+009   5.7812500000e-001   3.7622070313e-001
  2.6719000000e+009   5.8688354492e-001   3.6782836914e-001
  2.6804875000e+009   5.9432983398e-001   3.5827636719e-001
  2.6890750000e+009   6.0067749023e-001   3.4759521484e-001
  2.6976625000e+009   6.0549926758e-001   3.3612060547e-001
  2.7062500000e+009   6.0803222656e-001   3.2577514648e-001
  2.7148375000e+009   6.1117553711e-001   3.1579589844e-001
  2.7234250000e+009   6.1193847656e-001   3.0603027344e-001
  2.7320125000e+009   6.1187744141e-001   2.9760742188e-001
  2.7406000000e+009   6.1126708984e-001   2.8964233398e-001
  2.7491875000e+009   6.1099243164e-001   2.8353881836e-001
  2.7577750000e+009   6.1206054688e-001   2.7838134766e-001
  2.7663625000e+009   6.1285400391e-001   2.7380371094e-001
  2.7749500000e+009   6.1306762695e-001   2.7124023438e-001
  2.7835375000e+009   6.1529541016e-001   2.6882934570e-001
  2.7921250000e+009   6.1917114258e-001   2.6733398438e-001
  2.8007125000e+009   6.2448120117e-001   2.6556396484e-001
  2.8093000000e+009   6.3256835938e-001   2.6324462891e-001
  2.8178875000e+009   6.4196777344e-001   2.5875854492e-001
  2.8264750000e+009   6.5261840820e-001   2.5247192383e-001
  2.8350625000e+009   6.6421508789e-001   2.4301147461e-001
  2.8436500000e+009   6.7416381836e-001   2.3001098633e-001
  2.8522375000e+009   6.8151855469e-001   2.1423339844e-001
  2.8608250000e+009   6.8475341797e-001   1.9723510742e-001
  2.8694125000e+009   6.8453979492e-001   1.8069458008e-001
  2.8780000000e+009   6.8038940430e-001   1.6650390625e-001
  2.8865875000e+009   6.7440795898e-001   1.5524291992e-001
  2.8951750000e+009   6.6751098633e-001   1.4782714844e-001
  2.9037625000e+009   6.6213989258e-001   1.4401245117e-001
  2.9123500000e+009   6.5908813477e-001   1.4279174805e-001
  2.9209375000e+009   6.5802001953e-001   1.4309692383e-001
  2.9295250000e+009   6.6247558594e-001   1.4471435547e-001
  2.9381125000e+009   6.6995239258e-001   1.4202880859e-001
  2.9467000000e+009   6.8011474609e-001   1.3854980469e-001
  2.9552875000e+009   6.9116210938e-001   1.2905883789e-001
