# Hz S RI R 50.000000
! Metas.Vna.Tools, 2.8.8664.20301
! Metas.Vna.Data, 2.8.8664.20285
! Created: UTC 2024.02.09 20:24:06
! FREQ                re:S1,1             im:S1,1          
  1.3000000000e+008   2.2441864014e-002   7.7873229980e-002
  1.3858750000e+008   2.5131225586e-002   8.2233428955e-002
  1.4717500000e+008   2.7820587158e-002   8.6696624756e-002
  1.5576250000e+008   3.0441284180e-002   9.1323852539e-002
  1.6435000000e+008   3.3370971680e-002   9.6199035645e-002
  1.7293750000e+008   3.6621093750e-002   1.0131072998e-001
  1.8152500000e+008   3.9863586426e-002   1.0641479492e-001
  1.9011250000e+008   4.4799804688e-002   1.1177825928e-001
  1.9870000000e+008   4.9789428711e-002   1.1637878418e-001
  2.0728750000e+008   5.5229187012e-002   1.2049102783e-001
  2.1587500000e+008   6.1088562012e-002   1.2403106689e-001
  2.2446250000e+008   6.6696166992e-002   1.2659454346e-001
  2.3305000000e+008   7.1754455566e-002   1.2870788574e-001
  2.4163750000e+008   7.6683044434e-002   1.3076782227e-001
  2.5022500000e+008   8.1443786621e-002   1.3211059570e-001
  2.5881250000e+008   8.5296630859e-002   1.3422393799e-001
  2.6740000000e+008   8.9172363281e-002   1.3675689697e-001
  2.7598750000e+008   9.3536376953e-002   1.3961029053e-001
  2.8457500000e+008   9.8388671875e-002   1.4284515381e-001
  2.9316250000e+008   1.0353088379e-001   1.4566802979e-001
  3.0175000000e+008   1.0942840576e-001   1.4839935303e-001
  3.1033750000e+008   1.1550903320e-001   1.5017700195e-001
  3.1892500000e+008   1.2173461914e-001   1.5127563477e-001
  3.2751250000e+008   1.2752532959e-001   1.5181732178e-001
  3.3610000000e+008   1.3255310059e-001   1.5200042725e-001
  3.4468750000e+008   1.3701629639e-001   1.5237426758e-001
  3.5327500000e+008   1.4054870605e-001   1.5299224854e-001
  3.6186250000e+008   1.4440917969e-001   1.5464782715e-001
  3.7045000000e+008   1.4849090576e-001   1.5657806396e-001
  3.7903750000e+008   1.5306854248e-001   1.5988159180e-001
  3.8762500000e+008   1.5909576416e-001   1.6283416748e-001
  3.9621250000e+008   1.6615295410e-001   1.6589355469e-001
  4.0480000000e+008   1.7453002930e-001   1.6801452637e-001
  4.1338750000e+008   1.8418884277e-001   1.6860961914e-001
  4.2197500000e+008   1.9361877441e-001   1.6746520996e-001
  4.3056250000e+008   2.0220947266e-001   1.6407775879e-001
  4.3915000000e+008   2.0903015137e-001   1.5985107422e-001
  4.4773750000e+008   2.1405029297e-001   1.5525817871e-001
  4.5632500000e+008   2.1714782715e-001   1.5121459961e-001
  4.6491250000e+008   2.1913146973e-001   1.4865112305e-001
  4.7350000000e+008   2.2074890137e-001   1.4755249023e-001
  4.8208750000e+008   2.2270202637e-001   1.4805603027e-001
  4.9067500000e+008   2.2540283203e-001   1.4984130859e-001
  4.9926250000e+008   2.2976684570e-001   1.5284729004e-001
  5.0785000000e+008   2.3568725586e-001   1.5621948242e-001
  5.1643750000e+008   2.4394226074e-001   1.5934753418e-001
  5.2502500000e+008   2.5434875488e-001   1.6084289551e-001
  5.3361250000e+008   2.6683044434e-001   1.5898132324e-001
  5.4220000000e+008   2.7777099609e-001   1.5371704102e-001
  5.5078750000e+008   2.8585815430e-001   1.4642333984e-001
  5.5937500000e+008   2.9125976563e-001   1.3885498047e-001
  5.6796250000e+008   2.9412841797e-001   1.3235473633e-001
  5.7655000000e+008   2.9592895508e-001   1.2811279297e-001
  5.8513750000e+008   2.9756164551e-001   1.2571716309e-001
  5.9372500000e+008   3.0020141602e-001   1.2483215332e-001
  6.0231250000e+008   3.0421447754e-001   1.2487792969e-001
  6.1090000000e+008   3.1011962891e-001   1.2484741211e-001
  6.1948750000e+008   3.1779479980e-001   1.2416076660e-001
  6.2807500000e+008   3.2656860352e-001   1.2181091309e-001
  6.3666250000e+008   3.3573913574e-001   1.1758422852e-001
  6.4525000000e+008   3.4385681152e-001   1.1103820801e-001
  6.5383750000e+008   3.5072326660e-001   1.0304260254e-001
  6.6242500000e+008   3.5508728027e-001   9.4818115234e-002
  6.7101250000e+008   3.5751342773e-001   8.7036132813e-002
  6.7960000000e+008   3.5830688477e-001   8.0795288086e-002
  6.8818750000e+008   3.5916137695e-001   7.6461791992e-002
  6.9677500000e+008   3.6038208008e-001   7.3913574219e-002
  7.0536250000e+008   3.6280822754e-001   7.2708129883e-002
  7.1395000000e+008   3.6729431152e-001   7.1914672852e-002
  7.2253750000e+008   3.7344360352e-001   7.0892333984e-002
  7.3112500000e+008   3.8073730469e-001   6.7016601563e-002
  7.3971250000e+008   3.9025878906e-001   6.2591552734e-002
  7.4830000000e+008   3.9880371094e-001   5.5572509766e-002
  7.5688750000e+008   4.0643310547e-001   4.6508789063e-002
  7.6547500000e+008   4.1235351563e-001   3.5461425781e-002
  7.7406250000e+008   4.1567993164e-001   2.3986816406e-002
  7.8265000000e+008   4.1690063477e-001   1.3397216797e-002
  7.9123750000e+008   4.1638183594e-001   3.2653808594e-003
  7.9982500000e+008   4.1488647461e-001  -4.9133300781e-003
  8.0841250000e+008   4.1302490234e-001  -1.1993408203e-002
  8.1700000000e+008   4.1067504883e-001  -1.7150878906e-002
  8.2558750000e+008   4.0890502930e-001  -2.1209716797e-002
  8.3417500000e+008   4.0786743164e-001  -2.3986816406e-002
  8.4276250000e+008   4.0820312500e-001  -2.5787353516e-002
  8.5135000000e+008   4.0972900391e-001  -2.7618408203e-002
  8.5993750000e+008   4.1241455078e-001  -2.9754638672e-002
  8.6852500000e+008   4.1525268555e-001  -3.1707763672e-002
  8.7711250000e+008   4.1961669922e-001  -3.5491943359e-002
  8.8570000000e+008   4.2471313477e-001  -3.9489746094e-002
  8.9428750000e+008   4.2880249023e-001  -4.3457031250e-002
  9.0287500000e+008   4.3353271484e-001  -4.7790527344e-002
  9.1146250000e+008   4.3939208984e-001  -5.3253173828e-002
  9.2005000000e+008   4.4567871094e-001  -5.9478759766e-002
  9.2863750000e+008   4.5199584961e-001  -6.7535400391e-002
  9.3722500000e+008   4.5788574219e-001  -7.6934814453e-002
  9.4581250000e+008   4.6249389648e-001  -8.7951660156e-002
  9.5440000000e+008   4.6578979492e-001  -9.9670410156e-002
  9.6298750000e+008   4.6679687500e-001  -1.1209106445e-001
  9.7157500000e+008   4.6569824219e-001  -1.2402343750e-001
  9.8016250000e+008   4.6273803711e-001  -1.3485717773e-001
  9.8875000000e+008   4.5910644531e-001  -1.4379882813e-001
  9.9733750000e+008   4.5550537109e-001  -1.5075683594e-001
  1.0059250000e+009   4.5281982422e-001  -1.5661621094e-001
  1.0145125000e+009   4.5114135742e-001  -1.6195678711e-001
  1.0231000000e+009   4.5050048828e-001  -1.6757202148e-001
  1.0316875000e+009   4.5025634766e-001  -1.7327880859e-001
  1.0402750000e+009   4.5135498047e-001  -1.8063354492e-001
  1.0488625000e+009   4.5132446289e-001  -1.8853759766e-001
  1.0574500000e+009   4.5034790039e-001  -1.9686889648e-001
  1.0660375000e+009   4.4815063477e-001  -2.0565795898e-001
  1.0746250000e+009   4.4470214844e-001  -2.1295166016e-001
  1.0832125000e+009   4.4030761719e-001  -2.1963500977e-001
  1.0918000000e+009   4.3615722656e-001  -2.2390747070e-001
  1.1003875000e+009   4.3405151367e-001  -2.2799682617e-001
  1.1089750000e+009   4.3222045898e-001  -2.3052978516e-001
  1.1175625000e+009   4.3206787109e-001  -2.3291015625e-001
  1.1261500000e+009   4.3420410156e-001  -2.3614501953e-001
  1.1347375000e+009   4.3823242188e-001  -2.4169921875e-001
  1.1433250000e+009   4.4213867188e-001  -2.4908447266e-001
  1.1519125000e+009   4.4552612305e-001  -2.5912475586e-001
  1.1605000000e+009   4.4763183594e-001  -2.7120971680e-001
  1.1690875000e+009   4.4696044922e-001  -2.8488159180e-001
  1.1776750000e+009   4.4311523438e-001  -2.9937744141e-001
  1.1862625000e+009   4.3627929688e-001  -3.1198120117e-001
  1.1948500000e+009   4.2715454102e-001  -3.2287597656e-001
  1.2034375000e+009   4.1372680664e-001  -3.3102416992e-001
  1.2120250000e+009   4.0316772461e-001  -3.3563232422e-001
  1.2206125000e+009   3.9486694336e-001  -3.3709716797e-001
  1.2292000000e+009   3.8858032227e-001  -3.3596801758e-001
  1.2377875000e+009   3.8562011719e-001  -3.3621215820e-001
  1.2463750000e+009   3.8500976563e-001  -3.3685302734e-001
  1.2549625000e+009   3.8583374023e-001  -3.3859252930e-001
  1.2635500000e+009   3.8723754883e-001  -3.4283447266e-001
  1.2721375000e+009   3.8900756836e-001  -3.4982299805e-001
  1.2807250000e+009   3.8894653320e-001  -3.5836791992e-001
  1.2893125000e+009   3.8647460938e-001  -3.6755371094e-001
  1.2979000000e+009   3.8211059570e-001  -3.7695312500e-001
  1.3064875000e+009   3.7619018555e-001  -3.8449096680e-001
  1.3150750000e+009   3.6932373047e-001  -3.9074707031e-001
  1.3236625000e+009   3.6276245117e-001  -3.9511108398e-001
  1.3322500000e+009   3.5745239258e-001  -3.9773559570e-001
  1.3408375000e+009   3.5388183594e-001  -4.0060424805e-001
  1.3494250000e+009   3.5144042969e-001  -4.0359497070e-001
  1.3580125000e+009   3.4936523438e-001  -4.0798950195e-001
  1.3666000000e+009   3.4793090820e-001  -4.1354370117e-001
  1.3751875000e+009   3.4564208984e-001  -4.2086791992e-001
  1.3837750000e+009   3.4194946289e-001  -4.2883300781e-001
  1.3923625000e+009   3.3557128906e-001  -4.3692016602e-001
  1.4009500000e+009   3.2876586914e-001  -4.4363403320e-001
  1.4095375000e+009   3.2003784180e-001  -4.4873046875e-001
  1.4181250000e+009   3.1182861328e-001  -4.5153808594e-001
  1.4267125000e+009   3.0438232422e-001  -4.5291137695e-001
  1.4353000000e+009   2.9904174805e-001  -4.5333862305e-001
  1.4438875000e+009   2.9592895508e-001  -4.5452880859e-001
  1.4524750000e+009   2.9351806641e-001  -4.5440673828e-001
  1.4610625000e+009   2.9278564453e-001  -4.5703125000e-001
  1.4696500000e+009   2.9205322266e-001  -4.6224975586e-001
  1.4782375000e+009   2.9046630859e-001  -4.6755981445e-001
  1.4868250000e+009   2.8723144531e-001  -4.7476196289e-001
  1.4954125000e+009   2.8222656250e-001  -4.8153686523e-001
  1.5040000000e+009   2.7587890625e-001  -4.8809814453e-001
  1.5125875000e+009   2.6806640625e-001  -4.9200439453e-001
  1.5211750000e+009   2.6071166992e-001  -4.9465942383e-001
  1.5297625000e+009   2.5393676758e-001  -4.9594116211e-001
  1.5383500000e+009   2.4859619141e-001  -4.9578857422e-001
  1.5469375000e+009   2.4530029297e-001  -4.9600219727e-001
  1.5555250000e+009   2.4423217773e-001  -4.9581909180e-001
  1.5641125000e+009   2.4353027344e-001  -4.9746704102e-001
  1.5727000000e+009   2.4322509766e-001  -5.0115966797e-001
  1.5812875000e+009   2.4383544922e-001  -5.0753784180e-001
  1.5898750000e+009   2.4261474609e-001  -5.1422119141e-001
  1.5984625000e+009   2.4108886719e-001  -5.2322387695e-001
  1.6070500000e+009   2.3669433594e-001  -5.3213500977e-001
  1.6156375000e+009   2.3083496094e-001  -5.4077148438e-001
  1.6242250000e+009   2.2265625000e-001  -5.4919433594e-001
  1.6328125000e+009   2.1353149414e-001  -5.5575561523e-001
  1.6414000000e+009   2.0401000977e-001  -5.6011962891e-001
  1.6499875000e+009   1.9476318359e-001  -5.6295776367e-001
  1.6585750000e+009   1.8649291992e-001  -5.6494140625e-001
  1.6671625000e+009   1.7962646484e-001  -5.6619262695e-001
  1.6757500000e+009   1.7367553711e-001  -5.6765747070e-001
  1.6843375000e+009   1.6876220703e-001  -5.6948852539e-001
  1.6929250000e+009   1.6400146484e-001  -5.7308959961e-001
  1.7015125000e+009   1.5917968750e-001  -5.7672119141e-001
  1.7101000000e+009   1.5310668945e-001  -5.8142089844e-001
  1.7186875000e+009   1.4651489258e-001  -5.8645629883e-001
  1.7272750000e+009   1.3876342773e-001  -5.9112548828e-001
  1.7358625000e+009   1.2973022461e-001  -5.9463500977e-001
  1.7444500000e+009   1.2091064453e-001  -5.9796142578e-001
  1.7530375000e+009   1.1169433594e-001  -5.9942626953e-001
  1.7616250000e+009   1.0278320313e-001  -6.0064697266e-001
  1.7702125000e+009   9.3627929688e-002  -6.0107421875e-001
  1.7788000000e+009   8.5479736328e-002  -6.0107421875e-001
  1.7873875000e+009   7.7545166016e-002  -6.0009765625e-001
  1.7959750000e+009   7.0068359375e-002  -5.9915161133e-001
  1.8045625000e+009   6.2835693359e-002  -5.9762573242e-001
  1.8131500000e+009   5.6671142578e-002  -5.9564208984e-001
  1.8217375000e+009   5.1025390625e-002  -5.9408569336e-001
  1.8303250000e+009   4.6569824219e-002  -5.9204101563e-001
  1.8389125000e+009   4.3212890625e-002  -5.9033203125e-001
  1.8475000000e+009   4.2022705078e-002  -5.8889770508e-001
  1.8560875000e+009   4.0649414063e-002  -5.9017944336e-001
  1.8646750000e+009   4.0313720703e-002  -5.9249877930e-001
  1.8732625000e+009   3.9215087891e-002  -5.9716796875e-001
  1.8818500000e+009   3.7261962891e-002  -6.0375976563e-001
  1.8904375000e+009   3.2989501953e-002  -6.1184692383e-001
  1.8990250000e+009   2.5604248047e-002  -6.2127685547e-001
  1.9076125000e+009   1.5167236328e-002  -6.2921142578e-001
  1.9162000000e+009   2.1057128906e-003  -6.3681030273e-001
  1.9247875000e+009  -1.2939453125e-002  -6.3958740234e-001
  1.9333750000e+009  -3.0090332031e-002  -6.4096069336e-001
  1.9419625000e+009  -4.4006347656e-002  -6.3543701172e-001
  1.9505500000e+009  -5.6121826172e-002  -6.2869262695e-001
  1.9591375000e+009  -6.4849853516e-002  -6.1993408203e-001
  1.9677250000e+009  -7.0129394531e-002  -6.1346435547e-001
  1.9763125000e+009  -7.2479248047e-002  -6.0800170898e-001
  1.9849000000e+009  -7.3089599609e-002  -6.0348510742e-001
  1.9934875000e+009  -7.2479248047e-002  -6.0244750977e-001
  2.0020750000e+009  -7.2601318359e-002  -6.0375976563e-001
  2.0106625000e+009  -7.4249267578e-002  -6.0867309570e-001
  2.0192500000e+009  -7.7514648438e-002  -6.1343383789e-001
  2.0278375000e+009  -8.3923339844e-002  -6.2014770508e-001
  2.0364250000e+009  -9.3322753906e-002  -6.2600708008e-001
  2.0450125000e+009  -1.0437011719e-001  -6.2905883789e-001
  2.0536000000e+009  -1.1611938477e-001  -6.3037109375e-001
  2.0621875000e+009  -1.2698364258e-001  -6.2969970703e-001
  2.0707750000e+009  -1.3714599609e-001  -6.2692260742e-001
  2.0793625000e+009  -1.4416503906e-001  -6.2310791016e-001
  2.0879500000e+009  -1.5075683594e-001  -6.2051391602e-001
  2.0965375000e+009  -1.5490722656e-001  -6.1886596680e-001
  2.1051250000e+009  -1.5820312500e-001  -6.2014770508e-001
  2.1137125000e+009  -1.6329956055e-001  -6.2322998047e-001
  2.1223000000e+009  -1.7324829102e-001  -6.2652587891e-001
  2.1308875000e+009  -1.8328857422e-001  -6.3174438477e-001
  2.1394750000e+009  -1.9598388672e-001  -6.3687133789e-001
  2.1480625000e+009  -2.1270751953e-001  -6.3970947266e-001
  2.1566500000e+009  -2.3077392578e-001  -6.3812255859e-001
  2.1652375000e+009  -2.4887084961e-001  -6.3232421875e-001
  2.1738250000e+009  -2.6577758789e-001  -6.2219238281e-001
  2.1824125000e+009  -2.7700805664e-001  -6.0906982422e-001
  2.1910000000e+009  -2.8482055664e-001  -5.9481811523e-001
  2.1995875000e+009  -2.9016113281e-001  -5.8267211914e-001
  2.2081750000e+009  -2.9071044922e-001  -5.7189941406e-001
  2.2167625000e+009  -2.8942871094e-001  -5.6423950195e-001
  2.2253500000e+009  -2.8790283203e-001  -5.5911254883e-001
  2.2339375000e+009  -2.8686523438e-001  -5.5746459961e-001
  2.2425250000e+009  -2.8735351563e-001  -5.5770874023e-001
  2.2511125000e+009  -2.8964233398e-001  -5.5944824219e-001
  2.2597000000e+009  -2.9373168945e-001  -5.6195068359e-001
  2.2682875000e+009  -2.9992675781e-001  -5.6405639648e-001
  2.2768750000e+009  -3.0838012695e-001  -5.6536865234e-001
  2.2854625000e+009  -3.1671142578e-001  -5.6567382813e-001
  2.2940500000e+009  -3.2559204102e-001  -5.6448364258e-001
  2.3026375000e+009  -3.3541870117e-001  -5.6292724609e-001
  2.3112250000e+009  -3.4323120117e-001  -5.5953979492e-001
  2.3198125000e+009  -3.5125732422e-001  -5.5697631836e-001
  2.3284000000e+009  -3.5989379883e-001  -5.5545043945e-001
  2.3369875000e+009  -3.6978149414e-001  -5.5313110352e-001
  2.3455750000e+009  -3.7854003906e-001  -5.5010986328e-001
  2.3541625000e+009  -3.8934326172e-001  -5.4632568359e-001
  2.3627500000e+009  -4.0054321289e-001  -5.4089355469e-001
  2.3713375000e+009  -4.1134643555e-001  -5.3396606445e-001
  2.3799250000e+009  -4.2120361328e-001  -5.2407836914e-001
  2.3885125000e+009  -4.2898559570e-001  -5.1281738281e-001
  2.3971000000e+009  -4.3405151367e-001  -5.0085449219e-001
  2.4056875000e+009  -4.3569946289e-001  -4.8928833008e-001
  2.4142750000e+009  -4.3496704102e-001  -4.8010253906e-001
  2.4228625000e+009  -4.3264770508e-001  -4.7323608398e-001
  2.4314500000e+009  -4.2984008789e-001  -4.6942138672e-001
  2.4400375000e+009  -4.2797851563e-001  -4.6871948242e-001
  2.4486250000e+009  -4.2761230469e-001  -4.7018432617e-001
  2.4572125000e+009  -4.2990112305e-001  -4.7348022461e-001
  2.4658000000e+009  -4.3527221680e-001  -4.7708129883e-001
  2.4743875000e+009  -4.4326782227e-001  -4.8034667969e-001
  2.4829750000e+009  -4.5376586914e-001  -4.8150634766e-001
  2.4915625000e+009  -4.6649169922e-001  -4.8031616211e-001
  2.5001500000e+009  -4.7885131836e-001  -4.7579956055e-001
  2.5087375000e+009  -4.9047851563e-001  -4.6826171875e-001
  2.5173250000e+009  -5.0054931641e-001  -4.5928955078e-001
  2.5259125000e+009  -5.0747680664e-001  -4.4924926758e-001
  2.5345000000e+009  -5.1257324219e-001  -4.3954467773e-001
  2.5430875000e+009  -5.1495361328e-001  -4.3069458008e-001
  2.5516750000e+009  -5.1773071289e-001  -4.2425537109e-001
  2.5602625000e+009  -5.2026367188e-001  -4.1928100586e-001
  2.5688500000e+009  -5.2386474609e-001  -4.1433715820e-001
  2.5774375000e+009  -5.2819824219e-001  -4.1061401367e-001
  2.5860250000e+009  -5.3408813477e-001  -4.0594482422e-001
  2.5946125000e+009  -5.4052734375e-001  -4.0081787109e-001
  2.6032000000e+009  -5.4718017578e-001  -3.9382934570e-001
  2.6117875000e+009  -5.5325317383e-001  -3.8421630859e-001
  2.6203750000e+009  -5.5810546875e-001  -3.7524414063e-001
  2.6289625000e+009  -5.6109619141e-001  -3.6538696289e-001
  2.6375500000e+009  -5.6228637695e-001  -3.5644531250e-001
  2.6461375000e+009  -5.6158447266e-001  -3.4799194336e-001
  2.6547250000e+009  -5.6103515625e-001  -3.4158325195e-001
  2.6633125000e+009  -5.5981445313e-001  -3.3700561523e-001
  2.6719000000e+009  -5.5877685547e-001  -3.3340454102e-001
  2.6804875000e+009  -5.5868530273e-001  -3.3160400391e-001
  2.6890750000e+009  -5.6018066406e-001  -3.3013916016e-001
  2.6976625000e+009  -5.6225585938e-001  -3.2931518555e-001
  2.7062500000e+009  -5.6604003906e-001  -3.2852172852e-001
  2.7148375000e+009  -5.7153320313e-001  -3.2708740234e-001
  2.7234250000e+009  -5.7745361328e-001  -3.2479858398e-001
  2.7320125000e+009  -5.8322143555e-001  -3.2196044922e-001
  2.7406000000e+009  -5.8984375000e-001  -3.1793212891e-001
  2.7491875000e+009  -5.9713745117e-001  -3.1301879883e-001
  2.7577750000e+009  -6.0565185547e-001  -3.0703735352e-001
  2.7663625000e+009  -6.1325073242e-001  -2.9885864258e-001
  2.7749500000e+009  -6.1904907227e-001  -2.9003906250e-001
  2.7835375000e+009  -6.2335205078e-001  -2.7978515625e-001
  2.7921250000e+009  -6.2713623047e-001  -2.6864624023e-001
  2.8007125000e+009  -6.2780761719e-001  -2.5799560547e-001
  2.8093000000e+009  -6.2695312500e-001  -2.4740600586e-001
  2.8178875000e+009  -6.2405395508e-001  -2.3791503906e-001
  2.8264750000e+009  -6.1996459961e-001  -2.3196411133e-001
  2.8350625000e+009  -6.1550903320e-001  -2.2738647461e-001
  2.8436500000e+009  -6.1245727539e-001  -2.2619628906e-001
  2.8522375000e+009  -6.1050415039e-001  -2.2665405273e-001
  2.8608250000e+009  -6.1123657227e-001  -2.2879028320e-001
  2.8694125000e+009  -6.1456298828e-001  -2.3114013672e-001
  2.8780000000e+009  -6.2158203125e-001  -2.3287963867e-001
  2.8865875000e+009  -6.3137817383e-001  -2.3242187500e-001
  2.8951750000e+009  -6.4190673828e-001  -2.2814941406e-001
  2.9037625000e+009  -6.5307617188e-001  -2.1984863281e-001
  2.9123500000e+009  -6.6213989258e-001  -2.0761108398e-001
  2.9209375000e+009  -6.6690063477e-001  -1.9357299805e-001
  2.9295250000e+009  -6.6894531250e-001  -1.7980957031e-001
  2.9381125000e+009  -6.6616821289e-001  -1.6488647461e-001
  2.9467000000e+009  -6.6061401367e-001  -1.5533447266e-001
  2.9552875000e+009  -6.5438842773e-001  -1.4785766602e-001
