# Hz S RI R 50.000000
! Metas.Vna.Tools, 2.8.8664.20301
! Metas.Vna.Data, 2.8.8664.20285
! Created: UTC 2024.02.09 20:23:54
! FREQ                re:S1,1             im:S1,1          
  1.3000000000e+008  -4.9355626106e-004  -4.2763352394e-004
  1.3858750000e+008  -5.7363510132e-004  -4.3964385986e-004
  1.4717500000e+008  -5.6234002113e-004  -4.5850872993e-004
  1.5576250000e+008  -6.0784816742e-004  -4.5707821846e-004
  1.6435000000e+008  -6.5517425537e-004  -4.7156214714e-004
  1.7293750000e+008  -6.2823295593e-004  -4.5543909073e-004
  1.8152500000e+008  -7.3295831680e-004  -4.9471855164e-004
  1.9011250000e+008  -7.4291229248e-004  -4.5961141586e-004
  1.9870000000e+008  -7.6997280121e-004  -4.6074390411e-004
  2.0728750000e+008  -7.9303979874e-004  -5.0145387650e-004
  2.1587500000e+008  -8.7589025497e-004  -5.0270557404e-004
  2.2446250000e+008  -8.6921453476e-004  -4.8482418060e-004
  2.3305000000e+008  -8.4900856018e-004  -5.0634145737e-004
  2.4163750000e+008  -9.3460083008e-004  -4.8965215683e-004
  2.5022500000e+008  -9.6130371094e-004  -5.0115585327e-004
  2.5881250000e+008  -1.0082125664e-003  -5.2267313004e-004
  2.6740000000e+008  -1.0560154915e-003  -4.6718120575e-004
  2.7598750000e+008  -1.0809898376e-003  -4.6694278717e-004
  2.8457500000e+008  -1.1348724365e-003  -4.6062469482e-004
  2.9316250000e+008  -1.1578798294e-003  -4.6914815903e-004
  3.0175000000e+008  -1.2184977531e-003  -5.1099061966e-004
  3.1033750000e+008  -1.2288093567e-003  -5.1087141037e-004
  3.1892500000e+008  -1.3239979744e-003  -4.6676397324e-004
  3.2751250000e+008  -1.3044476509e-003  -4.7999620438e-004
  3.3610000000e+008  -1.3722181320e-003  -4.4429302216e-004
  3.4468750000e+008  -1.4066100121e-003  -4.7034025192e-004
  3.5327500000e+008  -1.5028715134e-003  -4.2140483856e-004
  3.6186250000e+008  -1.5439987183e-003  -4.0960311890e-004
  3.7045000000e+008  -1.5429258347e-003  -4.4083595276e-004
  3.7903750000e+008  -1.5869140625e-003  -3.8909912109e-004
  3.8762500000e+008  -1.6772747040e-003  -3.6990642548e-004
  3.9621250000e+008  -1.6896724701e-003  -4.3034553528e-004
  4.0480000000e+008  -1.7219781876e-003  -3.9660930634e-004
  4.1338750000e+008  -1.7920732498e-003  -4.1723251343e-004
  4.2197500000e+008  -1.8448829651e-003  -3.8099288940e-004
  4.3056250000e+008  -1.8489360809e-003  -3.5822391510e-004
  4.3915000000e+008  -1.8829107285e-003  -3.2377243042e-004
  4.4773750000e+008  -1.9502639771e-003  -3.2901763916e-004
  4.5632500000e+008  -2.0684003830e-003  -3.0648708344e-004
  4.6491250000e+008  -2.0534992218e-003  -2.6857852936e-004
  4.7350000000e+008  -2.0619630814e-003  -2.9647350311e-004
  4.8208750000e+008  -2.1618604660e-003  -2.2518634796e-004
  4.9067500000e+008  -2.1947622299e-003  -2.2995471954e-004
  4.9926250000e+008  -2.2354125977e-003  -2.2721290588e-004
  5.0785000000e+008  -2.2715330124e-003  -2.1159648895e-004
  5.1643750000e+008  -2.3111104965e-003  -2.3269653320e-004
  5.2502500000e+008  -2.4063587189e-003  -1.7619132996e-004
  5.3361250000e+008  -2.4054050446e-003  -2.1994113922e-004
  5.4220000000e+008  -2.4762153625e-003  -2.0563602448e-004
  5.5078750000e+008  -2.5935173035e-003  -2.0325183868e-004
  5.5937500000e+008  -2.6217699051e-003  -1.5413761139e-004
  5.6796250000e+008  -2.6841163635e-003  -2.4557113647e-004
  5.7655000000e+008  -2.7048587799e-003  -2.1016597748e-004
  5.8513750000e+008  -2.7633905411e-003  -1.6486644745e-004
  5.9372500000e+008  -2.9006004333e-003  -1.8525123596e-004
  6.0231250000e+008  -2.9458999634e-003  -1.2183189392e-004
  6.1090000000e+008  -2.9423236847e-003  -8.3684921265e-005
  6.1948750000e+008  -3.0384063721e-003  -1.4758110046e-004
  6.2807500000e+008  -3.0393600464e-003  -1.6212463379e-004
  6.3666250000e+008  -3.1244754791e-003  -1.3184547424e-004
  6.4525000000e+008  -3.1952857971e-003  -6.8426132202e-005
  6.5383750000e+008  -3.2210350037e-003  -9.0837478638e-005
  6.6242500000e+008  -3.2727718353e-003  -1.0871887207e-004
  6.7101250000e+008  -3.3149719238e-003  -6.2465667725e-005
  6.7960000000e+008  -3.3953189850e-003  -1.2087821960e-004
  6.8818750000e+008  -3.4360885620e-003  -9.4890594482e-005
  6.9677500000e+008  -3.4873485565e-003  -4.7683715820e-005
  7.0536250000e+008  -3.5738945007e-003  -5.7697296143e-005
  7.1395000000e+008  -3.5920143127e-003  -6.6995620728e-005
  7.2253750000e+008  -3.6580562592e-003  -5.7935714722e-005
  7.3112500000e+008  -3.7460327148e-003  -1.6689300537e-005
  7.3971250000e+008  -3.7326812744e-003  -6.7710876465e-005
  7.4830000000e+008  -3.8383007050e-003  -7.9631805420e-005
  7.5688750000e+008  -3.8318634033e-003  -5.8650970459e-005
  7.6547500000e+008  -3.8983821869e-003  -6.4134597778e-005
  7.7406250000e+008  -3.9644241333e-003  -6.9856643677e-005
  7.8265000000e+008  -3.9944648743e-003  -6.2227249146e-005
  7.9123750000e+008  -4.0433406830e-003  -9.9420547485e-005
  7.9982500000e+008  -4.0371417999e-003  -1.0871887207e-004
  8.0841250000e+008  -4.0953159332e-003  -1.2493133545e-004
  8.1700000000e+008  -4.1468143463e-003  -1.5211105347e-004
  8.2558750000e+008  -4.1544437408e-003  -1.9550323486e-004
  8.3417500000e+008  -4.2297840118e-003  -2.6297569275e-004
  8.4276250000e+008  -4.2636394501e-003  -2.2506713867e-004
  8.5135000000e+008  -4.2943954468e-003  -2.7251243591e-004
  8.5993750000e+008  -4.3916702271e-003  -3.2210350037e-004
  8.6852500000e+008  -4.4271945953e-003  -3.3998489380e-004
  8.7711250000e+008  -4.4133663177e-003  -4.0125846863e-004
  8.8570000000e+008  -4.4977664948e-003  -3.6668777466e-004
  8.9428750000e+008  -4.5177936554e-003  -4.7397613525e-004
  9.0287500000e+008  -4.5862197876e-003  -4.6658515930e-004
  9.1146250000e+008  -4.6262741089e-003  -4.4107437134e-004
  9.2005000000e+008  -4.6503543854e-003  -4.9233436584e-004
  9.2863750000e+008  -4.7273635864e-003  -4.9328804016e-004
  9.3722500000e+008  -4.7793388367e-003  -5.7673454285e-004
  9.4581250000e+008  -4.7297477722e-003  -6.1321258545e-004
  9.5440000000e+008  -4.8031806946e-003  -6.6184997559e-004
  9.6298750000e+008  -4.7857761383e-003  -6.4134597778e-004
  9.7157500000e+008  -4.8038959503e-003  -6.8163871765e-004
  9.8016250000e+008  -4.8685073853e-003  -6.7710876465e-004
  9.8875000000e+008  -4.8589706421e-003  -7.9417228699e-004
  9.9733750000e+008  -4.9176216125e-003  -7.8988075256e-004
  1.0059250000e+009  -4.8792362213e-003  -8.3947181702e-004
  1.0145125000e+009  -4.9040317535e-003  -8.6855888367e-004
  1.0231000000e+009  -5.0017833710e-003  -9.2315673828e-004
  1.0316875000e+009  -4.9364566803e-003  -9.3555450439e-004
  1.0402750000e+009  -4.8801898956e-003  -1.0468959808e-003
  1.0488625000e+009  -4.9428939819e-003  -1.0120868683e-003
  1.0574500000e+009  -4.9667358398e-003  -1.0526180267e-003
  1.0660375000e+009  -4.9026012421e-003  -1.1427402496e-003
  1.0746250000e+009  -4.9102306366e-003  -1.1329650879e-003
  1.0832125000e+009  -4.9557685852e-003  -1.2102127075e-003
  1.0918000000e+009  -4.9118995667e-003  -1.3012886047e-003
  1.1003875000e+009  -4.8713684082e-003  -1.3356208801e-003
  1.1089750000e+009  -4.8649311066e-003  -1.3771057129e-003
  1.1175625000e+009  -4.8580169678e-003  -1.3701915741e-003
  1.1261500000e+009  -4.8191547394e-003  -1.4858245850e-003
  1.1347375000e+009  -4.8041343689e-003  -1.5220642090e-003
  1.1433250000e+009  -4.7643184662e-003  -1.5795230865e-003
  1.1519125000e+009  -4.7018527985e-003  -1.6245841980e-003
  1.1605000000e+009  -4.6582221985e-003  -1.6090869904e-003
  1.1690875000e+009  -4.6253204346e-003  -1.7127990723e-003
  1.1776750000e+009  -4.5523643494e-003  -1.7755031586e-003
  1.1862625000e+009  -4.5089721680e-003  -1.8186569214e-003
  1.1948500000e+009  -4.4903755188e-003  -1.8780231476e-003
  1.2034375000e+009  -4.4031143188e-003  -1.9073486328e-003
  1.2120250000e+009  -4.3678283691e-003  -2.0346641541e-003
  1.2206125000e+009  -4.3587684631e-003  -2.0418167114e-003
  1.2292000000e+009  -4.2767524719e-003  -2.1207332611e-003
  1.2377875000e+009  -4.2238235474e-003  -2.1388530731e-003
  1.2463750000e+009  -4.1320323944e-003  -2.2077560425e-003
  1.2549625000e+009  -4.1072368622e-003  -2.2590160370e-003
  1.2635500000e+009  -4.0364265442e-003  -2.2838115692e-003
  1.2721375000e+009  -3.9579868317e-003  -2.3088455200e-003
  1.2807250000e+009  -3.9238929749e-003  -2.3560523987e-003
  1.2893125000e+009  -3.8361549377e-003  -2.4154186249e-003
  1.2979000000e+009  -3.7832260132e-003  -2.4068355560e-003
  1.3064875000e+009  -3.6606788635e-003  -2.4921894073e-003
  1.3150750000e+009  -3.6575794220e-003  -2.4859905243e-003
  1.3236625000e+009  -3.5319328308e-003  -2.5732517242e-003
  1.3322500000e+009  -3.4368038177e-003  -2.5610923767e-003
  1.3408375000e+009  -3.3516883850e-003  -2.5629997253e-003
  1.3494250000e+009  -3.2079219818e-003  -2.6648044586e-003
  1.3580125000e+009  -3.1898021698e-003  -2.6435852051e-003
  1.3666000000e+009  -3.0529499054e-003  -2.6996135712e-003
  1.3751875000e+009  -2.9761791229e-003  -2.6657581329e-003
  1.3837750000e+009  -2.8443336487e-003  -2.7072429657e-003
  1.3923625000e+009  -2.7340650558e-003  -2.7068853378e-003
  1.4009500000e+009  -2.7153491974e-003  -2.7564764023e-003
  1.4095375000e+009  -2.5582313538e-003  -2.7744770050e-003
  1.4181250000e+009  -2.4523735046e-003  -2.7468204498e-003
  1.4267125000e+009  -2.2791624069e-003  -2.7621984482e-003
  1.4353000000e+009  -2.1970272064e-003  -2.7540922165e-003
  1.4438875000e+009  -2.0806789398e-003  -2.7300119400e-003
  1.4524750000e+009  -1.9787549973e-003  -2.7441978455e-003
  1.4610625000e+009  -1.8512010574e-003  -2.7414560318e-003
  1.4696500000e+009  -1.6716718674e-003  -2.8085708618e-003
  1.4782375000e+009  -1.5783309937e-003  -2.6919841766e-003
  1.4868250000e+009  -1.5012025833e-003  -2.7247667313e-003
  1.4954125000e+009  -1.3113021851e-003  -2.7040243149e-003
  1.5040000000e+009  -1.2149810791e-003  -2.7006864548e-003
  1.5125875000e+009  -1.0696649551e-003  -2.7412176132e-003
  1.5211750000e+009  -9.0610980988e-004  -2.6776790619e-003
  1.5297625000e+009  -8.0633163452e-004  -2.6102066040e-003
  1.5383500000e+009  -6.9177150726e-004  -2.6276111603e-003
  1.5469375000e+009  -5.2523612976e-004  -2.5920867920e-003
  1.5555250000e+009  -4.2021274567e-004  -2.5696754456e-003
  1.5641125000e+009  -2.8240680695e-004  -2.5099515915e-003
  1.5727000000e+009  -1.9514560699e-004  -2.4926662445e-003
  1.5812875000e+009  -2.0623207092e-005  -2.4564266205e-003
  1.5898750000e+009   6.5445899963e-005  -2.3587942123e-003
  1.5984625000e+009   2.1731853485e-004  -2.3273229599e-003
  1.6070500000e+009   3.5130977631e-004  -2.3024082184e-003
  1.6156375000e+009   5.1295757294e-004  -2.2403001785e-003
  1.6242250000e+009   5.5468082428e-004  -2.2000074387e-003
  1.6328125000e+009   7.2383880615e-004  -2.0678043365e-003
  1.6414000000e+009   9.0527534485e-004  -2.0619630814e-003
  1.6499875000e+009   9.9086761475e-004  -1.9838809967e-003
  1.6585750000e+009   1.1186599731e-003  -1.9110441208e-003
  1.6671625000e+009   1.2630224228e-003  -1.8314123154e-003
  1.6757500000e+009   1.3825893402e-003  -1.6951560974e-003
  1.6843375000e+009   1.4493465424e-003  -1.5918016434e-003
  1.6929250000e+009   1.6113519669e-003  -1.5419721603e-003
  1.7015125000e+009   1.6776323318e-003  -1.4081001282e-003
  1.7101000000e+009   1.8339157104e-003  -1.3648271561e-003
  1.7186875000e+009   1.9557476044e-003  -1.2370347977e-003
  1.7272750000e+009   2.0842552185e-003  -1.1379718781e-003
  1.7358625000e+009   2.1957159042e-003  -1.0266304016e-003
  1.7444500000e+009   2.3115873337e-003  -9.3281269073e-004
  1.7530375000e+009   2.3847818375e-003  -7.9548358917e-004
  1.7616250000e+009   2.4582147598e-003  -7.3349475861e-004
  1.7702125000e+009   2.5846958160e-003  -6.2108039856e-004
  1.7788000000e+009   2.6800632477e-003  -4.4250488281e-004
  1.7873875000e+009   2.7803182602e-003  -3.1030178070e-004
  1.7959750000e+009   2.9175281525e-003  -2.4318695068e-004
  1.8045625000e+009   2.9797554016e-003  -8.7261199951e-005
  1.8131500000e+009   3.0231475830e-003   4.9352645874e-005
  1.8217375000e+009   3.1590461731e-003   2.1171569824e-004
  1.8303250000e+009   3.1838417053e-003   3.2591819763e-004
  1.8389125000e+009   3.3063888550e-003   4.2629241943e-004
  1.8475000000e+009   3.3318996429e-003   5.2714347839e-004
  1.8560875000e+009   3.4444332123e-003   7.3552131653e-004
  1.8646750000e+009   3.4489631653e-003   8.8548660278e-004
  1.8732625000e+009   3.5705566406e-003   9.8919868469e-004
  1.8818500000e+009   3.6165714264e-003   1.1222362518e-003
  1.8904375000e+009   3.6692619324e-003   1.2917518616e-003
  1.8990250000e+009   3.7043094635e-003   1.4994144440e-003
  1.9076125000e+009   3.7376880646e-003   1.6052722931e-003
  1.9162000000e+009   3.7884712219e-003   1.7476081848e-003
  1.9247875000e+009   3.8278102875e-003   1.9192695618e-003
  1.9333750000e+009   3.8616657257e-003   2.0627975464e-003
  1.9419625000e+009   3.8757324219e-003   2.1867752075e-003
  1.9505500000e+009   3.8802623749e-003   2.3398399353e-003
  1.9591375000e+009   3.9088726044e-003   2.4838447571e-003
  1.9677250000e+009   3.9227008820e-003   2.6597976685e-003
  1.9763125000e+009   3.9365291595e-003   2.8047561646e-003
  1.9849000000e+009   3.9670467377e-003   2.9406547546e-003
  1.9934875000e+009   3.9577484131e-003   3.1127929688e-003
  2.0020750000e+009   3.9527416229e-003   3.2868385315e-003
  2.0106625000e+009   3.9675235748e-003   3.4036636353e-003
  2.0192500000e+009   3.8969516754e-003   3.5841464996e-003
  2.0278375000e+009   3.9589405060e-003   3.6754608154e-003
  2.0364250000e+009   3.8800239563e-003   3.8261413574e-003
  2.0450125000e+009   3.9074420929e-003   3.9517879486e-003
  2.0536000000e+009   3.8609504700e-003   4.1050910950e-003
  2.0621875000e+009   3.8516521454e-003   4.2526721954e-003
  2.0707750000e+009   3.7872791290e-003   4.3871402740e-003
  2.0793625000e+009   3.7832260132e-003   4.5073032379e-003
  2.0879500000e+009   3.7217140198e-003   4.6932697296e-003
  2.0965375000e+009   3.6728382111e-003   4.7986507416e-003
  2.1051250000e+009   3.6242008209e-003   4.9648284912e-003
  2.1137125000e+009   3.5555362701e-003   5.0275325775e-003
  2.1223000000e+009   3.5429000854e-003   5.0706863403e-003
  2.1308875000e+009   3.4792423248e-003   5.2103996277e-003
  2.1394750000e+009   3.4070014954e-003   5.3133964539e-003
  2.1480625000e+009   3.2839775085e-003   5.4488182068e-003
  2.1566500000e+009   3.2444000244e-003   5.5460929871e-003
  2.1652375000e+009   3.1611919403e-003   5.6872367859e-003
  2.1738250000e+009   3.0834674835e-003   5.6841373444e-003
  2.1824125000e+009   3.0169487000e-003   5.8374404907e-003
  2.1910000000e+009   2.8920173645e-003   5.9275627136e-003
  2.1995875000e+009   2.7799606323e-003   6.0195922852e-003
  2.2081750000e+009   2.6969909668e-003   6.0496330261e-003
  2.2167625000e+009   2.5868415833e-003   6.0834884644e-003
  2.2253500000e+009   2.4137496948e-003   6.1998367310e-003
  2.2339375000e+009   2.3174285889e-003   6.2704086304e-003
  2.2425250000e+009   2.2258758545e-003   6.3338279724e-003
  2.2511125000e+009   2.1328926086e-003   6.3443183899e-003
  2.2597000000e+009   2.0403862000e-003   6.4039230347e-003
  2.2682875000e+009   1.9335746765e-003   6.4544677734e-003
  2.2768750000e+009   1.7647743225e-003   6.4511299133e-003
  2.2854625000e+009   1.6541481018e-003   6.4845085144e-003
  2.2940500000e+009   1.5053749084e-003   6.5364837646e-003
  2.3026375000e+009   1.3580322266e-003   6.5517425537e-003
  2.3112250000e+009   1.2545585632e-003   6.5431594849e-003
  2.3198125000e+009   1.1153221130e-003   6.6285133362e-003
  2.3284000000e+009   9.8991394043e-004   6.5588951111e-003
  2.3369875000e+009   8.6879730225e-004   6.6032409668e-003
  2.3455750000e+009   7.1144104004e-004   6.5851211548e-003
  2.3541625000e+009   5.5313110352e-004   6.5755844116e-003
  2.3627500000e+009   4.3630599976e-004   6.6032409668e-003
  2.3713375000e+009   3.4856796265e-004   6.5202713013e-003
  2.3799250000e+009   1.9836425781e-004   6.4830780029e-003
  2.3885125000e+009   7.2002410889e-005   6.4043998718e-003
  2.3971000000e+009  -7.2956085205e-005   6.4082145691e-003
  2.4056875000e+009  -1.9550323486e-004   6.3691139221e-003
  2.4142750000e+009  -3.3712387085e-004   6.2499046326e-003
  2.4228625000e+009  -4.4679641724e-004   6.2232017517e-003
  2.4314500000e+009  -5.5885314941e-004   6.1163902283e-003
  2.4400375000e+009  -7.3528289795e-004   6.0091018677e-003
  2.4486250000e+009  -8.0776214600e-004   5.9442520142e-003
  2.4572125000e+009  -8.8834762573e-004   5.8403015137e-003
  2.4658000000e+009  -1.0762214661e-003   5.7318210602e-003
  2.4743875000e+009  -1.1646747589e-003   5.6550502777e-003
  2.4829750000e+009  -1.2595653534e-003   5.5279731750e-003
  2.4915625000e+009  -1.4092922211e-003   5.3896903992e-003
  2.5001500000e+009  -1.4860630035e-003   5.2533149719e-003
  2.5087375000e+009  -1.6160011292e-003   5.1305294037e-003
  2.5173250000e+009  -1.6634464264e-003   4.9829483032e-003
  2.5259125000e+009  -1.7697811127e-003   4.8246383667e-003
  2.5345000000e+009  -1.8727779388e-003   4.6546459198e-003
  2.5430875000e+009  -2.0105838776e-003   4.4550895691e-003
  2.5516750000e+009  -2.0680427551e-003   4.3399333954e-003
  2.5602625000e+009  -2.1209716797e-003   4.1418075562e-003
  2.5688500000e+009  -2.2132396698e-003   3.9558410645e-003
  2.5774375000e+009  -2.2797584534e-003   3.8149356842e-003
  2.5860250000e+009  -2.3086071014e-003   3.6101341248e-003
  2.5946125000e+009  -2.3844242096e-003   3.3600330353e-003
  2.6032000000e+009  -2.3891925812e-003   3.1864643097e-003
  2.6117875000e+009  -2.4452209473e-003   2.9983520508e-003
  2.6203750000e+009  -2.5919675827e-003   2.7525424957e-003
  2.6289625000e+009  -2.5494098663e-003   2.5753974915e-003
  2.6375500000e+009  -2.6094913483e-003   2.3112297058e-003
  2.6461375000e+009  -2.6071071625e-003   2.1076202393e-003
  2.6547250000e+009  -2.6149749756e-003   1.8855333328e-003
  2.6633125000e+009  -2.6748180389e-003   1.6337633133e-003
  2.6719000000e+009  -2.6932954788e-003   1.4059543610e-003
  2.6804875000e+009  -2.6143789291e-003   1.1610984802e-003
  2.6890750000e+009  -2.6309490204e-003   9.0396404266e-004
  2.6976625000e+009  -2.6160478592e-003   6.6685676575e-004
  2.7062500000e+009  -2.6103258133e-003   3.8051605225e-004
  2.7148375000e+009  -2.5923252106e-003   1.8143653870e-004
  2.7234250000e+009  -2.5504827499e-003  -6.8187713623e-005
  2.7320125000e+009  -2.5095939636e-003  -3.2997131348e-004
  2.7406000000e+009  -2.3757219315e-003  -6.0927867889e-004
  2.7491875000e+009  -2.3381710052e-003  -8.7606906891e-004
  2.7577750000e+009  -2.3545026779e-003  -1.1329650879e-003
  2.7663625000e+009  -2.1920204163e-003  -1.3879537582e-003
  2.7749500000e+009  -2.0771026611e-003  -1.6655921936e-003
  2.7835375000e+009  -2.0227432251e-003  -1.8951892853e-003
  2.7921250000e+009  -1.9106864929e-003  -2.2168159485e-003
  2.8007125000e+009  -1.7993450165e-003  -2.4764537811e-003
  2.8093000000e+009  -1.6906261444e-003  -2.7077198029e-003
  2.8178875000e+009  -1.5482902527e-003  -2.9582977295e-003
  2.8264750000e+009  -1.4302730560e-003  -3.2391548157e-003
  2.8350625000e+009  -1.2927055359e-003  -3.4799575806e-003
  2.8436500000e+009  -1.1084079742e-003  -3.7441253662e-003
  2.8522375000e+009  -9.5176696777e-004  -3.9732456207e-003
  2.8608250000e+009  -7.8988075256e-004  -4.2514801025e-003
  2.8694125000e+009  -5.9247016907e-004  -4.5387744904e-003
  2.8780000000e+009  -4.5466423035e-004  -4.7719478607e-003
  2.8865875000e+009  -2.4938583374e-004  -5.0890445709e-003
  2.8951750000e+009   1.8835067749e-005  -5.2542686462e-003
  2.9037625000e+009   1.2946128845e-004  -5.5744647980e-003
  2.9123500000e+009   3.6334991455e-004  -5.7699680328e-003
  2.9209375000e+009   6.3037872314e-004  -6.0157775879e-003
  2.9295250000e+009   8.1539154053e-004  -6.2065124512e-003
  2.9381125000e+009   1.0075569153e-003  -6.4854621887e-003
  2.9467000000e+009   1.2621879578e-003  -6.7481994629e-003
  2.9552875000e+009   1.5616416931e-003  -6.9899559021e-003
