# Hz S RI R 50.000000
! Metas.Vna.Tools, 2.8.8664.20301
! Metas.Vna.Data, 2.8.8664.20285
! Created: UTC 2024.02.09 20:40:09
! FREQ                re:S1,1             im:S1,1             re:S2,1             im:S2,1             re:S1,2             im:S1,2             re:S2,2             im:S2,2          
  1.3000000000e+008  -1.3728141785e-003  -2.2025108337e-003  -2.7862548828e-002  -3.9094924927e-002  -2.8242111206e-002  -2.9043197632e-002  -2.9263496399e-003  -1.0526180267e-003
  1.3858750000e+008  -1.5537738800e-003  -2.2982358932e-003  -3.9148330688e-002  -3.2545089722e-002  -3.6918640137e-002  -2.2134780884e-002  -3.0462741852e-003   2.7751922607e-004
  1.4717500000e+008  -1.7262697220e-003  -2.2883415222e-003  -4.9079895020e-002  -2.2750854492e-002  -4.3857574463e-002  -1.2727737427e-002  -2.4775266647e-003   1.4415979385e-003
  1.5576250000e+008  -1.8453598022e-003  -2.2872686386e-003  -5.6148529053e-002  -1.0139465332e-002  -4.8175811768e-002  -1.2741088867e-003  -1.3413429260e-003   2.1320581436e-003
  1.6435000000e+008  -1.8796920776e-003  -2.4005174637e-003  -5.9822082520e-002   4.7721862793e-003  -4.9423217773e-002   1.1623382568e-002  -8.8095664978e-005   2.0896196365e-003
  1.7293750000e+008  -1.9834041595e-003  -2.5113821030e-003  -5.9562683105e-002   2.0793914795e-002  -4.7168731689e-002   2.5005340576e-002   1.0879039764e-003   1.3519525528e-003
  1.8152500000e+008  -2.2380352020e-003  -2.8249025345e-003  -5.4710388184e-002   3.6605834961e-002  -4.1152954102e-002   3.7630081177e-002   1.6474723816e-003   1.7762184143e-004
  1.9011250000e+008  -2.5753974915e-003  -2.8626918793e-003  -4.5463562012e-002   5.1753997803e-002  -3.1608581543e-002   4.9228668213e-002   1.4756917953e-003  -1.1532306671e-003
  1.9870000000e+008  -3.0012130737e-003  -2.8154850006e-003  -3.2314300537e-002   6.4228057861e-002  -1.8836975098e-002   5.7998657227e-002   8.4722042084e-004  -2.1570920944e-003
  2.0728750000e+008  -3.2868385315e-003  -2.5837421417e-003  -1.5838623047e-002   7.3135375977e-002  -3.7117004395e-003   6.3335418701e-002  -1.5234947205e-004  -2.8380155563e-003
  2.1587500000e+008  -3.3512115479e-003  -2.2060871124e-003   3.5018920898e-003   7.8022003174e-002   1.2935638428e-002   6.4716339111e-002  -1.2912750244e-003  -3.0469894409e-003
  2.2446250000e+008  -3.2205581665e-003  -2.0678043365e-003   2.4051666260e-002   7.7373504639e-002   2.9960632324e-002   6.1569213867e-002  -2.3897886276e-003  -2.7247667313e-003
  2.3305000000e+008  -3.0004978180e-003  -2.1703243256e-003   4.4231414795e-002   7.1315765381e-002   4.6176910400e-002   5.3913116455e-002  -3.3848285675e-003  -2.0844936371e-003
  2.4163750000e+008  -2.8048753738e-003  -2.4436712265e-003   6.3068389893e-002   5.9917449951e-002   6.0394287109e-002   4.1957855225e-002  -4.0845870972e-003  -1.0988712311e-003
  2.5022500000e+008  -3.0579566956e-003  -2.9373168945e-003   7.9158782959e-002   4.2728424072e-002   7.1392059326e-002   2.5600433350e-002  -4.2581558228e-003   2.1982192993e-004
  2.5881250000e+008  -3.5338401794e-003  -3.3469200134e-003   9.0221405029e-002   2.2052764893e-002   7.7941894531e-002   6.8969726563e-003  -3.9317607880e-003   1.5809535980e-003
  2.6740000000e+008  -4.2166709900e-003  -3.4503936768e-003   9.5619201660e-002  -1.3275146484e-003   7.9509735107e-002  -1.3378143311e-002  -2.9036998749e-003   2.6621818542e-003
  2.7598750000e+008  -4.9064159393e-003  -3.1886100769e-003   9.4970703125e-002  -2.6390075684e-002   7.5778961182e-002  -3.4069061279e-002  -1.2731552124e-003   3.1726360321e-003
  2.8457500000e+008  -5.1848888397e-003  -2.6693344116e-003   8.7604522705e-002  -5.1067352295e-002   6.6535949707e-002  -5.3699493408e-002   6.4516067505e-004   2.9106140137e-003
  2.9316250000e+008  -5.2375793457e-003  -2.1548271179e-003   7.4077606201e-002  -7.3535919189e-002   5.2291870117e-002  -7.0671081543e-002   2.2397041321e-003   1.4343261719e-003
  3.0175000000e+008  -4.9824714661e-003  -1.9650459290e-003   5.4405212402e-002  -9.2113494873e-002   3.3512115479e-002  -8.3747863770e-002   2.8884410858e-003  -8.4567070007e-004
  3.1033750000e+008  -4.7605037689e-003  -2.0079612732e-003   3.0105590820e-002  -1.0543060303e-001   1.1547088623e-002  -9.1831207275e-002   2.2573471069e-003  -3.3276081085e-003
  3.1892500000e+008  -4.7578811646e-003  -2.2823810577e-003   2.5558471680e-003  -1.1235809326e-001  -1.2306213379e-002  -9.4039916992e-002   2.6869773865e-004  -5.2425861359e-003
  3.2751250000e+008  -5.0616264343e-003  -2.5942325592e-003  -2.6573181152e-002  -1.1203002930e-001  -3.6617279053e-002  -9.0122222900e-002  -2.5081634521e-003  -5.9962272644e-003
  3.3610000000e+008  -5.6214332581e-003  -2.6094913483e-003  -5.5335998535e-002  -1.0427093506e-001  -5.9650421143e-002  -7.9788208008e-002  -5.4209232330e-003  -5.2089691162e-003
  3.4468750000e+008  -6.0973167419e-003  -2.3989677429e-003  -8.1813812256e-002  -8.8924407959e-002  -7.9704284668e-002  -6.3594818115e-002  -7.6546669006e-003  -2.9726028442e-003
  3.5327500000e+008  -6.3605308533e-003  -1.9454956055e-003  -1.0388946533e-001  -6.6864013672e-002  -9.5260620117e-002  -4.2343139648e-002  -8.4109306335e-003   1.2016296387e-004
  3.6186250000e+008  -6.2503814697e-003  -1.4882087708e-003  -1.2004852295e-001  -3.9123535156e-002  -1.0517883301e-001  -1.7120361328e-002  -7.4663162231e-003   3.1666755676e-003
  3.7045000000e+008  -5.9552192688e-003  -1.3885498047e-003  -1.2873077393e-001  -7.1182250977e-003  -1.0810852051e-001   1.0375976563e-002  -5.1555633545e-003   5.4342746735e-003
  3.7903750000e+008  -5.7678222656e-003  -1.7096996307e-003  -1.2899780273e-001   2.6344299316e-002  -1.0419464111e-001   3.7986755371e-002  -2.0861625671e-003   6.1755180359e-003
  3.8762500000e+008  -6.0343742371e-003  -2.1014213562e-003  -1.2022399902e-001   5.9127807617e-002  -9.2971801758e-002   6.4529418945e-002   1.0490417480e-003   5.2709579468e-003
  3.9621250000e+008  -6.6156387329e-003  -2.4847984314e-003  -1.0315704346e-001   8.9050292969e-002  -7.5145721436e-002   8.7577819824e-002   3.2842159271e-003   3.0744075775e-003
  4.0480000000e+008  -7.4734687805e-003  -2.3975372314e-003  -7.8834533691e-002   1.1431121826e-001  -5.1521301270e-002   1.0569763184e-001   4.2424201965e-003   6.7234039307e-005
  4.1338750000e+008  -8.2330703735e-003  -1.7271041870e-003  -4.8561096191e-002   1.3308715820e-001  -2.3414611816e-002   1.1753082275e-001   3.7765502930e-003  -3.1616687775e-003
  4.2197500000e+008  -8.4867477417e-003  -7.9774856567e-004  -1.3504028320e-002   1.4385223389e-001   7.2250366211e-003   1.2170410156e-001   1.9025802612e-003  -5.8913230896e-003
  4.3056250000e+008  -8.1944465637e-003   2.4318695068e-005   2.3574829102e-002   1.4521026611e-001   3.8330078125e-002   1.1787414551e-001  -9.7417831421e-004  -7.5430870056e-003
  4.3915000000e+008  -7.4443817139e-003   3.8576126099e-004   6.0386657715e-002   1.3688659668e-001   6.7787170410e-002   1.0620117188e-001  -4.4865608215e-003  -7.8129768372e-003
  4.4773750000e+008  -6.8335533142e-003   1.1920928955e-004   9.4436645508e-002   1.1891937256e-001   9.3856811523e-002   8.7005615234e-002  -7.9278945923e-003  -6.5250396729e-003
  4.5632500000e+008  -6.6909790039e-003  -5.8269500732e-004   1.2326812744e-001   9.2689514160e-002   1.1465454102e-001   6.1500549316e-002  -1.0517120361e-002  -3.6826133728e-003
  4.6491250000e+008  -7.1859359741e-003  -1.1615753174e-003   1.4484405518e-001   5.9364318848e-002   1.2846374512e-001   3.0906677246e-002  -1.1569023132e-002   2.5844573975e-004
  4.7350000000e+008  -8.0609321594e-003  -1.2621879578e-003   1.5731048584e-001   2.1186828613e-002   1.3394165039e-001  -2.7847290039e-003  -1.0621070862e-002   4.4717788696e-003
  4.8208750000e+008  -8.7704658508e-003  -7.2240829468e-004   1.5962219238e-001  -1.9699096680e-002   1.3056945801e-001  -3.7109375000e-002  -7.4472427368e-003   7.8616142273e-003
  4.9067500000e+008  -8.8233947754e-003  -3.4809112549e-005   1.5139770508e-001  -6.0173034668e-002   1.1827087402e-001  -6.9602966309e-002  -2.8424263000e-003   9.1476440430e-003
  4.9926250000e+008  -8.4352493286e-003   2.8228759766e-004   1.3269805908e-001  -9.7351074219e-002   9.8114013672e-002  -9.8121643066e-002   2.1104812622e-003   7.6060295105e-003
  5.0785000000e+008  -8.3947181702e-003  -1.2826919556e-004   1.0517883301e-001  -1.2869262695e-001   7.1418762207e-002  -1.2080383301e-001   5.2230358124e-003   3.6718845367e-003
  5.1643750000e+008  -9.0956687927e-003  -4.0674209595e-004   7.0663452148e-002  -1.5236663818e-001   3.9627075195e-002  -1.3623809814e-001   5.5215358734e-003  -1.2822151184e-003
  5.2502500000e+008  -9.8519325256e-003   2.1028518677e-004   3.1417846680e-002  -1.6688537598e-001   4.9285888672e-003  -1.4347076416e-001   3.2305717468e-003  -4.9371719360e-003
  5.3361250000e+008  -9.9477767944e-003   1.1696815491e-003  -1.0864257813e-002  -1.7219543457e-001  -3.1333923340e-002  -1.4254760742e-001   1.9168853760e-004  -6.7119598389e-003
  5.4220000000e+008  -9.4246864319e-003   1.6598701477e-003  -5.4306030273e-002  -1.6680145264e-001  -6.6917419434e-002  -1.3229370117e-001  -2.6984214783e-003  -7.2374343872e-003
  5.5078750000e+008  -9.0355873108e-003   1.5130043030e-003  -9.5619201660e-002  -1.5013885498e-001  -9.9411010742e-002  -1.1328125000e-001  -5.5804252625e-003  -7.1487426758e-003
  5.5937500000e+008  -9.1462135315e-003   1.1949539185e-003  -1.3245391846e-001  -1.2328338623e-001  -1.2675476074e-001  -8.5960388184e-002  -8.4905624390e-003  -5.9251785278e-003
  5.6796250000e+008  -9.4876289368e-003   1.3046264648e-003  -1.6164398193e-001  -8.7219238281e-002  -1.4664459229e-001  -5.2047729492e-002  -1.1056423187e-002  -3.2725334167e-003
  5.7655000000e+008  -9.7336769104e-003   1.6021728516e-003  -1.8092346191e-001  -4.4036865234e-002  -1.5711212158e-001  -1.3420104980e-002  -1.2125015259e-002   4.5680999756e-004
  5.8513750000e+008  -9.6631050110e-003   1.9197463989e-003  -1.8862915039e-001   2.7770996094e-003  -1.5747833252e-001   2.7137756348e-002  -1.1176109314e-002   4.6801567078e-003
  5.9372500000e+008  -9.4890594482e-003   1.8835067749e-003  -1.8407440186e-001   5.1307678223e-002  -1.4730834961e-001   6.6810607910e-002  -8.2373619080e-003   8.0871582031e-003
  6.0231250000e+008  -9.4876289368e-003   1.5044212341e-003  -1.6705322266e-001   9.7061157227e-002  -1.2702941895e-001   1.0291290283e-001  -3.7236213684e-003   9.5171928406e-003
  6.1090000000e+008  -1.0003566742e-002   1.2230873108e-003  -1.3845825195e-001   1.3777160645e-001  -9.7953796387e-002   1.3323974609e-001   1.0433197021e-003   8.5783004761e-003
  6.1948750000e+008  -1.0938167572e-002   1.2612342834e-003  -1.0008239746e-001   1.7024993896e-001  -6.2042236328e-002   1.5544891357e-001   4.8921108246e-003   5.3193569183e-003
  6.2807500000e+008  -1.1901855469e-002   1.9035339355e-003  -5.4306030273e-002   1.9212341309e-001  -2.0759582520e-002   1.6788482666e-001   6.5746307373e-003   3.8385391235e-004
  6.3666250000e+008  -1.2351989746e-002   3.1156539917e-003  -4.2724609375e-003   2.0181274414e-001   2.2529602051e-002   1.6949462891e-001   5.5015087128e-003  -4.8022270203e-003
  6.4525000000e+008  -1.2128829956e-002   4.4221878052e-003   4.6813964844e-002   1.9802856445e-001   6.5048217773e-002   1.5974426270e-001   2.0074844360e-003  -8.8553428650e-003
  6.5383750000e+008  -1.1165618896e-002   5.2223205566e-003   9.6076965332e-002   1.8190765381e-001   1.0419464111e-001   1.3941192627e-001  -3.1852722168e-003  -1.0602474213e-002
  6.6242500000e+008  -1.0061740875e-002   5.2790641785e-003   1.4001464844e-001   1.5319824219e-001   1.3708496094e-001   1.0977172852e-001  -8.5787773132e-003  -9.6654891968e-003
  6.7101250000e+008  -9.3579292297e-003   4.6987533569e-003   1.7571258545e-001   1.1396789551e-001   1.6179656982e-001   7.2479248047e-002  -1.2786865234e-002  -6.1435699463e-003
  6.7960000000e+008  -9.3588829041e-003   3.7212371826e-003   2.0053100586e-001   6.6833496094e-002   1.7644500732e-001   2.9708862305e-002  -1.4770507813e-002  -1.0185241699e-003
  6.8818750000e+008  -1.0101318359e-002   3.1385421753e-003   2.1270751953e-001   1.4205932617e-002   1.8007659912e-001  -1.5899658203e-002  -1.3960838318e-002   4.4202804565e-003
  6.9677500000e+008  -1.1123657227e-002   3.2825469971e-003   2.1147155762e-001  -4.0115356445e-002   1.7163848877e-001  -6.1264038086e-002  -1.0753154755e-002   8.7504386902e-003
  7.0536250000e+008  -1.1878967285e-002   4.0636062622e-003   1.9616699219e-001  -9.2788696289e-002   1.5180969238e-001  -1.0330200195e-001  -5.8312416077e-003   1.1028766632e-002
  7.1395000000e+008  -1.1979103088e-002   5.0067901611e-003   1.6759490967e-001  -1.4007568359e-001   1.2189483643e-001  -1.3912963867e-001  -5.8221817017e-004   1.0693073273e-002
  7.2253750000e+008  -1.1546134949e-002   5.7668685913e-003   1.2837219238e-001  -1.7934417725e-001   8.3694458008e-002  -1.6655731201e-001   3.8623809814e-003   8.0075263977e-003
  7.3112500000e+008  -1.1006832123e-002   5.9142112732e-003   7.8964233398e-002  -2.0777893066e-001   3.9070129395e-002  -1.8344879150e-001   6.5407752991e-003   3.5910606384e-003
  7.3971250000e+008  -1.0764598846e-002   5.6948661804e-003   2.4459838867e-002  -2.2280883789e-001  -8.5906982422e-003  -1.8893432617e-001   6.9117546082e-003  -1.5478134155e-003
  7.4830000000e+008  -1.1132717133e-002   5.3987503052e-003  -3.2714843750e-002  -2.2328186035e-001  -5.6312561035e-002  -1.8216705322e-001   4.9338340759e-003  -6.2751770020e-003
  7.5688750000e+008  -1.1828422546e-002   5.7945251465e-003  -8.8287353516e-002  -2.0904541016e-001  -1.0121917725e-001  -1.6308593750e-001   1.0166168213e-003  -9.5901489258e-003
  7.6547500000e+008  -1.2162208557e-002   6.8445205688e-003  -1.3909912109e-001  -1.8087768555e-001  -1.3972473145e-001  -1.3298797607e-001  -4.0793418884e-003  -1.0825634003e-002
  7.7406250000e+008  -1.1629104614e-002   8.1863403320e-003  -1.8110656738e-001  -1.4109039307e-001  -1.6938018799e-001  -9.4017028809e-002  -9.0870857239e-003  -9.7231864929e-003
  7.8265000000e+008  -1.0198116302e-002   8.8310241699e-003  -2.1163940430e-001  -9.1598510742e-002  -1.8826293945e-001  -4.8950195313e-002  -1.3159751892e-002  -6.5698623657e-003
  7.9123750000e+008  -8.6150169373e-003   8.2306861877e-003  -2.2891235352e-001  -3.5781860352e-002  -1.9544982910e-001  -5.0354003906e-004  -1.5679359436e-002  -2.0465850830e-003
  7.9982500000e+008  -8.0575942993e-003   6.6390037537e-003  -2.3141479492e-001   2.2567749023e-002  -1.9038391113e-001   4.8110961914e-002  -1.6195297241e-002   3.2491683960e-003
  8.0841250000e+008  -8.9702606201e-003   5.1612854004e-003  -2.1986389160e-001   7.9605102539e-002  -1.7377471924e-001   9.4413757324e-002  -1.4822959900e-002   8.5906982422e-003
  8.1700000000e+008  -1.0664939880e-002   4.9433708191e-003  -1.9415283203e-001   1.3226318359e-001  -1.4615631104e-001   1.3513946533e-001  -1.1041641235e-002   1.3555526733e-002
  8.2558750000e+008  -1.1984825134e-002   5.9871673584e-003  -1.5661621094e-001   1.7765808105e-001  -1.0904693604e-001   1.6860961914e-001  -4.7025680542e-003   1.6903877258e-002
  8.3417500000e+008  -1.2041091919e-002   7.3966979980e-003  -1.0868835449e-001   2.1238708496e-001  -6.4437866211e-002   1.9200134277e-001   3.5886764526e-003   1.6861915588e-002
  8.4276250000e+008  -1.1365413666e-002   8.3422660828e-003  -5.3131103516e-002   2.3448181152e-001  -1.4678955078e-002   2.0381164551e-001   1.1355400085e-002   1.1993408203e-002
  8.5135000000e+008  -1.0634422302e-002   8.4772109985e-003   7.1868896484e-003   2.4243164063e-001   3.6972045898e-002   2.0288085938e-001   1.5716552734e-002   3.1003952026e-003
  8.5993750000e+008  -1.0251998901e-002   8.3317756653e-003   6.7932128906e-002   2.3493957520e-001   8.7371826172e-002   1.8887329102e-001   1.4344215393e-002  -7.1611404419e-003
  8.6852500000e+008  -1.0301113129e-002   8.2221031189e-003   1.2521362305e-001   2.1241760254e-001   1.3285827637e-001   1.6225433350e-001   7.5502395630e-003  -1.4985084534e-002
  8.7711250000e+008  -1.0392665863e-002   8.3737373352e-003   1.7631530762e-001   1.7532348633e-001   1.7110443115e-001   1.2432098389e-001  -2.3298263550e-003  -1.7869949341e-002
  8.8570000000e+008  -1.0305881500e-002   8.7027549744e-003   2.1665954590e-001   1.2635803223e-001   1.9847106934e-001   7.7911376953e-002  -1.1869430542e-002  -1.5057563782e-002
  8.9428750000e+008  -1.0014057159e-002   9.0136528015e-003   2.4270629883e-001   6.8618774414e-002   2.1275329590e-001   2.5650024414e-002  -1.8152236938e-002  -7.9755783081e-003
  9.0287500000e+008  -9.6383094788e-003   8.9979171753e-003   2.5379943848e-001   5.7830810547e-003   2.1348571777e-001  -2.8518676758e-002  -1.9828796387e-002   7.1430206299e-004
  9.1146250000e+008  -9.3717575073e-003   8.8891983032e-003   2.4873352051e-001  -5.8578491211e-002   2.0069885254e-001  -8.1741333008e-002  -1.7248153687e-002   8.5620880127e-003
  9.2005000000e+008  -9.3197822571e-003   8.5349082947e-003   2.2702026367e-001  -1.1949157715e-001   1.7485809326e-001  -1.3003540039e-001  -1.1643409729e-002   1.3681411743e-002
  9.2863750000e+008  -9.5262527466e-003   8.3966255188e-003   1.9067382813e-001  -1.7330932617e-001   1.3755798340e-001  -1.7063140869e-001  -5.0716400146e-003   1.5580177307e-002
  9.3722500000e+008  -9.8590850830e-003   8.3875656128e-003   1.4186096191e-001  -2.1640014648e-001   9.1140747070e-002  -2.0062255859e-001   1.2102127075e-003   1.4665603638e-002
  9.4581250000e+008  -1.0177135468e-002   8.5835456848e-003   8.3892822266e-002  -2.4635314941e-001   3.8085937500e-002  -2.1838378906e-001   6.1392784119e-003   1.1496543884e-002
  9.5440000000e+008  -1.0442733765e-002   9.0503692627e-003   1.9653320313e-002  -2.6107788086e-001  -1.7807006836e-002  -2.2219848633e-001   9.3727111816e-003   6.9913864136e-003
  9.6298750000e+008  -1.0572910309e-002   9.5357894897e-003  -4.6524047852e-002  -2.5927734375e-001  -7.3394775391e-002  -2.1200561523e-001   1.0735511780e-002   1.7085075378e-003
  9.7157500000e+008  -1.0521888733e-002   1.0231494904e-002  -1.1077880859e-001  -2.4069213867e-001  -1.2469482422e-001  -1.8785095215e-001   1.0016918182e-002  -3.9286613464e-003
  9.8016250000e+008  -1.0195732117e-002   1.0962486267e-002  -1.6828918457e-001  -2.0631408691e-001  -1.6869354248e-001  -1.5125274658e-001   6.8426132202e-003  -8.9669227600e-003
  9.8875000000e+008  -9.4947814941e-003   1.1558532715e-002  -2.1522521973e-001  -1.5798950195e-001  -2.0230102539e-001  -1.0467529297e-001   1.4305114746e-003  -1.2492179871e-002
  9.9733750000e+008  -8.5544586182e-003   1.1857032776e-002  -2.4955749512e-001  -9.9288940430e-002  -2.2309875488e-001  -5.0796508789e-002  -5.4254531860e-003  -1.3199806213e-002
  1.0059250000e+009  -7.4968338013e-003   1.1697769165e-002  -2.6800537109e-001  -3.3569335938e-002  -2.2987365723e-001   6.8969726563e-003  -1.2466430664e-002  -1.0415077209e-002
  1.0145125000e+009  -6.6947937012e-003   1.1003971100e-002  -2.6882934570e-001   3.5110473633e-002  -2.2180175781e-001   6.4666748047e-002  -1.7514228821e-002  -4.2057037354e-003
  1.0231000000e+009  -6.4311027527e-003   9.8872184753e-003  -2.5273132324e-001   1.0202026367e-001  -1.9931030273e-001   1.1875915527e-001  -1.8869400024e-002   4.1809082031e-003
  1.0316875000e+009  -6.8917274475e-003   8.9416503906e-003  -2.1992492676e-001   1.6238403320e-001  -1.6364288330e-001   1.6538238525e-001  -1.5761375427e-002   1.2586593628e-002
  1.0402750000e+009  -8.0561637878e-003   8.5067749023e-003  -1.7291259766e-001   2.1324157715e-001  -1.1752319336e-001   2.0196533203e-001  -8.7442398071e-003   1.8385887146e-002
  1.0488625000e+009  -9.2716217041e-003   8.9941024780e-003  -1.1476135254e-001   2.5051879883e-001  -6.3522338867e-002   2.2579956055e-001   5.7029724121e-004   2.0061492920e-002
  1.0574500000e+009  -1.0073661804e-002   1.0314941406e-002  -4.8095703125e-002   2.7275085449e-001  -5.2185058594e-003   2.3538208008e-001   9.4871520996e-003   1.6850471497e-002
