!Created with skrf (http://scikit-rf.org).
# Hz S RI R 50.0 
!freq ReS11 ImS11
130000000.0 -0.9910116590228716 0.12461089793468505
138587500.0 -0.9886382403510608 0.13218245245758767
147175000.0 -0.9881561325625996 0.1399031693387394
155762500.0 -0.9873755307561703 0.14891830001297607
164350000.0 -0.9859624358934227 0.15630984326211633
172937500.0 -0.9845898619471345 0.16477192070474245
181525000.0 -0.983007716801531 0.17249802753128973
190112500.0 -0.9815379288650306 0.18152229956446383
198700000.0 -0.9801219654945781 0.18948935298531108
207287500.0 -0.9784869814923021 0.19692457781067993
215875000.0 -0.9758743127963228 0.20510734614082846
224462500.0 -0.9754962476408716 0.21302018858675892
233050000.0 -0.9726441185514441 0.22087548427983505
241637500.0 -0.9710910324760452 0.2286133266772941
250225000.0 -0.9688758085474916 0.23637457563223063
258812500.0 -0.9672347444456488 0.24427515627442453
267400000.0 -0.9640699052177073 0.25203698801423635
275987500.0 -0.9633565738875854 0.26020849726316947
284575000.0 -0.9608596479633482 0.2681764578389984
293162500.0 -0.958987462933927 0.2752025922329337
301750000.0 -0.95614434073115 0.2831871310455571
310337500.0 -0.9536615210305126 0.2910159353679061
318925000.0 -0.9510362932065982 0.29890903201701174
327512500.0 -0.9490020092148055 0.30696198815063885
336100000.0 -0.946366736412854 0.31457607708810076
344687500.0 -0.9436013933479334 0.3220684299601962
353275000.0 -0.9406911709765174 0.3299727525169953
361862500.0 -0.9379907438097989 0.3372465209501256
370450000.0 -0.9354313845162197 0.3446904259273057
379037500.0 -0.9324518551386023 0.3525457248240693
387625000.0 -0.929289603177478 0.3604766812262915
396212500.0 -0.9262146567477256 0.3675496460293384
404800000.0 -0.923351122889576 0.3749247905861034
413387500.0 -0.9198447013740488 0.3824928555989088
421975000.0 -0.9170840910288072 0.39026382636651996
430562500.0 -0.9137017337621168 0.397101303158882
439150000.0 -0.9106009054245066 0.4046657732564052
447737500.0 -0.9072043055927063 0.41191336758066344
456325000.0 -0.9036412731333887 0.41945472762521635
464912500.0 -0.8999122134374526 0.42683241913667574
473500000.0 -0.8964721477494665 0.4341248574005937
482087500.0 -0.8928032394591586 0.44152317553011483
490675000.0 -0.8891204904580965 0.4487861251209458
499262500.0 -0.885832559853344 0.4559655833831905
507850000.0 -0.8817423767138691 0.46279095125920877
516437500.0 -0.8778962354078012 0.4701413230377961
525025000.0 -0.8741763090529738 0.47701661312669946
533612500.0 -0.8699018968636532 0.4840652545240928
542200000.0 -0.866184743313943 0.49132065437609673
550787500.0 -0.8620645963216557 0.49826490684100394
559375000.0 -0.8581583200928051 0.5052079448491168
567962500.0 -0.8543812821518435 0.5123396164016919
576550000.0 -0.8498812286381496 0.5191517326417454
585137500.0 -0.8455790763125204 0.5258637644218378
593725000.0 -0.8410904742135843 0.5327624448633838
602312500.0 -0.8365009889627856 0.5392953345551732
610900000.0 -0.8320946467669923 0.5458064340610335
619487500.0 -0.8273998787363775 0.5530561139714539
628075000.0 -0.8229604120125702 0.559478252553543
636662500.0 -0.8185198909023678 0.5663124814851286
645250000.0 -0.8137892345317667 0.5729760649375505
653837500.0 -0.8092775201941879 0.5796467444501171
662425000.0 -0.8038459830541599 0.5859827526714504
671012500.0 -0.7995455532841478 0.5924722877737618
679600000.0 -0.7946875061784542 0.5990638710475806
688187500.0 -0.789947374442798 0.605228844803071
696775000.0 -0.7850548850681 0.6118260251115472
705362500.0 -0.7797615609442047 0.6180607913273181
713950000.0 -0.7745895856158852 0.6242308994973415
722537500.0 -0.7696408089007368 0.6303202525802756
731125000.0 -0.7646780729906437 0.6368152898676268
739712500.0 -0.7593029293618723 0.6432613065994979
748300000.0 -0.7539009676055902 0.6489430428021307
756887500.0 -0.7488326293891924 0.6550555232429783
765475000.0 -0.74352714867562 0.6611777230243195
774062500.0 -0.7378517663145178 0.6669945958411567
782650000.0 -0.7325761840224762 0.6731284872120905
791237500.0 -0.7270045130111704 0.678759467382403
799825000.0 -0.7213487871019809 0.6848426013858897
808412500.0 -0.7158127999780683 0.6904530638783215
817000000.0 -0.7101069200176927 0.6958890251432818
825587500.0 -0.7041822699491078 0.7017999717273253
834175000.0 -0.6985419899296966 0.7074290053196264
842762500.0 -0.6928876308006212 0.7128658456085716
851350000.0 -0.6868495013529385 0.7188688523630704
859937500.0 -0.6812722316215901 0.7241775132361089
868525000.0 -0.6750297869494236 0.7297307949722704
877112500.0 -0.6692472263187438 0.735056435587555
885700000.0 -0.6632286933723462 0.7403063628497727
894287500.0 -0.6571804190467957 0.7457563030069987
902875000.0 -0.6513484496711416 0.7508108039848183
911462500.0 -0.645179783291237 0.7563762709096821
920050000.0 -0.6391049497603146 0.7610818006376511
928637500.0 -0.6327538309220265 0.7663159168890243
937225000.0 -0.6268246590396145 0.7715562316046127
945812500.0 -0.6202059221633683 0.7764704403807728
954400000.0 -0.6140245174191372 0.7813866075796367
962987500.0 -0.6075392097923175 0.7865229140374234
971575000.0 -0.6012925385173206 0.7912587753407292
980162500.0 -0.5951449836947335 0.7961530968023763
988750000.0 -0.5887336260333833 0.800923146131603
997337500.0 -0.5816623919596932 0.8055632737948091
1005925000.0 -0.5755439881272248 0.8098320091415332
1014512500.0 -0.5688017673392194 0.8148983015913491
1023100000.0 -0.562305348503615 0.8191753717656628
1031687500.0 -0.5557201589839361 0.8238890171252786
1040275000.0 -0.5486731917832117 0.828034917056614
1048862500.0 -0.5423297850259337 0.8322228615579618
1057450000.0 -0.5354659976585111 0.8366226059835692
1066037500.0 -0.528466939063278 0.8411479371851197
1074625000.0 -0.5218848683268713 0.8454974398718088
1083212500.0 -0.5149748730533219 0.8493935187400447
1091800000.0 -0.5080801624720961 0.8535157322252538
1100387500.0 -0.5010163045128047 0.8579009734507834
1108975000.0 -0.4940408747732262 0.8614157811981046
1117562500.0 -0.48725765228913664 0.8656197742971439
1126150000.0 -0.4803189905967257 0.8695999940990227
1134737500.0 -0.4729377936423761 0.8732463962127837
1143325000.0 -0.4662860036516086 0.8774255595840553
1151912500.0 -0.4592219666671106 0.8810186892538229
1160500000.0 -0.4519679678397316 0.8843941388202329
1169087500.0 -0.444646421525137 0.8881334394687777
1177675000.0 -0.4384968367597503 0.8923710174943371
1186262500.0 -0.4306476036426229 0.8954293428359975
1194850000.0 -0.42265099887250934 0.8975627080060595
1203437500.0 -0.4157963856102183 0.9018438099929668
1212025000.0 -0.4089251116306316 0.9053053777692123
1220612500.0 -0.40149298831499236 0.9085327672319263
1229200000.0 -0.3936859204550819 0.9114566152101421
1237787500.0 -0.3864870062859142 0.9145555548824218
1246375000.0 -0.3791668848737876 0.9176976133330109
1254962500.0 -0.37150064522984283 0.9207763620111591
1263550000.0 -0.36431818511922276 0.9233887055029901
1272137500.0 -0.3568626701970339 0.9267510208661773
1280725000.0 -0.3489656620731477 0.9292172264222556
1289312500.0 -0.34191084568312136 0.9321183860616784
1297900000.0 -0.33401230881418725 0.9346288310233634
1306487500.0 -0.3268209812734109 0.9372223659729189
1315075000.0 -0.31940462870743835 0.9398694700418728
1323662500.0 -0.3117683849055759 0.9423364807419731
1332250000.0 -0.304269717689156 0.9449547782024672
1340837500.0 -0.29640914150044295 0.9472298582247062
1349425000.0 -0.2889040100281717 0.9492744809961444
1358012500.0 -0.2810055795305278 0.9516693225996042
1366600000.0 -0.27353594237664 0.9540145516908812
1375187500.0 -0.2658490786340165 0.9560055884238995
1383775000.0 -0.25805782489503976 0.9581846962387588
1392362500.0 -0.250569471329109 0.9602206264745639
1400950000.0 -0.24265205869865383 0.962212759151811
1409537500.0 -0.235322743503636 0.9640587417125395
1418125000.0 -0.2275542503953793 0.9660788110811152
1426712500.0 -0.21919823611377187 0.9678482637125251
1435300000.0 -0.21194771538324836 0.9694237907998435
1443887500.0 -0.20386118154471009 0.9713959606764088
1452475000.0 -0.1962399815517621 0.9727944534477243
1461062500.0 -0.18858057965887012 0.973845765432925
1469650000.0 -0.18077681336619048 0.9754770112490346
1478237500.0 -0.17251968219408234 0.9770754654744482
1486825000.0 -0.16493773221468197 0.9783075179963135
1495412500.0 -0.1567082363980339 0.9794300610586215
1504000000.0 -0.14922520807322603 0.9807497430136832
1512587500.0 -0.14166342490481573 0.981994203462993
1521175000.0 -0.13333821090170994 0.9832412310029295
1529762500.0 -0.12585209341567719 0.9840363319029033
1538350000.0 -0.11776918262719326 0.9850867466961721
1546937500.0 -0.11004351520609132 0.9861475978051725
1555525000.0 -0.10200189761253604 0.9866145690101535
1564112500.0 -0.09393065700827657 0.9876656023830164
1572700000.0 -0.08627660662311497 0.9881502060295935
1581287500.0 -0.07819532661089733 0.988591173584863
1589875000.0 -0.07025349668663584 0.989383952614033
1598462500.0 -0.06264413811928934 0.9897093969920063
1607050000.0 -0.05456432425044974 0.9904223227845961
1615637500.0 -0.04640623218056414 0.9906151722948381
1624225000.0 -0.0386588427690673 0.9913058172411793
1632812500.0 -0.030539675035633703 0.9914120790465211
1641400000.0 -0.02294896627974261 0.9915457402671606
1649987500.0 -0.014682602216732364 0.9916087117250889
1658575000.0 -0.006934071004564666 0.9917326202894298
1667162500.0 0.0011221781027459083 0.9918095692016776
1675750000.0 0.008834227613581276 0.9915256495916637
1684337500.0 0.016973509481976352 0.9916816754098139
1692925000.0 0.024973920042781476 0.991399141022938
1701512500.0 0.0329838679725567 0.9909130981276278
1710100000.0 0.041022878680910105 0.9907682231769295
1718687500.0 0.04869963581112069 0.9905515057028488
1727275000.0 0.05654189938023923 0.9898610591902469
1735862500.0 0.06456176771974079 0.9893173574486284
1744450000.0 0.07215462413112113 0.9884639154642343
1753037500.0 0.08009166045724833 0.9879410877358797
1761625000.0 0.08792483394277725 0.9874680262721889
1770212500.0 0.09570494148786533 0.9866213241918601
1778800000.0 0.10374724800201082 0.9858949951184056
1787387500.0 0.11149393787412748 0.9848080986663402
1795975000.0 0.1195160721003952 0.9839611070719214
1804562500.0 0.12748679236406948 0.9830569130653488
1813150000.0 0.13515620775288106 0.9821457590879555
1821737500.0 0.1427485758658681 0.9808162383625368
1830325000.0 0.15075848507164624 0.9795039085839642
1838912500.0 0.1586755516458078 0.9785798463487358
1847500000.0 0.16640526621751933 0.9770641781745272
1856087500.0 0.17406387290403558 0.9755654215048266
1864675000.0 0.18202967240460086 0.9740943727536778
1873262500.0 0.18950671988887485 0.972751634512019
1881850000.0 0.19744961739749675 0.970978611790143
1890437500.0 0.20498472487243183 0.9698476891986054
1899025000.0 0.2128034569788583 0.9680614693027004
1907612500.0 0.22070590884663416 0.9667933842919403
1916200000.0 0.22868080280477054 0.9648073897703489
1924787500.0 0.23608659798044385 0.9619727717263237
1933375000.0 0.24357342155407485 0.9605206617419944
1941962500.0 0.25108827495275676 0.9586721835181345
1950550000.0 0.2588111521081909 0.9565489248744566
1959137500.0 0.2662915469079972 0.954346301803269
1967725000.0 0.27389343958406576 0.952611263254834
1976312500.0 0.2815074572380552 0.95035590457981
1984900000.0 0.2891223911992579 0.9478324812121183
1993487500.0 0.2967114808734548 0.9455607813584227
2002075000.0 0.30419115885242703 0.9429567547703859
2010662500.0 0.31187383019284254 0.9407375846898965
2019250000.0 0.3191532233085577 0.9381105550498758
2027837500.0 0.3264655046176269 0.9356566516013012
2036425000.0 0.3340062579872565 0.9330673299609175
2045012500.0 0.3413000897243541 0.9302921573117887
2053600000.0 0.34899933399825595 0.9273482006243121
2062187500.0 0.35607010755084517 0.9245424367918532
2070775000.0 0.3634352359416493 0.9215401601088105
2079362500.0 0.3707096085142811 0.9188098974660732
2087950000.0 0.3779453136738334 0.9156294045936513
2096537500.0 0.38558414540653096 0.9127977196991041
2105125000.0 0.39258083277044037 0.9095712730828885
2113712500.0 0.3996957507854958 0.9061723980311736
2122300000.0 0.4068100823067123 0.9028382667853115
2130887500.0 0.41425658028324247 0.8995799059926551
2139475000.0 0.4213795533515405 0.8960572024479592
2148062500.0 0.42875367223087063 0.8930365250810746
2156650000.0 0.435724042446452 0.889668406128382
2165237500.0 0.44202436513638743 0.8860669526926639
2173825000.0 0.44904083276146467 0.8824492459856877
2182412500.0 0.45644097581171655 0.8785953670987353
2191000000.0 0.4628857064126325 0.8751997918513931
2199587500.0 0.4702779021021924 0.8718246286564261
2208175000.0 0.47683035369558086 0.8676150543699495
2216762500.0 0.48401721676128734 0.863926235349897
2225350000.0 0.49061655943866994 0.8599109753111671
2233937500.0 0.4979094995652904 0.8560563019783061
2242525000.0 0.5044639216639202 0.8520182468162991
2251112500.0 0.5112359316555308 0.8477008211587749
2259700000.0 0.517676972351819 0.8440425115781347
2268287500.0 0.5243984372227691 0.8400054052646709
2276875000.0 0.5309975482211982 0.8356455751383013
2285462500.0 0.537560870647453 0.8313475437549555
2294050000.0 0.5441025408548211 0.8270654207529577
2302637500.0 0.5506662547439182 0.8228828694082427
2311225000.0 0.5574188553130097 0.8186824983239643
2319812500.0 0.5636748638624131 0.8137890290753997
2328400000.0 0.5703504404424001 0.8097208056080512
2336987500.0 0.5764541101065058 0.805073710726332
2345575000.0 0.5828108788431066 0.8002410327666454
2354162500.0 0.5889503409612911 0.7956004770964946
2362750000.0 0.595433776650692 0.7911077339673481
2371337500.0 0.6015620541024483 0.7862449698348711
2379925000.0 0.6080242262166751 0.7813414435695032
2388512500.0 0.6144246926713121 0.7764958501207867
2397100000.0 0.6203363485627865 0.7715713566825236
2405687500.0 0.6265836306082242 0.7665785556368242
2414275000.0 0.6324617959577515 0.7617568965727137
2422862500.0 0.6385493895097515 0.7567163877253038
2431450000.0 0.6448017922636619 0.7516045757280584
2440037500.0 0.6507053713226436 0.7463145580123567
2448625000.0 0.6562801194551287 0.7413629927141477
2457212500.0 0.6624003448356541 0.7357900143481194
2465800000.0 0.6680763256852587 0.7309361019202326
2474387500.0 0.6739523204217649 0.7253372881234901
2482975000.0 0.6796642150852448 0.7200674599704717
2491562500.0 0.6852163727181335 0.7145293750135863
2500150000.0 0.6908290792578597 0.7092452702952672
2508737500.0 0.6962907442039538 0.7034808367104689
2517325000.0 0.7016809781814054 0.6978609148400536
2525912500.0 0.7070941743993834 0.6921951759067833
2534500000.0 0.7126654395891437 0.686405713169308
2543087500.0 0.718323255521642 0.6810421410214689
2551675000.0 0.7232896928129368 0.6755330220027783
2560262500.0 0.7287503145824455 0.6695727003836686
2568850000.0 0.7338759251285327 0.6640160955982568
2577437500.0 0.7391462093711174 0.6579945008721145
2586025000.0 0.7445419034811652 0.651937229920146
2594612500.0 0.7499277271924161 0.6463157515270644
2603200000.0 0.7549028363782557 0.640394340009284
2611787500.0 0.7594759033474789 0.6339783724475654
2620375000.0 0.7650454669741295 0.6281126132304485
2628962500.0 0.7697834189235395 0.6218526694750458
2637550000.0 0.7746410003576493 0.6164668244521355
2646137500.0 0.7793599662544443 0.6101338776139277
2654725000.0 0.7841277196945475 0.6035784018426944
2663312500.0 0.7892251704214989 0.5976980682971915
2671900000.0 0.7938398313203459 0.5915870517659393
2680487500.0 0.7983976624478142 0.5849954111303616
2689075000.0 0.802960944223654 0.5785778633451756
2697662500.0 0.8071718962204687 0.5724198484407182
2706250000.0 0.8119077896536072 0.566057989606113
2714837500.0 0.8163352570319579 0.5594500146565526
2723425000.0 0.8207185746316236 0.5531346639996604
2732012500.0 0.8250825223064417 0.5467156533809163
2740600000.0 0.8293602626769314 0.5403237092879216
2749187500.0 0.8333643168197591 0.5337331837789184
2757775000.0 0.8376510027988988 0.5268945150289168
2766362500.0 0.8416344652697982 0.5202027197783545
2774950000.0 0.8461830857130358 0.513516983250754
2783537500.0 0.8502414887938524 0.507037134305369
2792125000.0 0.8543543200870257 0.5000589353198238
2800712500.0 0.8580123839875413 0.4931039643090718
2809300000.0 0.8619064253446268 0.4862022284055523
2817887500.0 0.8658099755316855 0.4795991581691209
2826475000.0 0.8693346277445471 0.47270105942329005
2835062500.0 0.8732639324688622 0.46585685866731125
2843650000.0 0.8768614156887073 0.45925779360808117
2852237500.0 0.8803872844720229 0.4518679622471722
2860825000.0 0.8839631071763735 0.44507164952085837
2869412500.0 0.8880007369612157 0.437810327621324
2878000000.0 0.8911413051772165 0.43098766901350716
2886587500.0 0.8943818707666925 0.42330872016547244
2895175000.0 0.8979381343330853 0.4161856340427788
2903762500.0 0.9010585516224553 0.4092744544632113
2912350000.0 0.9043767354564948 0.40220531628829653
2920937500.0 0.9072534841144622 0.3951575168858056
2929525000.0 0.9107699125354328 0.38789501770734985
2938112500.0 0.9134187909649946 0.38066767180212024
2946700000.0 0.9163459914855289 0.37337406710713067
2955287500.0 0.9195089530820346 0.3660583117654344
2963875000.0 0.9237170798094297 0.3606295151018164
2972462500.0 0.9263625267996836 0.3526295462131513
2981050000.0 0.928064304979117 0.344374875580909
2989637500.0 0.9306206929395096 0.3374790815109759
2998225000.0 0.9322638688435068 0.33047419229223196
3006812500.0 0.9340686399713345 0.3237468913512136
3015400000.0 0.937767575755165 0.3156069105786171
3023987500.0 0.9400450518295806 0.308047702500467
3032575000.0 0.9424266009515917 0.30020557511502605
3041162500.0 0.9450330488475076 0.29314376369276507
3049750000.0 0.9476233336725913 0.28593667935655925
3058337500.0 0.9497618611095721 0.27810135328653685
3066925000.0 0.951772080862939 0.2704685733399584
3075512500.0 0.953942463180972 0.26292812674126365
3084100000.0 0.9562656345162178 0.2554569903733101
3092687500.0 0.9578307408288372 0.2481849749456401
3101275000.0 0.9599918001681058 0.24053512216496772
3109862500.0 0.9619270149164448 0.23317929330627693
3118450000.0 0.963541329984509 0.22565753989729026
3127037500.0 0.9658298866136457 0.21737131467645246
3135625000.0 0.9674401495385876 0.21002391216958347
3144212500.0 0.969100120429704 0.20240707492704785
3152800000.0 0.9704769539869822 0.1950615151215609
3161387500.0 0.9719116662903112 0.18680259354263115
3169975000.0 0.9733857757798742 0.1794675782701129
3178562500.0 0.975185830135024 0.17256649273533836
3187150000.0 0.9773011607915078 0.1638780228779269
3195737500.0 0.9784281770921529 0.15637852007973338
3204325000.0 0.9794200835967461 0.14847020016047452
3212912500.0 0.979635821047171 0.1413982201995279
3221500000.0 0.9808434933550211 0.1337832596857515
3230087500.0 0.9817392469210305 0.12519282548033886
3238675000.0 0.9825629880038906 0.11740904361382967
3247262500.0 0.9833211196910178 0.10982569027796162
3255850000.0 0.9847203913299639 0.10198217135626972
3264437500.0 0.9848102746174665 0.09393931114755921
3273025000.0 0.9864998814454422 0.08608315386499844
3281612500.0 0.9873864364264987 0.07855103567273823
3290200000.0 0.9875261582921582 0.07074139769396154
3298787500.0 0.9879110301377897 0.06346811036918718
3307375000.0 0.9885700866011504 0.05498354952654685
3315962500.0 0.9888905674407844 0.04715268552827459
3324550000.0 0.9889997700586608 0.039780894224335464
3333137500.0 0.9895579337431317 0.03202182756267008
3341725000.0 0.9897781424605315 0.02425394349805953
3350312500.0 0.9894529623804068 0.016337054099782596
3358900000.0 0.9901379755486045 0.008576997157693483
3367487500.0 0.9902907731788131 0.00046383942421623263
3376075000.0 0.9898650036165201 -0.006527784694491157
3384662500.0 0.9897755059322314 -0.01504799519954478
3393250000.0 0.9897230265733639 -0.022436523694790076
3401837500.0 0.9890907861182229 -0.030418839592613666
3410425000.0 0.9887832260169046 -0.038284789749429206
3419012500.0 0.9887790321586835 -0.046177364227691114
3427600000.0 0.9885320544287479 -0.05379914668971581
3436187500.0 0.9875811208871903 -0.06171679159850732
