CITIFILE A.01.01
NAME DATA
VAR FREQ MAG 801
DATA S[2,1] RI
VAR_LIST_BEGIN
1.3000000000e+008
1.3858750000e+008
1.4717500000e+008
1.5576250000e+008
1.6435000000e+008
1.7293750000e+008
1.8152500000e+008
1.9011250000e+008
1.9870000000e+008
2.0728750000e+008
2.1587500000e+008
2.2446250000e+008
2.3305000000e+008
2.4163750000e+008
2.5022500000e+008
2.5881250000e+008
2.6740000000e+008
2.7598750000e+008
2.8457500000e+008
2.9316250000e+008
3.0175000000e+008
3.1033750000e+008
3.1892500000e+008
3.2751250000e+008
3.3610000000e+008
3.4468750000e+008
3.5327500000e+008
3.6186250000e+008
3.7045000000e+008
3.7903750000e+008
3.8762500000e+008
3.9621250000e+008
4.0480000000e+008
4.1338750000e+008
4.2197500000e+008
4.3056250000e+008
4.3915000000e+008
4.4773750000e+008
4.5632500000e+008
4.6491250000e+008
4.7350000000e+008
4.8208750000e+008
4.9067500000e+008
4.9926250000e+008
5.0785000000e+008
5.1643750000e+008
5.2502500000e+008
5.3361250000e+008
5.4220000000e+008
5.5078750000e+008
5.5937500000e+008
5.6796250000e+008
5.7655000000e+008
5.8513750000e+008
5.9372500000e+008
6.0231250000e+008
6.1090000000e+008
6.1948750000e+008
6.2807500000e+008
6.3666250000e+008
6.4525000000e+008
6.5383750000e+008
6.6242500000e+008
6.7101250000e+008
6.7960000000e+008
6.8818750000e+008
6.9677500000e+008
7.0536250000e+008
7.1395000000e+008
7.2253750000e+008
7.3112500000e+008
7.3971250000e+008
7.4830000000e+008
7.5688750000e+008
7.6547500000e+008
7.7406250000e+008
7.8265000000e+008
7.9123750000e+008
7.9982500000e+008
8.0841250000e+008
8.1700000000e+008
8.2558750000e+008
8.3417500000e+008
8.4276250000e+008
8.5135000000e+008
8.5993750000e+008
8.6852500000e+008
8.7711250000e+008
8.8570000000e+008
8.9428750000e+008
9.0287500000e+008
9.1146250000e+008
9.2005000000e+008
9.2863750000e+008
9.3722500000e+008
9.4581250000e+008
9.5440000000e+008
9.6298750000e+008
9.7157500000e+008
9.8016250000e+008
9.8875000000e+008
9.9733750000e+008
1.0059250000e+009
1.0145125000e+009
1.0231000000e+009
1.0316875000e+009
1.0402750000e+009
1.0488625000e+009
1.0574500000e+009
1.0660375000e+009
1.0746250000e+009
1.0832125000e+009
1.0918000000e+009
1.1003875000e+009
1.1089750000e+009
1.1175625000e+009
1.1261500000e+009
1.1347375000e+009
1.1433250000e+009
1.1519125000e+009
1.1605000000e+009
1.1690875000e+009
1.1776750000e+009
1.1862625000e+009
1.1948500000e+009
1.2034375000e+009
1.2120250000e+009
1.2206125000e+009
1.2292000000e+009
1.2377875000e+009
1.2463750000e+009
1.2549625000e+009
1.2635500000e+009
1.2721375000e+009
1.2807250000e+009
1.2893125000e+009
1.2979000000e+009
1.3064875000e+009
1.3150750000e+009
1.3236625000e+009
1.3322500000e+009
1.3408375000e+009
1.3494250000e+009
1.3580125000e+009
1.3666000000e+009
1.3751875000e+009
1.3837750000e+009
1.3923625000e+009
1.4009500000e+009
1.4095375000e+009
1.4181250000e+009
1.4267125000e+009
1.4353000000e+009
1.4438875000e+009
1.4524750000e+009
1.4610625000e+009
1.4696500000e+009
1.4782375000e+009
1.4868250000e+009
1.4954125000e+009
1.5040000000e+009
1.5125875000e+009
1.5211750000e+009
1.5297625000e+009
1.5383500000e+009
1.5469375000e+009
1.5555250000e+009
1.5641125000e+009
1.5727000000e+009
1.5812875000e+009
1.5898750000e+009
1.5984625000e+009
1.6070500000e+009
1.6156375000e+009
1.6242250000e+009
1.6328125000e+009
1.6414000000e+009
1.6499875000e+009
1.6585750000e+009
1.6671625000e+009
1.6757500000e+009
1.6843375000e+009
1.6929250000e+009
1.7015125000e+009
1.7101000000e+009
1.7186875000e+009
1.7272750000e+009
1.7358625000e+009
1.7444500000e+009
1.7530375000e+009
1.7616250000e+009
1.7702125000e+009
1.7788000000e+009
1.7873875000e+009
1.7959750000e+009
1.8045625000e+009
1.8131500000e+009
1.8217375000e+009
1.8303250000e+009
1.8389125000e+009
1.8475000000e+009
1.8560875000e+009
1.8646750000e+009
1.8732625000e+009
1.8818500000e+009
1.8904375000e+009
1.8990250000e+009
1.9076125000e+009
1.9162000000e+009
1.9247875000e+009
1.9333750000e+009
1.9419625000e+009
1.9505500000e+009
1.9591375000e+009
1.9677250000e+009
1.9763125000e+009
1.9849000000e+009
1.9934875000e+009
2.0020750000e+009
2.0106625000e+009
2.0192500000e+009
2.0278375000e+009
2.0364250000e+009
2.0450125000e+009
2.0536000000e+009
2.0621875000e+009
2.0707750000e+009
2.0793625000e+009
2.0879500000e+009
2.0965375000e+009
2.1051250000e+009
2.1137125000e+009
2.1223000000e+009
2.1308875000e+009
2.1394750000e+009
2.1480625000e+009
2.1566500000e+009
2.1652375000e+009
2.1738250000e+009
2.1824125000e+009
2.1910000000e+009
2.1995875000e+009
2.2081750000e+009
2.2167625000e+009
2.2253500000e+009
2.2339375000e+009
2.2425250000e+009
2.2511125000e+009
2.2597000000e+009
2.2682875000e+009
2.2768750000e+009
2.2854625000e+009
2.2940500000e+009
2.3026375000e+009
2.3112250000e+009
2.3198125000e+009
2.3284000000e+009
2.3369875000e+009
2.3455750000e+009
2.3541625000e+009
2.3627500000e+009
2.3713375000e+009
2.3799250000e+009
2.3885125000e+009
2.3971000000e+009
2.4056875000e+009
2.4142750000e+009
2.4228625000e+009
2.4314500000e+009
2.4400375000e+009
2.4486250000e+009
2.4572125000e+009
2.4658000000e+009
2.4743875000e+009
2.4829750000e+009
2.4915625000e+009
2.5001500000e+009
2.5087375000e+009
2.5173250000e+009
2.5259125000e+009
2.5345000000e+009
2.5430875000e+009
2.5516750000e+009
2.5602625000e+009
2.5688500000e+009
2.5774375000e+009
2.5860250000e+009
2.5946125000e+009
2.6032000000e+009
2.6117875000e+009
2.6203750000e+009
2.6289625000e+009
2.6375500000e+009
2.6461375000e+009
2.6547250000e+009
2.6633125000e+009
2.6719000000e+009
2.6804875000e+009
2.6890750000e+009
2.6976625000e+009
2.7062500000e+009
2.7148375000e+009
2.7234250000e+009
2.7320125000e+009
2.7406000000e+009
2.7491875000e+009
2.7577750000e+009
2.7663625000e+009
2.7749500000e+009
2.7835375000e+009
2.7921250000e+009
2.8007125000e+009
2.8093000000e+009
2.8178875000e+009
2.8264750000e+009
2.8350625000e+009
2.8436500000e+009
2.8522375000e+009
2.8608250000e+009
2.8694125000e+009
2.8780000000e+009
2.8865875000e+009
2.8951750000e+009
2.9037625000e+009
2.9123500000e+009
2.9209375000e+009
2.9295250000e+009
2.9381125000e+009
2.9467000000e+009
2.9552875000e+009
2.9638750000e+009
2.9724625000e+009
2.9810500000e+009
2.9896375000e+009
2.9982250000e+009
3.0068125000e+009
3.0154000000e+009
3.0239875000e+009
3.0325750000e+009
3.0411625000e+009
3.0497500000e+009
3.0583375000e+009
3.0669250000e+009
3.0755125000e+009
3.0841000000e+009
3.0926875000e+009
3.1012750000e+009
3.1098625000e+009
3.1184500000e+009
3.1270375000e+009
3.1356250000e+009
3.1442125000e+009
3.1528000000e+009
3.1613875000e+009
3.1699750000e+009
3.1785625000e+009
3.1871500000e+009
3.1957375000e+009
3.2043250000e+009
3.2129125000e+009
3.2215000000e+009
3.2300875000e+009
3.2386750000e+009
3.2472625000e+009
3.2558500000e+009
3.2644375000e+009
3.2730250000e+009
3.2816125000e+009
3.2902000000e+009
3.2987875000e+009
3.3073750000e+009
3.3159625000e+009
3.3245500000e+009
3.3331375000e+009
3.3417250000e+009
3.3503125000e+009
3.3589000000e+009
3.3674875000e+009
3.3760750000e+009
3.3846625000e+009
3.3932500000e+009
3.4018375000e+009
3.4104250000e+009
3.4190125000e+009
3.4276000000e+009
3.4361875000e+009
3.4447750000e+009
3.4533625000e+009
3.4619500000e+009
3.4705375000e+009
3.4791250000e+009
3.4877125000e+009
3.4963000000e+009
3.5048875000e+009
3.5134750000e+009
3.5220625000e+009
3.5306500000e+009
3.5392375000e+009
3.5478250000e+009
3.5564125000e+009
3.5650000000e+009
3.5735875000e+009
3.5821750000e+009
3.5907625000e+009
3.5993500000e+009
3.6079375000e+009
3.6165250000e+009
3.6251125000e+009
3.6337000000e+009
3.6422875000e+009
3.6508750000e+009
3.6594625000e+009
3.6680500000e+009
3.6766375000e+009
3.6852250000e+009
3.6938125000e+009
3.7024000000e+009
3.7109875000e+009
3.7195750000e+009
3.7281625000e+009
3.7367500000e+009
3.7453375000e+009
3.7539250000e+009
3.7625125000e+009
3.7711000000e+009
3.7796875000e+009
3.7882750000e+009
3.7968625000e+009
3.8054500000e+009
3.8140375000e+009
3.8226250000e+009
3.8312125000e+009
3.8398000000e+009
3.8483875000e+009
3.8569750000e+009
3.8655625000e+009
3.8741500000e+009
3.8827375000e+009
3.8913250000e+009
3.8999125000e+009
3.9085000000e+009
3.9170875000e+009
3.9256750000e+009
3.9342625000e+009
3.9428500000e+009
3.9514375000e+009
3.9600250000e+009
3.9686125000e+009
3.9772000000e+009
3.9857875000e+009
3.9943750000e+009
4.0029625000e+009
4.0115500000e+009
4.0201375000e+009
4.0287250000e+009
4.0373125000e+009
4.0459000000e+009
4.0544875000e+009
4.0630750000e+009
4.0716625000e+009
4.0802500000e+009
4.0888375000e+009
4.0974250000e+009
4.1060125000e+009
4.1146000000e+009
4.1231875000e+009
4.1317750000e+009
4.1403625000e+009
4.1489500000e+009
4.1575375000e+009
4.1661250000e+009
4.1747125000e+009
4.1833000000e+009
4.1918875000e+009
4.2004750000e+009
4.2090625000e+009
4.2176500000e+009
4.2262375000e+009
4.2348250000e+009
4.2434125000e+009
4.2520000000e+009
4.2605875000e+009
4.2691750000e+009
4.2777625000e+009
4.2863500000e+009
4.2949375000e+009
4.3035250000e+009
4.3121125000e+009
4.3207000000e+009
4.3292875000e+009
4.3378750000e+009
4.3464625000e+009
4.3550500000e+009
4.3636375000e+009
4.3722250000e+009
4.3808125000e+009
4.3894000000e+009
4.3979875000e+009
4.4065750000e+009
4.4151625000e+009
4.4237500000e+009
4.4323375000e+009
4.4409250000e+009
4.4495125000e+009
4.4581000000e+009
4.4666875000e+009
4.4752750000e+009
4.4838625000e+009
4.4924500000e+009
4.5010375000e+009
4.5096250000e+009
4.5182125000e+009
4.5268000000e+009
4.5353875000e+009
4.5439750000e+009
4.5525625000e+009
4.5611500000e+009
4.5697375000e+009
4.5783250000e+009
4.5869125000e+009
4.5955000000e+009
4.6040875000e+009
4.6126750000e+009
4.6212625000e+009
4.6298500000e+009
4.6384375000e+009
4.6470250000e+009
4.6556125000e+009
4.6642000000e+009
4.6727875000e+009
4.6813750000e+009
4.6899625000e+009
4.6985500000e+009
4.7071375000e+009
4.7157250000e+009
4.7243125000e+009
4.7329000000e+009
4.7414875000e+009
4.7500750000e+009
4.7586625000e+009
4.7672500000e+009
4.7758375000e+009
4.7844250000e+009
4.7930125000e+009
4.8016000000e+009
4.8101875000e+009
4.8187750000e+009
4.8273625000e+009
4.8359500000e+009
4.8445375000e+009
4.8531250000e+009
4.8617125000e+009
4.8703000000e+009
4.8788875000e+009
4.8874750000e+009
4.8960625000e+009
4.9046500000e+009
4.9132375000e+009
4.9218250000e+009
4.9304125000e+009
4.9390000000e+009
4.9475875000e+009
4.9561750000e+009
4.9647625000e+009
4.9733500000e+009
4.9819375000e+009
4.9905250000e+009
4.9991125000e+009
5.0077000000e+009
5.0162875000e+009
5.0248750000e+009
5.0334625000e+009
5.0420500000e+009
5.0506375000e+009
5.0592250000e+009
5.0678125000e+009
5.0764000000e+009
5.0849875000e+009
5.0935750000e+009
5.1021625000e+009
5.1107500000e+009
5.1193375000e+009
5.1279250000e+009
5.1365125000e+009
5.1451000000e+009
5.1536875000e+009
5.1622750000e+009
5.1708625000e+009
5.1794500000e+009
5.1880375000e+009
5.1966250000e+009
5.2052125000e+009
5.2138000000e+009
5.2223875000e+009
5.2309750000e+009
5.2395625000e+009
5.2481500000e+009
5.2567375000e+009
5.2653250000e+009
5.2739125000e+009
5.2825000000e+009
5.2910875000e+009
5.2996750000e+009
5.3082625000e+009
5.3168500000e+009
5.3254375000e+009
5.3340250000e+009
5.3426125000e+009
5.3512000000e+009
5.3597875000e+009
5.3683750000e+009
5.3769625000e+009
5.3855500000e+009
5.3941375000e+009
5.4027250000e+009
5.4113125000e+009
5.4199000000e+009
5.4284875000e+009
5.4370750000e+009
5.4456625000e+009
5.4542500000e+009
5.4628375000e+009
5.4714250000e+009
5.4800125000e+009
5.4886000000e+009
5.4971875000e+009
5.5057750000e+009
5.5143625000e+009
5.5229500000e+009
5.5315375000e+009
5.5401250000e+009
5.5487125000e+009
5.5573000000e+009
5.5658875000e+009
5.5744750000e+009
5.5830625000e+009
5.5916500000e+009
5.6002375000e+009
5.6088250000e+009
5.6174125000e+009
5.6260000000e+009
5.6345875000e+009
5.6431750000e+009
5.6517625000e+009
5.6603500000e+009
5.6689375000e+009
5.6775250000e+009
5.6861125000e+009
5.6947000000e+009
5.7032875000e+009
5.7118750000e+009
5.7204625000e+009
5.7290500000e+009
5.7376375000e+009
5.7462250000e+009
5.7548125000e+009
5.7634000000e+009
5.7719875000e+009
5.7805750000e+009
5.7891625000e+009
5.7977500000e+009
5.8063375000e+009
5.8149250000e+009
5.8235125000e+009
5.8321000000e+009
5.8406875000e+009
5.8492750000e+009
5.8578625000e+009
5.8664500000e+009
5.8750375000e+009
5.8836250000e+009
5.8922125000e+009
5.9008000000e+009
5.9093875000e+009
5.9179750000e+009
5.9265625000e+009
5.9351500000e+009
5.9437375000e+009
5.9523250000e+009
5.9609125000e+009
5.9695000000e+009
5.9780875000e+009
5.9866750000e+009
5.9952625000e+009
6.0038500000e+009
6.0124375000e+009
6.0210250000e+009
6.0296125000e+009
6.0382000000e+009
6.0467875000e+009
6.0553750000e+009
6.0639625000e+009
6.0725500000e+009
6.0811375000e+009
6.0897250000e+009
6.0983125000e+009
6.1069000000e+009
6.1154875000e+009
6.1240750000e+009
6.1326625000e+009
6.1412500000e+009
6.1498375000e+009
6.1584250000e+009
6.1670125000e+009
6.1756000000e+009
6.1841875000e+009
6.1927750000e+009
6.2013625000e+009
6.2099500000e+009
6.2185375000e+009
6.2271250000e+009
6.2357125000e+009
6.2443000000e+009
6.2528875000e+009
6.2614750000e+009
6.2700625000e+009
6.2786500000e+009
6.2872375000e+009
6.2958250000e+009
6.3044125000e+009
6.3130000000e+009
6.3215875000e+009
6.3301750000e+009
6.3387625000e+009
6.3473500000e+009
6.3559375000e+009
6.3645250000e+009
6.3731125000e+009
6.3817000000e+009
6.3902875000e+009
6.3988750000e+009
6.4074625000e+009
6.4160500000e+009
6.4246375000e+009
6.4332250000e+009
6.4418125000e+009
6.4504000000e+009
6.4589875000e+009
6.4675750000e+009
6.4761625000e+009
6.4847500000e+009
6.4933375000e+009
6.5019250000e+009
6.5105125000e+009
6.5191000000e+009
6.5276875000e+009
6.5362750000e+009
6.5448625000e+009
6.5534500000e+009
6.5620375000e+009
6.5706250000e+009
6.5792125000e+009
6.5878000000e+009
6.5963875000e+009
6.6049750000e+009
6.6135625000e+009
6.6221500000e+009
6.6307375000e+009
6.6393250000e+009
6.6479125000e+009
6.6565000000e+009
6.6650875000e+009
6.6736750000e+009
6.6822625000e+009
6.6908500000e+009
6.6994375000e+009
6.7080250000e+009
6.7166125000e+009
6.7252000000e+009
6.7337875000e+009
6.7423750000e+009
6.7509625000e+009
6.7595500000e+009
6.7681375000e+009
6.7767250000e+009
6.7853125000e+009
6.7939000000e+009
6.8024875000e+009
6.8110750000e+009
6.8196625000e+009
6.8282500000e+009
6.8368375000e+009
6.8454250000e+009
6.8540125000e+009
6.8626000000e+009
6.8711875000e+009
6.8797750000e+009
6.8883625000e+009
6.8969500000e+009
6.9055375000e+009
6.9141250000e+009
6.9227125000e+009
6.9313000000e+009
6.9398875000e+009
6.9484750000e+009
6.9570625000e+009
6.9656500000e+009
6.9742375000e+009
6.9828250000e+009
6.9914125000e+009
7.0000000000e+009
VAR_LIST_END
BEGIN
-4.3357849121e-002,-8.5384368896e-002
-6.6703796387e-002,-7.6812744141e-002
-8.8878631592e-002,-6.1485290527e-002
-1.0671234131e-001,-4.0100097656e-002
-1.1923980713e-001,-1.3496398926e-002
-1.2505340576e-001,1.6860961914e-002
-1.2245941162e-001,4.8706054688e-002
-1.1181640625e-001,8.1176757813e-002
-9.2529296875e-002,1.1034393311e-001
-6.5521240234e-002,1.3481140137e-001
-3.1608581543e-002,1.5290069580e-001
6.7062377930e-003,1.6204833984e-001
4.7615051270e-002,1.6108703613e-001
8.8394165039e-002,1.4950561523e-001
1.2748718262e-001,1.2600708008e-001
1.5917205811e-001,9.4390869141e-002
1.8256378174e-001,5.4618835449e-002
1.9660949707e-001,8.7432861328e-003
1.9854736328e-001,-4.0740966797e-002
1.8786621094e-001,-9.0133666992e-002
1.6436004639e-001,-1.3632965088e-001
1.2990570068e-001,-1.7671203613e-001
8.4945678711e-002,-2.0834350586e-001
3.2669067383e-002,-2.2825622559e-001
-2.4719238281e-002,-2.3469543457e-001
-8.2824707031e-002,-2.2706604004e-001
-1.3850402832e-001,-2.0452880859e-001
-1.8867492676e-001,-1.6809082031e-001
-2.2889709473e-001,-1.1907958984e-001
-2.5633239746e-001,-6.0638427734e-002
-2.6799011230e-001,3.8604736328e-003
-2.6426696777e-001,6.9961547852e-002
-2.4354553223e-001,1.3427734375e-001
-2.0761108398e-001,1.9349670410e-001
-1.5776062012e-001,2.4269104004e-001
-9.5214843750e-002,2.7828979492e-001
-2.5329589844e-002,2.9840087891e-001
4.9133300781e-002,3.0023193359e-001
1.2260437012e-001,2.8375244141e-001
1.9058227539e-001,2.4839782715e-001
2.4877929688e-001,1.9760131836e-001
2.9298400879e-001,1.3270568848e-001
3.2020568848e-001,5.8456420898e-002
3.2910156250e-001,-2.1286010742e-002
3.1744384766e-001,-1.0081481934e-001
2.8718566895e-001,-1.7582702637e-001
2.3991394043e-001,-2.4133300781e-001
1.7872619629e-001,-2.9595947266e-001
1.0464477539e-001,-3.3555603027e-001
2.1163940430e-002,-3.5661315918e-001
-6.7199707031e-002,-3.5673522949e-001
-1.5412902832e-001,-3.3430480957e-001
-2.3335266113e-001,-2.9092407227e-001
-3.0128479004e-001,-2.2776794434e-001
-3.5153198242e-001,-1.4944458008e-001
-3.8165283203e-001,-6.0211181641e-002
-3.8964843750e-001,3.4729003906e-002
-3.7387084961e-001,1.3024902344e-001
-3.3422851563e-001,2.2016906738e-001
-2.7363586426e-001,2.9760742188e-001
-1.9551086426e-001,3.5806274414e-001
-1.0372924805e-001,3.9874267578e-001
-4.5166015625e-003,4.1580200195e-001
9.7717285156e-002,4.0859985352e-001
1.9503784180e-001,3.7606811523e-001
2.8279113770e-001,3.2011413574e-001
3.5551452637e-001,2.4407958984e-001
4.0759277344e-001,1.5173339844e-001
4.3527221680e-001,4.9499511719e-002
4.3811035156e-001,-5.7922363281e-002
4.1430664063e-001,-1.6513061523e-001
3.6541748047e-001,-2.6251220703e-001
2.9214477539e-001,-3.4529113770e-001
2.0123291016e-001,-4.0942382813e-001
9.6191406250e-002,-4.4845581055e-001
-1.5350341797e-002,-4.5993041992e-001
-1.2631225586e-001,-4.4515991211e-001
-2.3037719727e-001,-4.0432739258e-001
-3.2250976563e-001,-3.3897399902e-001
-3.9666748047e-001,-2.5280761719e-001
-4.4723510742e-001,-1.5170288086e-001
-4.7399902344e-001,-4.1473388672e-002
-4.7268676758e-001,7.2784423828e-002
-4.4561767578e-001,1.8521118164e-001
-3.9254760742e-001,2.8872680664e-001
-3.1408691406e-001,3.7805175781e-001
-2.1606445313e-001,4.4601440430e-001
-1.0214233398e-001,4.8934936523e-001
1.9714355469e-002,5.0433349609e-001
1.4077758789e-001,4.8715209961e-001
2.5582885742e-001,4.4113159180e-001
3.5702514648e-001,3.6865234375e-001
4.3765258789e-001,2.7319335938e-001
4.9359130859e-001,1.6018676758e-001
5.2111816406e-001,3.7139892578e-002
5.1739501953e-001,-9.0423583984e-002
4.8394775391e-001,-2.1279907227e-001
4.1995239258e-001,-3.2504272461e-001
3.3084106445e-001,-4.1873168945e-001
2.2158813477e-001,-4.8806762695e-001
9.6740722656e-002,-5.2951049805e-001
-3.4149169922e-002,-5.3964233398e-001
-1.6473388672e-001,-5.1837158203e-001
-2.8628540039e-001,-4.6585083008e-001
-3.9212036133e-001,-3.8430786133e-001
-4.7494506836e-001,-2.7957153320e-001
-5.3112792969e-001,-1.5716552734e-001
-5.5520629883e-001,-2.4414062500e-002
-5.4629516602e-001,1.1083984375e-001
-5.0604248047e-001,2.3934936523e-001
-4.3444824219e-001,3.5455322266e-001
-3.3703613281e-001,4.5080566406e-001
-2.2048950195e-001,5.1889038086e-001
-8.9080810547e-002,5.5969238281e-001
4.9011230469e-002,5.6588745117e-001
1.8450927734e-001,5.3811645508e-001
3.0917358398e-001,4.7952270508e-001
4.1714477539e-001,3.9257812500e-001
4.9911499023e-001,2.8152465820e-001
5.5261230469e-001,1.5359497070e-001
5.7403564453e-001,1.6998291016e-002
5.6192016602e-001,-1.2033081055e-001
5.1876831055e-001,-2.5054931641e-001
4.4546508789e-001,-3.6825561523e-001
3.4582519531e-001,-4.6432495117e-001
2.2393798828e-001,-5.3482055664e-001
9.2071533203e-002,-5.7443237305e-001
-4.6844482422e-002,-5.8380126953e-001
-1.8530273438e-001,-5.5838012695e-001
-3.1536865234e-001,-5.0125122070e-001
-4.2926025391e-001,-4.1281127930e-001
-5.1773071289e-001,-2.9879760742e-001
-5.7644653320e-001,-1.6653442383e-001
-6.0214233398e-001,-2.3193359375e-002
-5.9216308594e-001,1.2179565430e-001
-5.4779052734e-001,2.6138305664e-001
-4.7024536133e-001,3.8656616211e-001
-3.6508178711e-001,4.8922729492e-001
-2.3785400391e-001,5.6390380859e-001
-9.5214843750e-002,6.0586547852e-001
5.3405761719e-002,6.1337280273e-001
1.9891357422e-001,5.8444213867e-001
3.3410644531e-001,5.2023315430e-001
4.5013427734e-001,4.2651367188e-001
5.4022216797e-001,3.0654907227e-001
5.9848022461e-001,1.6799926758e-001
6.2261962891e-001,1.9500732422e-002
6.1019897461e-001,-1.3037109375e-001
