! This is a Touchstone .s1p format file
! It should be saved with .s1p extension.
! HEWLETT PACKARD,8720D,0,7.74  
! Date =  2 Feb 2024
! Time = 13:46:26
! S11 measured = FALSE
! S21 measured = FALSE
! S12 measured = FALSE
! S22 measured = TRUE
! Start frequency = 0.050000000 GHz
! Centre frequency  = 3.524999936 GHz
! Stop frequency  = 7.000000000 GHz
! IF bandwidth = 300 Hz
! Smoothing = OFF
! Smoothing aperture = 1.000000 %
! Averaging = OFF
! Averaging factor = 16
! Source power = On
! Source power = Auto mode
! Output power level = 5.000000 dBm
! Retrace power = Off
! Testset switching = Continuous
! Number of sweeps for test set switching (0=hold, 1=continuous,2-999 = number of sweeps) = 1
! Step sweep = On (check)
! List frequency sweep = Off (check)
! IFBW setting for a list-frequency table in swept list mode = Disabled (Check)
! Power setting for a list-frequency table in swept list mode = Disabled (Check)
! Measurement mode = Chop A and B
! Port extensions = OFF
! Port extension 1 = 0.000000 ps
! Port extension 2 = 109.719997 ps
! Points  = 1601
! Calibration kit = 3.5 mm E
! Power = 5.000000 dBm
! Frequency magS22 angS22
! Magnitudes are in log form
! Angles are in degrees
# MHz S DB R 50
50.00000 -0.02719 175.70312
54.34375 -0.02549 175.42188
58.68750 -0.02076 175.08594
63.03125 -0.01686 174.71875
67.37500 -0.03183 174.39062
71.71875 -0.02384 174.03906
76.06250 -0.03119 173.67188
80.40625 -0.02549 173.34375
84.75000 -0.02586 172.97656
89.09375 -0.03101 172.68750
93.43750 -0.03523 172.24219
97.78125 -0.03551 171.88281
102.12500 -0.03381 171.59375
106.46875 -0.04322 171.24219
110.81250 -0.03133 170.94531
115.15625 -0.03932 170.53125
119.50000 -0.04529 170.23438
123.84375 -0.03808 169.83594
128.18750 -0.03633 169.51562
132.53125 -0.04841 169.19531
136.87500 -0.04143 168.84375
141.21875 -0.03399 168.56250
145.56250 -0.05140 168.12500
149.90625 -0.05319 167.80469
154.25000 -0.04107 167.47656
158.59375 -0.04488 167.09375
162.93750 -0.04322 166.78125
167.28125 -0.04566 166.42188
171.62500 -0.04901 166.08594
175.96875 -0.04846 165.71094
180.31250 -0.04892 165.41406
184.65625 -0.05512 165.02344
189.00000 -0.05177 164.71875
193.34375 -0.05466 164.37500
197.68750 -0.04897 163.94531
202.03125 -0.05126 163.61719
206.37500 -0.05255 163.33594
210.71875 -0.05581 162.95312
215.06250 -0.05448 162.57812
219.40625 -0.05659 162.22656
223.75000 -0.05140 161.96094
228.09375 -0.05751 161.60156
232.43750 -0.06123 161.21094
236.78125 -0.06523 160.91406
241.12500 -0.06491 160.54688
245.46875 -0.06164 160.20312
249.81250 -0.06091 159.85156
254.15625 -0.06118 159.53125
258.50000 -0.06463 159.17188
262.84375 -0.05820 158.84375
267.18750 -0.06261 158.49219
271.53125 -0.06766 158.14062
275.87500 -0.06601 157.76562
280.21875 -0.05861 157.43750
284.56250 -0.06367 157.09375
288.90625 -0.06720 156.75781
293.25000 -0.04966 156.45312
297.59375 -0.06123 156.03125
301.93750 -0.06945 155.71875
306.28125 -0.06849 155.38281
310.62500 -0.06927 155.03906
314.96875 -0.06803 154.66406
319.31250 -0.06918 154.34375
323.65625 -0.06390 154.00781
328.00000 -0.06532 153.67188
332.34375 -0.07014 153.32812
336.68750 -0.06867 152.96094
341.03125 -0.07106 152.65625
345.37500 -0.07276 152.29688
349.71875 -0.07069 151.91406
354.06250 -0.07023 151.59375
358.40625 -0.06964 151.25781
362.75000 -0.07069 150.89062
367.09375 -0.07106 150.57031
371.43750 -0.06826 150.22656
375.78125 -0.06913 149.86719
380.12500 -0.07184 149.51562
384.46875 -0.07198 149.14844
388.81250 -0.07249 148.82812
393.15625 -0.07441 148.51562
397.50000 -0.07364 148.16406
401.84375 -0.07859 147.82031
406.18750 -0.07565 147.47656
410.53125 -0.07795 147.11719
414.87500 -0.07763 146.78906
419.21875 -0.07552 146.42969
423.56250 -0.07993 146.09375
427.90625 -0.07497 145.73438
432.25000 -0.07947 145.39062
436.59375 -0.08222 145.04688
440.93750 -0.07593 144.71875
445.28125 -0.07800 144.33594
449.62500 -0.07928 144.02344
453.96875 -0.07758 143.66406
458.31250 -0.07396 143.35938
462.65625 -0.07579 143.00000
467.00000 -0.07832 142.65625
471.34375 -0.07680 142.29688
475.68750 -0.07726 141.94531
480.03125 -0.07795 141.61719
484.37500 -0.08163 141.25781
488.71875 -0.07653 140.91406
493.06250 -0.07703 140.57812
497.40625 -0.07634 140.21875
501.75000 -0.07772 139.90625
506.09375 -0.08075 139.55469
510.43750 -0.07961 139.21875
514.78125 -0.07694 138.85938
519.12500 -0.07997 138.53125
523.46875 -0.08062 138.16406
527.81250 -0.08208 137.83594
532.15625 -0.08048 137.49219
536.50000 -0.07809 137.14844
540.84375 -0.07983 136.81250
545.18750 -0.08213 136.46094
549.53125 -0.07841 136.11719
553.87500 -0.07699 135.76562
558.21875 -0.08282 135.43750
562.56250 -0.08043 135.09375
566.90625 -0.08030 134.71094
571.25000 -0.08149 134.40625
575.59375 -0.07961 134.04688
579.93750 -0.07708 133.71094
584.28125 -0.08172 133.33594
588.62500 -0.08006 133.00000
592.96875 -0.08066 132.70312
597.31250 -0.08121 132.32031
601.65625 -0.08516 131.94531
606.00000 -0.08167 131.62500
610.34375 -0.08071 131.28125
614.68750 -0.08186 130.94531
619.03125 -0.08039 130.61719
623.37500 -0.08227 130.26562
627.71875 -0.08300 129.91406
632.06250 -0.08241 129.57031
636.40625 -0.08011 129.21094
640.75000 -0.07938 128.87500
645.09375 -0.08107 128.52344
649.43750 -0.08227 128.20312
653.78125 -0.08516 127.84766
658.12500 -0.07993 127.50000
662.46875 -0.08493 127.14844
666.81250 -0.08397 126.81641
671.15625 -0.07993 126.46875
675.50000 -0.08103 126.12891
679.84375 -0.08305 125.79297
684.18750 -0.08048 125.45312
688.53125 -0.08388 125.08984
692.87500 -0.08195 124.76562
697.21875 -0.08218 124.41406
701.56250 -0.08411 124.07812
705.90625 -0.08392 123.71094
710.25000 -0.08121 123.36328
714.59375 -0.08144 123.03125
718.93750 -0.08434 122.67578
723.28125 -0.08328 122.33203
727.62500 -0.08438 121.98047
731.96875 -0.08406 121.63281
736.31250 -0.08659 121.30469
740.65625 -0.08342 120.94531
745.00000 -0.08222 120.58984
749.34375 -0.07400 120.29297
753.68750 -0.08043 119.91406
758.03125 -0.08512 119.61719
762.37500 -0.08241 119.21875
766.71875 -0.09660 118.91797
771.06250 -0.08015 118.57422
775.40625 -0.08305 118.21875
779.75000 -0.08466 117.87891
784.09375 -0.08475 117.51562
788.43750 -0.08140 117.18359
792.78125 -0.08493 116.84375
797.12500 -0.08264 116.48828
801.46875 -0.08503 116.14453
805.81250 -0.08714 115.80859
810.15625 -0.08250 115.47266
814.50000 -0.08525 115.08984
818.84375 -0.08571 114.79688
823.18750 -0.08379 114.42578
827.53125 -0.08553 114.08203
831.87500 -0.08553 113.74219
836.21875 -0.08783 113.39844
840.56250 -0.08420 113.07031
844.90625 -0.08613 112.72266
849.25000 -0.08544 112.36328
853.59375 -0.08392 112.02734
857.93750 -0.08507 111.71094
862.28125 -0.08337 111.33594
866.62500 -0.08319 110.98828
870.96875 -0.08199 110.64062
875.31250 -0.08590 110.31641
879.65625 -0.08443 109.97656
884.00000 -0.08379 109.62109
888.34375 -0.08255 109.26953
892.68750 -0.08475 108.93359
897.03125 -0.08424 108.61328
901.37500 -0.08645 108.26953
905.71875 -0.08489 107.91406
910.06250 -0.08544 107.57812
914.40625 -0.08158 107.21875
918.75000 -0.08525 106.89453
923.09375 -0.08374 106.54297
927.43750 -0.08204 106.19922
931.78125 -0.08548 105.82422
936.12500 -0.07965 105.52734
940.46875 -0.08186 105.19141
944.81250 -0.08328 104.82812
949.15625 -0.08062 104.49219
953.50000 -0.08516 104.16016
957.84375 -0.08406 103.81250
962.18750 -0.08525 103.44922
966.53125 -0.08328 103.12109
970.87500 -0.08310 102.74609
975.21875 -0.08048 102.43359
979.56250 -0.08456 102.06250
983.90625 -0.08718 101.73828
988.25000 -0.08374 101.37500
992.59375 -0.08323 101.06250
996.93750 -0.08420 100.69531
1001.28125 -0.08392 100.35938
1005.62500 -0.08291 100.01562
1009.96875 -0.08089 99.67969
1014.31250 -0.08383 99.35156
1018.65625 -0.08250 98.98438
1023.00000 -0.08218 98.65234
1027.34375 -0.08135 98.32812
1031.68750 -0.08250 97.97656
1036.03125 -0.08452 97.59375
1040.37500 -0.08062 97.27344
1044.71875 -0.08245 96.91797
1049.06250 -0.08011 96.59766
1053.40625 -0.08062 96.22266
1057.75000 -0.07699 95.91406
1062.09375 -0.08034 95.55078
1066.43750 -0.07901 95.19141
1070.78125 -0.07988 94.88672
1075.12500 -0.07809 94.51172
1079.46875 -0.07837 94.16406
1083.81250 -0.07855 93.84375
1088.15625 -0.08199 93.48828
1092.50000 -0.07689 93.15625
1096.84375 -0.07914 92.80078
1101.18750 -0.08126 92.46094
1105.53125 -0.08066 92.11719
1109.87500 -0.07951 91.77344
1114.21875 -0.07901 91.44141
1118.56250 -0.07887 91.09375
1122.90625 -0.07891 90.73828
1127.25000 -0.08369 90.40234
1131.59375 -0.08259 90.05859
1135.93750 -0.08089 89.70703
1140.28125 -0.07942 89.38672
1144.62500 -0.08190 89.03516
1148.96875 -0.07924 88.68750
1153.31250 -0.08264 88.32812
1157.65625 -0.08052 87.99609
1162.00000 -0.07970 87.67188
1166.34375 -0.08107 87.30859
1170.68750 -0.08117 86.96875
1175.03125 -0.08401 86.61328
1179.37500 -0.08452 86.26562
1183.71875 -0.08126 85.94922
1188.06250 -0.08057 85.59766
1192.40625 -0.08218 85.20703
1196.75000 -0.07891 84.91406
1201.09375 -0.06449 84.60938
1205.43750 -0.07354 84.24219
1209.78125 -0.07579 83.87500
1214.12500 -0.07882 83.50781
1218.46875 -0.07905 83.18359
1222.81250 -0.08117 82.83594
1227.15625 -0.08130 82.51172
1231.50000 -0.09596 82.27344
1235.84375 -0.08489 81.85156
1240.18750 -0.07974 81.47656
1244.53125 -0.08255 81.14844
1248.87500 -0.07731 80.82031
1253.21875 -0.08006 80.49609
1257.56250 -0.08011 80.12109
1261.90625 -0.07882 79.76953
1266.25000 -0.07938 79.41797
1270.59375 -0.08470 79.08984
1274.93750 -0.08195 78.74219
1279.28125 -0.08039 78.40625
1283.62500 -0.08310 78.04297
1287.96875 -0.07786 77.71484
1292.31250 -0.07896 77.38672
1296.65625 -0.07891 77.05078
1301.00000 -0.08167 76.72266
1305.34375 -0.08006 76.34375
1309.68750 -0.07515 75.99219
1314.03125 -0.07763 75.65234
1318.37500 -0.07951 75.32812
1322.71875 -0.07552 74.98047
1327.06250 -0.07754 74.64844
1331.40625 -0.07593 74.28516
1335.75000 -0.07703 73.94922
1340.09375 -0.08002 73.61328
1344.43750 -0.07579 73.26562
1348.78125 -0.07602 72.92578
1353.12500 -0.07703 72.59766
1357.46875 -0.07731 72.25000
1361.81250 -0.07437 71.93750
1366.15625 -0.07556 71.57031
1370.50000 -0.07680 71.23828
1374.84375 -0.07464 70.88281
1379.18750 -0.07758 70.54297
1383.53125 -0.07589 70.17578
1387.87500 -0.07657 69.84766
1392.21875 -0.07515 69.52734
1396.56250 -0.07450 69.15625
1400.90625 -0.07294 68.80469
1405.25000 -0.07092 68.48047
1409.59375 -0.07364 68.14062
1413.93750 -0.07262 67.80469
1418.28125 -0.07648 67.46094
1422.62500 -0.07666 67.11328
1426.96875 -0.07157 66.78516
1431.31250 -0.07221 66.42188
1435.65625 -0.07492 66.09375
1440.00000 -0.07313 65.75000
1444.34375 -0.07621 65.37500
1448.68750 -0.07166 65.06641
1453.03125 -0.07441 64.73047
1457.37500 -0.06923 64.37891
1461.71875 -0.07166 64.01562
1466.06250 -0.07294 63.68359
1470.40625 -0.07281 63.33203
1474.75000 -0.06775 63.00977
1479.09375 -0.07276 62.66992
1483.43750 -0.07115 62.31445
1487.78125 -0.06923 61.96680
1492.12500 -0.07166 61.63867
1496.46875 -0.06720 61.28906
1500.81250 -0.07258 60.92383
1505.15625 -0.06876 60.57031
1509.50000 -0.06904 60.27344
1513.84375 -0.06991 59.88867
1518.18750 -0.06913 59.57422
1522.53125 -0.07056 59.20703
1526.87500 -0.06863 58.86719
1531.21875 -0.06908 58.53906
1535.56250 -0.06835 58.18359
1539.90625 -0.06959 57.82617
1544.25000 -0.07285 57.51562
1548.59375 -0.07088 57.15625
1552.93750 -0.07198 56.81836
1557.28125 -0.07359 56.47461
1561.62500 -0.07244 56.12891
1565.96875 -0.06959 55.79297
1570.31250 -0.06904 55.44531
1574.65625 -0.06702 55.08789
1579.00000 -0.06840 54.77344
1583.34375 -0.07364 54.42188
1587.68750 -0.06890 54.07031
1592.03125 -0.06923 53.75195
1596.37500 -0.06923 53.36523
1600.71875 -0.06835 53.07422
1605.06250 -0.07005 52.72070
1609.40625 -0.06918 52.36523
1613.75000 -0.07152 52.02148
1618.09375 -0.07023 51.67578
1622.43750 -0.07166 51.35352
1626.78125 -0.07101 50.99805
1631.12500 -0.07225 50.67578
1635.46875 -0.07193 50.30469
1639.81250 -0.06872 49.98242
1644.15625 -0.06973 49.63672
1648.50000 -0.06973 49.28320
1652.84375 -0.06936 48.93555
1657.18750 -0.06817 48.60156
1661.53125 -0.07005 48.26953
1665.87500 -0.07019 47.92773
1670.21875 -0.06775 47.58398
1674.56250 -0.06927 47.23047
1678.90625 -0.06923 46.89453
1683.25000 -0.06739 46.55469
1687.59375 -0.07056 46.19336
1691.93750 -0.06693 45.87109
1696.28125 -0.06867 45.53125
1700.62500 -0.06674 45.18945
1704.96875 -0.06752 44.82617
1709.31250 -0.07060 44.49414
1713.65625 -0.06927 44.15820
1718.00000 -0.06913 43.82227
1722.34375 -0.07010 43.46875
1726.68750 -0.06435 43.11328
1731.03125 -0.06835 42.80078
1735.37500 -0.06734 42.45898
1739.71875 -0.06578 42.08789
1744.06250 -0.06693 41.76562
1748.40625 -0.06651 41.42578
1752.75000 -0.06624 41.08984
1757.09375 -0.06495 40.72461
1761.43750 -0.06289 40.39062
1765.78125 -0.06445 40.06445
1770.12500 -0.06403 39.69727
1774.46875 -0.06578 39.37305
1778.81250 -0.06518 39.03711
1783.15625 -0.06242 38.70508
1787.50000 -0.06353 38.34961
1791.84375 -0.06275 37.99219
1796.18750 -0.06201 37.65234
1800.53125 -0.06118 37.30664
1804.87500 -0.06141 36.97266
1809.21875 -0.06027 36.62500
1813.56250 -0.06224 36.29297
1817.90625 -0.06321 35.96094
1822.25000 -0.05893 35.61523
1826.59375 -0.05880 35.26562
1830.93750 -0.06050 34.92383
1835.28125 -0.06252 34.56445
1839.62500 -0.06017 34.22461
1843.96875 -0.05907 33.88477
1848.31250 -0.06054 33.53906
1852.65625 -0.05880 33.19922
1857.00000 -0.06252 32.87109
1861.34375 -0.05788 32.49805
1865.68750 -0.05958 32.15039
1870.03125 -0.06358 31.83398
1874.37500 -0.05880 31.49609
1878.71875 -0.05976 31.14258
1883.06250 -0.06027 30.81641
1887.40625 -0.05948 30.45508
1891.75000 -0.05829 30.09277
1896.09375 -0.05907 29.74609
1900.43750 -0.05884 29.39746
1904.78125 -0.06270 29.10938
1909.12500 -0.06330 28.78125
1913.46875 -0.06435 28.40723
1917.81250 -0.06445 28.06543
1922.15625 -0.06128 27.70801
1926.50000 -0.05512 27.37207
1930.84375 -0.05880 27.01660
1935.18750 -0.06050 26.69043
1939.53125 -0.06031 26.34082
1943.87500 -0.05976 25.99902
1948.21875 -0.05857 25.63477
1952.56250 -0.05926 25.30469
1956.90625 -0.05489 24.96875
1961.25000 -0.05788 24.64062
1965.59375 -0.05774 24.26855
1969.93750 -0.05760 23.95117
1974.28125 -0.05700 23.61328
1978.62500 -0.05811 23.25781
1982.96875 -0.05714 22.91602
1987.31250 -0.05402 22.58203
1991.65625 -0.05632 22.25098
1996.00000 -0.05728 21.88867
2000.34375 -0.05760 21.54004
2004.68750 -0.05870 21.20312
2009.03125 -0.06022 20.88184
2013.37500 -0.05737 20.51367
2017.71875 -0.05471 20.17578
2022.06250 -0.05829 19.83398
2026.40625 -0.05769 19.49902
2030.75000 -0.05650 19.15039
2035.09375 -0.05636 18.79004
2039.43750 -0.05246 18.46875
2043.78125 -0.05200 18.11426
2048.12500 -0.05728 17.76758
2052.46875 -0.05765 17.41602
2056.81250 -0.05650 17.05273
2061.15625 -0.05434 16.76758
2065.50000 -0.05429 16.40625
2069.84375 -0.05921 16.06738
2074.18750 -0.05719 15.76221
2078.53125 -0.05746 15.39453
2082.87500 -0.05475 15.05811
2087.21875 -0.05535 14.70752
2091.56250 -0.05788 14.37695
2095.90625 -0.05503 14.03467
2100.25000 -0.05742 13.68457
2104.59375 -0.05691 13.33740
2108.93750 -0.05664 12.98975
2113.28125 -0.05622 12.65332
2117.62500 -0.05489 12.30176
2121.96875 -0.05811 11.96777
2126.31250 -0.05586 11.63574
2130.65625 -0.04961 11.27197
2135.00000 -0.05632 10.93652
2139.34375 -0.05241 10.60303
2143.68750 -0.05269 10.27051
2148.03125 -0.05319 9.91064
2152.37500 -0.05485 9.55664
2156.71875 -0.05172 9.22852
2161.06250 -0.05351 8.89746
2165.40625 -0.05103 8.55127
2169.75000 -0.05209 8.20264
2174.09375 -0.05149 7.86621
2178.43750 -0.05250 7.51318
2182.78125 -0.05195 7.19873
2187.12500 -0.05195 6.82251
2191.46875 -0.05273 6.49292
2195.81250 -0.05356 6.13721
2200.15625 -0.05338 5.81177
2204.50000 -0.04791 5.46143
2208.84375 -0.04823 5.13330
2213.18750 -0.04938 4.76099
2217.53125 -0.05172 4.43701
2221.87500 -0.05044 4.10181
2226.21875 -0.04731 3.76135
2230.56250 -0.04841 3.38928
2234.90625 -0.04699 3.05420
2239.25000 -0.04745 2.71631
2243.59375 -0.05112 2.36755
2247.93750 -0.04938 2.02551
2252.28125 -0.04975 1.68640
2256.62500 -0.04915 1.36090
2260.96875 -0.04947 1.00385
2265.31250 -0.05002 0.64407
2269.65625 -0.04699 0.29938
2274.00000 -0.04924 -0.01373
2278.34375 -0.04906 -0.35843
2282.68750 -0.04883 -0.69626
2287.03125 -0.05131 -1.02039
2291.37500 -0.04851 -1.39526
2295.71875 -0.05090 -1.72626
2300.06250 -0.05338 -2.07922
2304.40625 -0.04975 -2.41980
2308.75000 -0.04846 -2.76038
2313.09375 -0.04782 -3.12012
2317.43750 -0.05227 -3.46350
2321.78125 -0.05218 -3.80957
2326.12500 -0.04869 -4.13916
2330.46875 -0.05002 -4.48950
2334.81250 -0.05163 -4.83545
2339.15625 -0.04736 -5.17749
2343.50000 -0.04988 -5.52905
2347.84375 -0.04865 -5.85571
2352.18750 -0.04878 -6.19922
2356.53125 -0.04823 -6.57959
2360.87500 -0.05181 -6.88989
2365.21875 -0.04584 -7.22217
2369.56250 -0.05103 -7.56006
2373.90625 -0.05030 -7.91162
2378.25000 -0.04924 -8.24707
2382.59375 -0.04878 -8.60254
2386.93750 -0.04993 -8.94580
2391.28125 -0.04869 -9.28516
2395.62500 -0.05117 -9.59424
2399.96875 -0.04658 -9.95654
2404.31250 -0.04736 -10.30811
2408.65625 -0.04681 -10.63623
2413.00000 -0.05076 -11.00586
2417.34375 -0.04722 -11.32422
2421.68750 -0.05122 -11.67188
2426.03125 -0.04933 -12.03857
2430.37500 -0.04979 -12.38184
2434.71875 -0.04901 -12.69629
2439.06250 -0.04943 -13.04785
2443.40625 -0.04800 -13.39551
2447.75000 -0.04750 -13.73877
2452.09375 -0.05025 -14.10400
2456.43750 -0.04722 -14.41699
2460.78125 -0.05011 -14.77686
2465.12500 -0.04851 -15.11621
2469.46875 -0.04819 -15.45801
2473.81250 -0.04750 -15.80127
2478.15625 -0.04754 -16.14453
2482.50000 -0.04897 -16.48828
2486.84375 -0.04809 -16.80176
2491.18750 -0.04796 -17.16504
2495.53125 -0.04947 -17.50000
2499.87500 -0.05053 -17.86035
2504.21875 -0.05071 -18.17578
2508.56250 -0.04860 -18.53027
2512.90625 -0.04865 -18.90234
2517.25000 -0.05048 -19.22266
2521.59375 -0.04892 -19.57031
2525.93750 -0.04796 -19.89941
2530.28125 -0.04865 -20.24512
2534.62500 -0.04846 -20.60156
2538.96875 -0.04690 -20.93457
2543.31250 -0.04869 -21.27734
2547.65625 -0.04832 -21.63770
2552.00000 -0.04667 -21.97852
2556.34375 -0.04832 -22.32422
2560.68750 -0.04823 -22.67090
2565.03125 -0.04883 -22.99609
2569.37500 -0.04276 -23.34375
2573.71875 -0.04947 -23.69141
2578.06250 -0.04970 -24.05273
2582.40625 -0.04841 -24.38867
2586.75000 -0.04589 -24.72070
2591.09375 -0.04662 -25.04688
2595.43750 -0.04671 -25.41504
2599.78125 -0.04575 -25.77148
2604.12500 -0.04819 -26.10645
2608.46875 -0.04607 -26.44434
2612.81250 -0.04506 -26.78809
2617.15625 -0.04570 -27.11328
2621.50000 -0.04529 -27.45703
2625.84375 -0.04208 -27.82227
2630.18750 -0.04635 -28.15527
2634.53125 -0.04515 -28.48438
2638.87500 -0.04570 -28.85449
2643.21875 -0.04851 -29.19922
2647.56250 -0.04695 -29.52246
2651.90625 -0.05145 -29.86719
2656.25000 -0.04639 -30.21387
2660.59375 -0.04988 -30.54980
2664.93750 -0.04966 -30.91602
2669.28125 -0.04685 -31.23438
2673.62500 -0.04704 -31.58887
2677.96875 -0.04575 -31.94434
2682.31250 -0.04603 -32.25195
2686.65625 -0.04722 -32.61914
2691.00000 -0.04970 -32.96484
2695.34375 -0.04695 -33.30273
2699.68750 -0.04979 -33.62891
2704.03125 -0.04667 -34.02734
2708.37500 -0.04892 -34.35547
2712.71875 -0.04699 -34.68359
2717.06250 -0.04727 -35.03320
2721.40625 -0.04865 -35.34766
2725.75000 -0.04800 -35.73047
2730.09375 -0.04671 -36.07031
2734.43750 -0.04865 -36.39844
2738.78125 -0.04979 -36.75391
2743.12500 -0.04901 -37.08984
2747.46875 -0.04832 -37.42773
2751.81250 -0.04855 -37.77539
2756.15625 -0.04938 -38.12305
2760.50000 -0.04607 -38.46094
2764.84375 -0.04966 -38.81641
2769.18750 -0.04621 -39.14648
2773.53125 -0.04897 -39.46875
2777.87500 -0.04979 -39.83398
2782.21875 -0.04805 -40.17383
2786.56250 -0.04860 -40.52344
2790.90625 -0.05154 -40.84570
2795.25000 -0.04671 -41.21484
2799.59375 -0.05191 -41.55859
2803.93750 -0.05526 -41.90234
2808.28125 -0.05223 -42.24023
2812.62500 -0.05315 -42.59961
2816.96875 -0.05287 -42.93750
2821.31250 -0.05112 -43.25977
2825.65625 -0.05039 -43.63867
2830.00000 -0.05126 -43.96680
2834.34375 -0.05186 -44.30078
2838.68750 -0.04970 -44.64062
2843.03125 -0.05099 -44.99414
2847.37500 -0.04897 -45.33984
