# Hz S RI R 50.000000
! Metas.Vna.Tools, 2.8.8664.20301
! Metas.Vna.Data, 2.8.8664.20285
! Created: UTC 2024.02.09 23:56:06
! FREQ                re:S2,2             im:S2,2          
  1.3000000000e+008   6.7501068115e-003   1.9671440125e-002
  1.3858750000e+008   7.7629089355e-003   2.0632743835e-002
  1.4717500000e+008   8.9311599731e-003   2.1722793579e-002
  1.5576250000e+008   1.0088920593e-002   2.2633552551e-002
  1.6435000000e+008   1.1360168457e-002   2.3475646973e-002
  1.7293750000e+008   1.2641906738e-002   2.4410247803e-002
  1.8152500000e+008   1.4087677002e-002   2.5142669678e-002
  1.9011250000e+008   1.5666961670e-002   2.5924682617e-002
  1.9870000000e+008   1.7288208008e-002   2.6443481445e-002
  2.0728750000e+008   1.8762588501e-002   2.6988983154e-002
  2.1587500000e+008   2.0502090454e-002   2.7370452881e-002
  2.2446250000e+008   2.2211074829e-002   2.7715682983e-002
  2.3305000000e+008   2.3839950562e-002   2.7812957764e-002
  2.4163750000e+008   2.5445938110e-002   2.7965545654e-002
  2.5022500000e+008   2.7404785156e-002   2.7891159058e-002
  2.5881250000e+008   2.9100418091e-002   2.7872085571e-002
  2.6740000000e+008   3.0689239502e-002   2.7847290039e-002
  2.7598750000e+008   3.2552719116e-002   2.7690887451e-002
  2.8457500000e+008   3.4505844116e-002   2.7542114258e-002
  2.9316250000e+008   3.6336898804e-002   2.7254104614e-002
  3.0175000000e+008   3.8148880005e-002   2.6729583740e-002
  3.1033750000e+008   4.0012359619e-002   2.6201248169e-002
  3.1892500000e+008   4.1786193848e-002   2.5543212891e-002
  3.2751250000e+008   4.3640136719e-002   2.4696350098e-002
  3.3610000000e+008   4.5373916626e-002   2.3944854736e-002
  3.4468750000e+008   4.7142028809e-002   2.3052215576e-002
  3.5327500000e+008   4.8706054688e-002   2.2151947021e-002
  3.6186250000e+008   5.0506591797e-002   2.1137237549e-002
  3.7045000000e+008   5.2383422852e-002   1.9943237305e-002
  3.7903750000e+008   5.4214477539e-002   1.8661499023e-002
  3.8762500000e+008   5.5912017822e-002   1.7177581787e-002
  3.9621250000e+008   5.7643890381e-002   1.5739440918e-002
  4.0480000000e+008   5.9303283691e-002   1.4194488525e-002
  4.1338750000e+008   6.0962677002e-002   1.2401580811e-002
  4.2197500000e+008   6.2564849854e-002   1.0471343994e-002
  4.3056250000e+008   6.3892364502e-002   8.3236694336e-003
  4.3915000000e+008   6.5059661865e-002   6.3781738281e-003
  4.4773750000e+008   6.6032409668e-002   4.4288635254e-003
  4.5632500000e+008   6.6883087158e-002   2.4375915527e-003
  4.6491250000e+008   6.7836761475e-002   4.2343139648e-004
  4.7350000000e+008   6.8637847900e-002  -1.4228820801e-003
  4.8208750000e+008   6.9465637207e-002  -3.3531188965e-003
  4.9067500000e+008   7.0510864258e-002  -5.3863525391e-003
  4.9926250000e+008   7.1464538574e-002  -7.5149536133e-003
  5.0785000000e+008   7.2353363037e-002  -9.7084045410e-003
  5.1643750000e+008   7.3150634766e-002  -1.2008666992e-002
  5.2502500000e+008   7.3913574219e-002  -1.4247894287e-002
  5.3361250000e+008   7.4691772461e-002  -1.6899108887e-002
  5.4220000000e+008   7.5241088867e-002  -1.9454956055e-002
  5.5078750000e+008   7.5660705566e-002  -2.2079467773e-002
  5.5937500000e+008   7.5809478760e-002  -2.4620056152e-002
  5.6796250000e+008   7.5878143311e-002  -2.7088165283e-002
  5.7655000000e+008   7.6114654541e-002  -2.9678344727e-002
  5.8513750000e+008   7.6358795166e-002  -3.2234191895e-002
  5.9372500000e+008   7.6576232910e-002  -3.4889221191e-002
  6.0231250000e+008   7.6416015625e-002  -3.7807464600e-002
  6.1090000000e+008   7.6572418213e-002  -4.0836334229e-002
  6.1948750000e+008   7.6244354248e-002  -4.4040679932e-002
  6.2807500000e+008   7.5798034668e-002  -4.7180175781e-002
  6.3666250000e+008   7.4916839600e-002  -5.0239562988e-002
  6.4525000000e+008   7.3875427246e-002  -5.3169250488e-002
  6.5383750000e+008   7.2868347168e-002  -5.6056976318e-002
  6.6242500000e+008   7.1788787842e-002  -5.8647155762e-002
  6.7101250000e+008   7.0491790771e-002  -6.1153411865e-002
  6.7960000000e+008   6.9396972656e-002  -6.3529968262e-002
  6.8818750000e+008   6.8172454834e-002  -6.6101074219e-002
  6.9677500000e+008   6.7073822021e-002  -6.8538665771e-002
  7.0536250000e+008   6.5963745117e-002  -7.1228027344e-002
  7.1395000000e+008   6.4754486084e-002  -7.3837280273e-002
  7.2253750000e+008   6.3282012939e-002  -7.6808929443e-002
  7.3112500000e+008   6.1458587646e-002  -7.9818725586e-002
  7.3971250000e+008   5.9547424316e-002  -8.2592010498e-002
  7.4830000000e+008   5.7308197021e-002  -8.5308074951e-002
  7.5688750000e+008   5.4889678955e-002  -8.7825775146e-002
  7.6547500000e+008   5.2440643311e-002  -8.9988708496e-002
  7.7406250000e+008   4.9865722656e-002  -9.1934204102e-002
  7.8265000000e+008   4.7401428223e-002  -9.3635559082e-002
  7.9123750000e+008   4.4952392578e-002  -9.5230102539e-002
  7.9982500000e+008   4.2610168457e-002  -9.6839904785e-002
  8.0841250000e+008   4.0611267090e-002  -9.8220825195e-002
  8.1700000000e+008   3.8719177246e-002  -9.9822998047e-002
  8.2558750000e+008   3.6735534668e-002  -1.0145568848e-001
  8.3417500000e+008   3.4538269043e-002  -1.0346221924e-001
  8.4276250000e+008   3.2447814941e-002  -1.0544586182e-001
  8.5135000000e+008   2.9762268066e-002  -1.0738372803e-001
  8.5993750000e+008   2.7076721191e-002  -1.0958862305e-001
  8.6852500000e+008   2.4147033691e-002  -1.1129760742e-001
  8.7711250000e+008   2.1026611328e-002  -1.1325073242e-001
  8.8570000000e+008   1.7829895020e-002  -1.1486053467e-001
  8.9428750000e+008   1.4541625977e-002  -1.1608123779e-001
  9.0287500000e+008   1.1421203613e-002  -1.1728668213e-001
  9.1146250000e+008   7.9727172852e-003  -1.1869812012e-001
  9.2005000000e+008   4.5623779297e-003  -1.1952209473e-001
  9.2863750000e+008   1.1749267578e-003  -1.2035369873e-001
  9.3722500000e+008  -2.5100708008e-003  -1.2119293213e-001
  9.4581250000e+008  -6.0195922852e-003  -1.2145233154e-001
  9.5440000000e+008  -9.4985961914e-003  -1.2168884277e-001
  9.6298750000e+008  -1.2878417969e-002  -1.2208557129e-001
  9.7157500000e+008  -1.6342163086e-002  -1.2231445313e-001
  9.8016250000e+008  -1.9706726074e-002  -1.2238311768e-001
  9.8875000000e+008  -2.3178100586e-002  -1.2252807617e-001
  9.9733750000e+008  -2.6748657227e-002  -1.2268066406e-001
  1.0059250000e+009  -3.0426025391e-002  -1.2265777588e-001
  1.0145125000e+009  -3.4141540527e-002  -1.2265777588e-001
  1.0231000000e+009  -3.7940979004e-002  -1.2220764160e-001
  1.0316875000e+009  -4.1732788086e-002  -1.2149047852e-001
  1.0402750000e+009  -4.5753479004e-002  -1.2059020996e-001
  1.0488625000e+009  -4.9568176270e-002  -1.1999511719e-001
  1.0574500000e+009  -5.2879333496e-002  -1.1884307861e-001
  1.0660375000e+009  -5.6213378906e-002  -1.1775970459e-001
  1.0746250000e+009  -5.9455871582e-002  -1.1636352539e-001
  1.0832125000e+009  -6.2454223633e-002  -1.1502838135e-001
  1.0918000000e+009  -6.5567016602e-002  -1.1370086670e-001
  1.1003875000e+009  -6.8717956543e-002  -1.1293792725e-001
  1.1089750000e+009  -7.1983337402e-002  -1.1151885986e-001
  1.1175625000e+009  -7.5317382813e-002  -1.1009216309e-001
  1.1261500000e+009  -7.8765869141e-002  -1.0847473145e-001
  1.1347375000e+009  -8.2298278809e-002  -1.0684967041e-001
  1.1433250000e+009  -8.5319519043e-002  -1.0436248779e-001
  1.1519125000e+009  -8.8668823242e-002  -1.0249328613e-001
  1.1605000000e+009  -9.1751098633e-002  -1.0030364990e-001
  1.1690875000e+009  -9.4444274902e-002  -9.7862243652e-002
  1.1776750000e+009  -9.7084045410e-002  -9.5687866211e-002
  1.1862625000e+009  -9.9426269531e-002  -9.3460083008e-002
  1.1948500000e+009  -1.0192871094e-001  -9.1156005859e-002
  1.2034375000e+009  -1.0457611084e-001  -8.8844299316e-002
  1.2120250000e+009  -1.0717773438e-001  -8.6921691895e-002
  1.2206125000e+009  -1.1006927490e-001  -8.4907531738e-002
  1.2292000000e+009  -1.1297607422e-001  -8.2916259766e-002
  1.2377875000e+009  -1.1614227295e-001  -8.0467224121e-002
  1.2463750000e+009  -1.1917877197e-001  -7.7751159668e-002
  1.2549625000e+009  -1.2229156494e-001  -7.4760437012e-002
  1.2635500000e+009  -1.2510681152e-001  -7.1388244629e-002
  1.2721375000e+009  -1.2776184082e-001  -6.7916870117e-002
  1.2807250000e+009  -1.2986755371e-001  -6.4437866211e-002
  1.2893125000e+009  -1.3178253174e-001  -6.0852050781e-002
  1.2979000000e+009  -1.3351440430e-001  -5.7708740234e-002
  1.3064875000e+009  -1.3516998291e-001  -5.4237365723e-002
  1.3150750000e+009  -1.3674926758e-001  -5.0971984863e-002
  1.3236625000e+009  -1.3848876953e-001  -4.7813415527e-002
  1.3322500000e+009  -1.4050292969e-001  -4.4792175293e-002
  1.3408375000e+009  -1.4241790771e-001  -4.1404724121e-002
  1.3494250000e+009  -1.4427185059e-001  -3.7811279297e-002
  1.3580125000e+009  -1.4604187012e-001  -3.4034729004e-002
  1.3666000000e+009  -1.4767456055e-001  -2.9968261719e-002
  1.3751875000e+009  -1.4900970459e-001  -2.5909423828e-002
  1.3837750000e+009  -1.5016937256e-001  -2.1804809570e-002
  1.3923625000e+009  -1.5103912354e-001  -1.7623901367e-002
  1.4009500000e+009  -1.5188598633e-001  -1.3450622559e-002
  1.4095375000e+009  -1.5222930908e-001  -9.3154907227e-003
  1.4181250000e+009  -1.5269470215e-001  -5.2490234375e-003
  1.4267125000e+009  -1.5351867676e-001  -1.3351440430e-003
  1.4353000000e+009  -1.5399169922e-001   2.5863647461e-003
  1.4438875000e+009  -1.5442657471e-001   6.6833496094e-003
  1.4524750000e+009  -1.5429687500e-001   1.0681152344e-002
  1.4610625000e+009  -1.5415954590e-001   1.4953613281e-002
  1.4696500000e+009  -1.5403747559e-001   1.8981933594e-002
  1.4782375000e+009  -1.5352630615e-001   2.2613525391e-002
  1.4868250000e+009  -1.5309143066e-001   2.6237487793e-002
  1.4954125000e+009  -1.5260314941e-001   2.9586791992e-002
  1.5040000000e+009  -1.5233612061e-001   3.2859802246e-002
  1.5125875000e+009  -1.5235900879e-001   3.6201477051e-002
  1.5211750000e+009  -1.5230560303e-001   3.9642333984e-002
  1.5297625000e+009  -1.5254211426e-001   4.3136596680e-002
  1.5383500000e+009  -1.5264129639e-001   4.7027587891e-002
  1.5469375000e+009  -1.5274047852e-001   5.1124572754e-002
  1.5555250000e+009  -1.5264129639e-001   5.5107116699e-002
  1.5641125000e+009  -1.5238189697e-001   5.9989929199e-002
  1.5727000000e+009  -1.5155029297e-001   6.4567565918e-002
  1.5812875000e+009  -1.5102386475e-001   6.9259643555e-002
  1.5898750000e+009  -1.4965057373e-001   7.4012756348e-002
  1.5984625000e+009  -1.4821624756e-001   7.8353881836e-002
  1.6070500000e+009  -1.4633941650e-001   8.2641601563e-002
  1.6156375000e+009  -1.4436340332e-001   8.6753845215e-002
  1.6242250000e+009  -1.4271545410e-001   9.1064453125e-002
  1.6328125000e+009  -1.4075469971e-001   9.4879150391e-002
  1.6414000000e+009  -1.3867187500e-001   9.8922729492e-002
  1.6499875000e+009  -1.3647460938e-001   1.0286712646e-001
  1.6585750000e+009  -1.3430786133e-001   1.0658264160e-001
  1.6671625000e+009  -1.3177490234e-001   1.1047363281e-001
  1.6757500000e+009  -1.2931823730e-001   1.1438751221e-001
  1.6843375000e+009  -1.2683105469e-001   1.1804962158e-001
  1.6929250000e+009  -1.2421417236e-001   1.2156677246e-001
  1.7015125000e+009  -1.2123870850e-001   1.2515258789e-001
  1.7101000000e+009  -1.1845397949e-001   1.2840270996e-001
  1.7186875000e+009  -1.1550140381e-001   1.3183593750e-001
  1.7272750000e+009  -1.1259460449e-001   1.3485717773e-001
  1.7358625000e+009  -1.0923767090e-001   1.3809967041e-001
  1.7444500000e+009  -1.0645294189e-001   1.4102935791e-001
  1.7530375000e+009  -1.0309600830e-001   1.4427185059e-001
  1.7616250000e+009  -9.9891662598e-002   1.4716339111e-001
  1.7702125000e+009  -9.6458435059e-002   1.5019226074e-001
  1.7788000000e+009  -9.2903137207e-002   1.5335845947e-001
  1.7873875000e+009  -8.9279174805e-002   1.5599060059e-001
  1.7959750000e+009  -8.5556030273e-002   1.5908050537e-001
  1.8045625000e+009  -8.1581115723e-002   1.6188049316e-001
  1.8131500000e+009  -7.7362060547e-002   1.6419982910e-001
  1.8217375000e+009  -7.3295593262e-002   1.6693878174e-001
  1.8303250000e+009  -6.9152832031e-002   1.6909790039e-001
  1.8389125000e+009  -6.4979553223e-002   1.7147064209e-001
  1.8475000000e+009  -6.0325622559e-002   1.7318725586e-001
  1.8560875000e+009  -5.5839538574e-002   1.7495727539e-001
  1.8646750000e+009  -5.1078796387e-002   1.7657470703e-001
  1.8732625000e+009  -4.6775817871e-002   1.7763519287e-001
  1.8818500000e+009  -4.1992187500e-002   1.7852783203e-001
  1.8904375000e+009  -3.7872314453e-002   1.7926025391e-001
  1.8990250000e+009  -3.3981323242e-002   1.7974090576e-001
  1.9076125000e+009  -3.0525207520e-002   1.8033599854e-001
  1.9162000000e+009  -2.6885986328e-002   1.8122863770e-001
  1.9247875000e+009  -2.3582458496e-002   1.8210601807e-001
  1.9333750000e+009  -2.0362854004e-002   1.8399047852e-001
  1.9419625000e+009  -1.6921997070e-002   1.8454742432e-001
  1.9505500000e+009  -1.2985229492e-002   1.8658447266e-001
  1.9591375000e+009  -8.8806152344e-003   1.8823242188e-001
  1.9677250000e+009  -4.0893554688e-003   1.9013977051e-001
  1.9763125000e+009   1.1596679688e-003   1.9168090820e-001
  1.9849000000e+009   6.3323974609e-003   1.9268798828e-001
  1.9934875000e+009   1.1642456055e-002   1.9294738770e-001
  2.0020750000e+009   1.6998291016e-002   1.9297790527e-001
  2.0106625000e+009   2.2674560547e-002   1.9296264648e-001
  2.0192500000e+009   2.7221679688e-002   1.9226074219e-001
  2.0278375000e+009   3.2043457031e-002   1.9177246094e-001
  2.0364250000e+009   3.6895751953e-002   1.9128417969e-001
  2.0450125000e+009   4.1549682617e-002   1.9047546387e-001
  2.0536000000e+009   4.5928955078e-002   1.9003295898e-001
  2.0621875000e+009   5.0552368164e-002   1.8960571289e-001
  2.0707750000e+009   5.5419921875e-002   1.8910217285e-001
  2.0793625000e+009   6.0226440430e-002   1.8849182129e-001
  2.0879500000e+009   6.5292358398e-002   1.8745422363e-001
  2.0965375000e+009   7.0526123047e-002   1.8617248535e-001
  2.1051250000e+009   7.5599670410e-002   1.8430328369e-001
  2.1137125000e+009   8.0207824707e-002   1.8215942383e-001
  2.1223000000e+009   8.5533142090e-002   1.7948150635e-001
  2.1308875000e+009   8.9706420898e-002   1.7710876465e-001
  2.1394750000e+009   9.3025207520e-002   1.7498779297e-001
  2.1480625000e+009   9.6679687500e-002   1.7304229736e-001
  2.1566500000e+009   1.0002899170e-001   1.7140960693e-001
  2.1652375000e+009   1.0354614258e-001   1.7000579834e-001
  2.1738250000e+009   1.0755157471e-001   1.6896820068e-001
  2.1824125000e+009   1.1127471924e-001   1.6761779785e-001
  2.1910000000e+009   1.1557006836e-001   1.6609954834e-001
  2.1995875000e+009   1.2063598633e-001   1.6480255127e-001
  2.2081750000e+009   1.2548065186e-001   1.6264343262e-001
  2.2167625000e+009   1.3040161133e-001   1.5995025635e-001
  2.2253500000e+009   1.3523864746e-001   1.5689849854e-001
  2.2339375000e+009   1.3962554932e-001   1.5352630615e-001
  2.2425250000e+009   1.4375305176e-001   1.4985656738e-001
  2.2511125000e+009   1.4761352539e-001   1.4625549316e-001
  2.2597000000e+009   1.5088653564e-001   1.4287567139e-001
  2.2682875000e+009   1.5454101563e-001   1.3928985596e-001
  2.2768750000e+009   1.5759277344e-001   1.3609313965e-001
  2.2854625000e+009   1.6114807129e-001   1.3268280029e-001
  2.2940500000e+009   1.6418457031e-001   1.2937164307e-001
  2.3026375000e+009   1.6768646240e-001   1.2602233887e-001
  2.3112250000e+009   1.7049407959e-001   1.2239837646e-001
  2.3198125000e+009   1.7356109619e-001   1.1871337891e-001
  2.3284000000e+009   1.7652893066e-001   1.1492919922e-001
  2.3369875000e+009   1.7972564697e-001   1.1116790771e-001
  2.3455750000e+009   1.8211364746e-001   1.0739135742e-001
  2.3541625000e+009   1.8463897705e-001   1.0384368896e-001
  2.3627500000e+009   1.8724060059e-001   1.0009765625e-001
  2.3713375000e+009   1.8995666504e-001   9.6710205078e-002
  2.3799250000e+009   1.9262695313e-001   9.3276977539e-002
  2.3885125000e+009   1.9567871094e-001   8.9782714844e-002
  2.3971000000e+009   1.9905090332e-001   8.5906982422e-002
  2.4056875000e+009   2.0201110840e-001   8.1680297852e-002
  2.4142750000e+009   2.0518493652e-001   7.7102661133e-002
  2.4228625000e+009   2.0820617676e-001   7.2326660156e-002
  2.4314500000e+009   2.1084594727e-001   6.6909790039e-002
  2.4400375000e+009   2.1313476563e-001   6.1538696289e-002
  2.4486250000e+009   2.1496582031e-001   5.5953979492e-002
  2.4572125000e+009   2.1636962891e-001   5.0445556641e-002
  2.4658000000e+009   2.1757507324e-001   4.5196533203e-002
  2.4743875000e+009   2.1830749512e-001   4.0084838867e-002
  2.4829750000e+009   2.1932983398e-001   3.5095214844e-002
  2.4915625000e+009   2.2006225586e-001   3.0120849609e-002
  2.5001500000e+009   2.2105407715e-001   2.5482177734e-002
  2.5087375000e+009   2.2195434570e-001   2.0523071289e-002
  2.5173250000e+009   2.2302246094e-001   1.5747070313e-002
  2.5259125000e+009   2.2390747070e-001   1.0482788086e-002
  2.5345000000e+009   2.2459411621e-001   5.0659179688e-003
  2.5430875000e+009   2.2474670410e-001  -2.1362304688e-004
  2.5516750000e+009   2.2494506836e-001  -5.6610107422e-003
  2.5602625000e+009   2.2463989258e-001  -1.0696411133e-002
  2.5688500000e+009   2.2421264648e-001  -1.5869140625e-002
  2.5774375000e+009   2.2404479980e-001  -2.0675659180e-002
  2.5860250000e+009   2.2348022461e-001  -2.5344848633e-002
  2.5946125000e+009   2.2309875488e-001  -2.9861450195e-002
  2.6032000000e+009   2.2285461426e-001  -3.4530639648e-002
  2.6117875000e+009   2.2277832031e-001  -3.9123535156e-002
  2.6203750000e+009   2.2264099121e-001  -4.4006347656e-002
  2.6289625000e+009   2.2259521484e-001  -4.9209594727e-002
  2.6375500000e+009   2.2224426270e-001  -5.4672241211e-002
  2.6461375000e+009   2.2166442871e-001  -6.0150146484e-002
  2.6547250000e+009   2.2058105469e-001  -6.5704345703e-002
  2.6633125000e+009   2.1914672852e-001  -7.1456909180e-002
  2.6719000000e+009   2.1739196777e-001  -7.6995849609e-002
  2.6804875000e+009   2.1580505371e-001  -8.2168579102e-002
  2.6890750000e+009   2.1353149414e-001  -8.7402343750e-002
  2.6976625000e+009   2.1125793457e-001  -9.2254638672e-002
  2.7062500000e+009   2.0872497559e-001  -9.6908569336e-002
  2.7148375000e+009   2.0657348633e-001  -1.0140991211e-001
  2.7234250000e+009   2.0405578613e-001  -1.0588073730e-001
  2.7320125000e+009   2.0137023926e-001  -1.0960388184e-001
  2.7406000000e+009   1.9886779785e-001  -1.1372375488e-001
  2.7491875000e+009   1.9689941406e-001  -1.1727905273e-001
  2.7577750000e+009   1.9482421875e-001  -1.2142944336e-001
  2.7663625000e+009   1.9267272949e-001  -1.2559509277e-001
  2.7749500000e+009   1.9081115723e-001  -1.2918090820e-001
  2.7835375000e+009   1.8876647949e-001  -1.3342285156e-001
  2.7921250000e+009   1.8719482422e-001  -1.3772583008e-001
  2.8007125000e+009   1.8478393555e-001  -1.4236450195e-001
  2.8093000000e+009   1.8205261230e-001  -1.4730072021e-001
  2.8178875000e+009   1.7947387695e-001  -1.5206909180e-001
  2.8264750000e+009   1.7622375488e-001  -1.5678405762e-001
  2.8350625000e+009   1.7244720459e-001  -1.6172790527e-001
  2.8436500000e+009   1.6816711426e-001  -1.6590881348e-001
  2.8522375000e+009   1.6419219971e-001  -1.6983032227e-001
  2.8608250000e+009   1.6006469727e-001  -1.7337036133e-001
  2.8694125000e+009   1.5605926514e-001  -1.7637634277e-001
  2.8780000000e+009   1.5224456787e-001  -1.7928314209e-001
  2.8865875000e+009   1.4842987061e-001  -1.8207550049e-001
  2.8951750000e+009   1.4511871338e-001  -1.8498229980e-001
  2.9037625000e+009   1.4158630371e-001  -1.8809509277e-001
  2.9123500000e+009   1.3825988770e-001  -1.9157409668e-001
  2.9209375000e+009   1.3442993164e-001  -1.9505310059e-001
  2.9295250000e+009   1.3066101074e-001  -1.9856262207e-001
  2.9381125000e+009   1.2594604492e-001  -2.0239257813e-001
  2.9467000000e+009   1.2144470215e-001  -2.0559692383e-001
  2.9552875000e+009   1.1593627930e-001  -2.0852661133e-001
